;$FILEVERSION=1.1
;$STARTTIME=43980.5972279167
;
;   C:\Users\eric.baril\Documents\838regenCAN3acuity.trc
;
;   Start time: 2020-05-29 14:20:00.492.0
;   Generated by PCAN-View v4.2.5.569
;
;   Message Number
;   |         Time Offset (ms)
;   |         |        Type
;   |         |        |        ID (hex)
;   |         |        |        |     Data Length
;   |         |        |        |     |   Data Bytes (hex) ...
;   |         |        |        |     |   |
;---+--   ----+----  --+--  ----+---  +  -+ -- -- -- -- -- -- --
     1)         9.3  Rx         020B  8  FF 7F 00 00 C4 09 FF 7F 
     2)         9.5  Rx         030B  1  00 
     3)        10.0  Rx         020C  8  FF 7F 00 00 D0 07 FF 7F 
     4)        10.2  Rx         030C  1  00 
     5)        10.7  Rx         020D  8  00 00 00 00 B8 0B FF 7F 
     6)        10.9  Rx         030D  1  00 
     7)        13.0  Rx         018D  8  00 00 00 00 00 00 1E 00 
     8)        13.5  Rx         028D  8  00 00 0B 20 68 01 66 01 
     9)        14.0  Rx         018B  8  00 00 00 00 00 00 1F 00 
    10)        14.5  Rx         028B  8  00 00 13 20 53 01 72 01 
    11)        15.0  Rx         018C  8  00 00 00 00 00 00 1D 00 
    12)        15.5  Rx         028C  8  00 00 19 20 27 01 51 01 
    13)        16.2  Rx         070D  1  05 
    14)        37.2  Rx         070B  1  05 
    15)        49.2  Rx         01AA  8  1B 20 36 00 D9 0C 01 00 
    16)        56.2  Rx         072A  1  05 
    17)        66.9  Rx         0080  0  
    18)        68.5  Rx         070D  1  05 
    19)        74.3  Rx         070C  1  05 
    20)        88.1  Rx         020B  8  FF 7F 00 00 C4 09 FF 7F 
    21)        88.4  Rx         030B  1  00 
    22)        88.9  Rx         020C  8  FF 7F 00 00 D0 07 FF 7F 
    23)        89.1  Rx         030C  1  00 
    24)        89.6  Rx         020D  8  00 00 00 00 B8 0B FF 7F 
    25)        90.1  Rx         018B  8  00 00 00 00 00 00 21 00 
    26)        90.5  Rx         028B  8  00 00 13 20 53 01 72 01 
    27)        91.1  Rx         018C  8  00 00 00 00 00 00 22 00 
    28)        91.5  Rx         028C  8  00 00 0D 20 27 01 51 01 
    29)        91.8  Rx         030D  1  00 
    30)        93.4  Rx         018D  8  00 00 00 00 00 00 1E 00 
    31)        93.9  Rx         028D  8  00 00 0B 20 68 01 66 01 
    32)        96.1  Rx         0703  1  05 
    33)       120.6  Rx         070D  1  05 
    34)       137.6  Rx         070B  1  05 
    35)       145.9  Rx         0080  0  
    36)       149.2  Error      0002  4  01 18 01 00
    37)       149.6  Error      0004  4  01 0A 02 00
    38)       149.7  Error      0004  4  01 02 03 00
    39)       150.2  Rx         01AA  8  1B 20 35 00 DA 0C 01 00 
    40)       150.2  Error      0000  4  00 00 02 00
    41)       156.3  Rx         072A  1  05 
    42)       156.4  Error      0000  4  00 00 01 00
    43)       167.5  Rx         020B  8  FF 7F 00 00 C4 09 FF 7F 
    44)       167.5  Error      0000  4  00 00 00 00
    45)       167.8  Rx         030B  1  00 
    46)       168.3  Rx         020C  8  FF 7F 00 00 D0 07 FF 7F 
    47)       168.5  Rx         030C  1  00 
    48)       169.0  Rx         020D  8  00 00 00 00 B8 0B FF 7F 
    49)       169.2  Rx         030D  1  00 
    50)       170.2  Rx         018B  8  00 00 00 00 00 00 24 00 
    51)       170.6  Rx         028B  8  00 00 13 20 53 01 72 01 
    52)       171.1  Rx         018C  8  00 00 00 00 00 00 1B 00 
    53)       171.6  Rx         028C  8  00 00 19 20 27 01 50 01 
    54)       173.0  Rx         070D  1  05 
    55)       173.7  Rx         018D  8  00 00 00 00 00 00 18 00 
    56)       174.2  Rx         028D  8  00 00 0B 20 68 01 66 01 
    57)       174.8  Rx         070C  1  05 
    58)       225.1  Rx         070D  1  05 
    59)       225.3  Rx         0080  0  
    60)       238.0  Rx         070B  1  05 
    61)       246.4  Rx         020B  8  FF 7F 00 00 C4 09 FF 7F 
    62)       246.6  Rx         030B  1  00 
    63)       247.1  Rx         020C  8  FF 7F 00 00 D0 07 FF 7F 
    64)       247.4  Rx         030C  1  00 
    65)       247.8  Rx         020D  8  00 00 00 00 B8 0B FF 7F 
    66)       248.1  Rx         030D  1  00 
    67)       249.3  Rx         01AA  8  1B 20 35 00 DA 0C 01 00 
    68)       249.8  Rx         018D  8  00 00 00 00 00 00 1B 00 
    69)       250.3  Rx         028D  8  00 00 0B 20 68 01 66 01 
    70)       250.8  Rx         018B  8  00 00 00 00 00 00 25 00 
    71)       251.2  Rx         028B  8  00 00 13 20 53 01 72 01 
    72)       251.7  Rx         018C  8  00 00 00 00 00 00 1D 00 
    73)       252.2  Rx         028C  8  00 00 19 20 27 01 51 01 
    74)       256.2  Rx         072A  1  05 
    75)       275.0  Rx         070C  1  05 
    76)       277.3  Rx         070D  1  05 
    77)       304.7  Rx         0080  0  
    78)       326.4  Rx         020B  8  FF 7F 00 00 C4 09 FF 7F 
    79)       326.6  Rx         030B  1  00 
    80)       327.1  Rx         020C  8  FF 7F 00 00 D0 07 FF 7F 
    81)       327.4  Rx         030C  1  00 
    82)       327.9  Rx         020D  8  00 00 00 00 B8 0B FF 7F 
    83)       328.1  Rx         030D  1  00 
    84)       329.5  Rx         070D  1  05 
    85)       330.0  Rx         018D  8  00 00 00 00 00 00 1F 00 
    86)       330.5  Rx         028D  8  00 00 18 20 68 01 66 01 
    87)       331.0  Rx         018B  8  00 00 00 00 00 00 25 00 
    88)       331.5  Rx         028B  8  00 00 13 20 53 01 72 01 
    89)       332.0  Rx         018C  8  00 00 00 00 00 00 1C 00 
    90)       332.4  Rx         028C  8  00 00 19 20 27 01 51 01 
    91)       338.3  Rx         070B  1  05 
    92)       349.3  Rx         01AA  8  1C 20 35 00 DA 0C 01 00 
    93)       356.2  Rx         072A  1  05 
    94)       375.4  Rx         070C  1  05 
    95)       381.7  Rx         070D  1  05 
    96)       384.6  Rx         0080  0  
    97)       405.7  Rx         020B  8  FF 7F 00 00 C4 09 FF 7F 
    98)       405.9  Rx         030B  1  00 
    99)       406.4  Rx         020C  8  FF 7F 00 00 D0 07 FF 7F 
   100)       406.6  Rx         030C  1  00 
   101)       407.1  Rx         018B  8  00 00 00 00 00 00 1F 00 
   102)       407.6  Rx         020D  8  00 00 00 00 B8 0B FF 7F 
   103)       408.1  Rx         018C  8  00 00 00 00 00 00 1E 00 
   104)       408.6  Rx         028B  8  00 00 13 20 53 01 72 01 
   105)       409.1  Rx         028C  8  00 00 19 20 27 01 51 01 
   106)       409.3  Rx         030D  1  00 
   107)       410.3  Rx         018D  8  00 00 00 00 00 00 25 00 
   108)       410.8  Rx         028D  8  00 00 0B 20 68 01 66 01 
   109)       413.2  Rx         0703  1  05 
   110)       434.0  Rx         070D  1  05 
   111)       438.8  Rx         070B  1  05 
   112)       449.3  Rx         01AA  8  1C 20 36 00 DA 0C 01 00 
   113)       456.3  Rx         072A  1  05 
   114)       463.6  Rx         0080  0  
   115)       475.7  Rx         070C  1  05 
   116)       485.3  Rx         020B  8  FF 7F 00 00 C4 09 FF 7F 
   117)       485.5  Rx         030B  1  00 
   118)       486.0  Rx         020C  8  FF 7F 00 00 D0 07 FF 7F 
   119)       486.2  Rx         030C  1  00 
   120)       486.7  Rx         020D  8  00 00 00 00 B8 0B FF 7F 
   121)       486.9  Rx         030D  1  00 
   122)       487.2  Rx         070D  1  05 
   123)       487.8  Rx         018B  8  00 00 00 00 00 00 1D 00 
   124)       488.3  Rx         018C  8  00 00 00 00 00 00 1A 00 
   125)       488.8  Rx         028B  8  00 00 13 20 53 01 72 01 
   126)       489.2  Rx         028C  8  00 00 19 20 27 01 51 01 
   127)       490.6  Rx         018D  8  00 00 00 00 00 00 26 00 
   128)       491.1  Rx         028D  8  00 00 0B 20 68 01 66 01 
   129)       538.4  Rx         070D  1  05 
   130)       539.1  Rx         070B  1  05 
   131)       543.5  Rx         0080  0  
   132)       549.4  Rx         01AA  8  1C 20 35 00 DA 0C 01 00 
   133)       556.3  Error      0004  4  01 08 01 00
   134)       556.3  Error      0008  4  01 13 09 00
   135)       556.5  Rx         072A  1  05 
   136)       556.6  Error      0000  4  00 00 08 00
   137)       565.2  Rx         020B  8  FF 7F 00 00 C4 09 FF 7F 
   138)       565.2  Error      0000  4  00 00 07 00
   139)       565.4  Rx         030B  1  00 
   140)       565.4  Error      0000  4  00 00 06 00
   141)       565.9  Rx         020C  8  FF 7F 00 00 D0 07 FF 7F 
   142)       565.9  Error      0000  4  00 00 05 00
   143)       566.1  Rx         030C  1  00 
   144)       566.1  Error      0000  4  00 00 04 00
   145)       566.6  Rx         020D  8  00 00 00 00 B8 0B FF 7F 
   146)       566.6  Error      0000  4  00 00 03 00
   147)       566.9  Rx         030D  1  00 
   148)       566.9  Error      0000  4  00 00 02 00
   149)       567.6  Rx         018B  8  00 00 00 00 00 00 20 00 
   150)       567.6  Error      0000  4  00 00 01 00
   151)       568.1  Rx         028B  8  00 00 13 20 53 01 72 01 
   152)       568.1  Error      0000  4  00 00 00 00
   153)       568.6  Rx         018C  8  00 00 00 00 00 00 18 00 
   154)       569.1  Rx         028C  8  00 00 19 20 27 01 50 01 
   155)       571.0  Rx         018D  8  00 00 00 00 00 00 20 00 
   156)       571.5  Rx         028D  8  00 00 18 20 68 01 66 01 
   157)       576.0  Rx         070C  1  05 
   158)       590.6  Rx         070D  1  05 
   159)       622.9  Rx         0080  0  
   160)       639.5  Rx         070B  1  05 
   161)       642.9  Rx         070D  1  05 
   162)       644.2  Rx         020B  8  FF 7F 00 00 C4 09 FF 7F 
   163)       644.5  Rx         030B  1  00 
   164)       645.0  Rx         020C  8  FF 7F 00 00 D0 07 FF 7F 
   165)       645.2  Rx         030C  1  00 
   166)       645.7  Rx         020D  8  00 00 00 00 B8 0B FF 7F 
   167)       645.9  Rx         030D  1  00 
   168)       647.2  Rx         018D  8  00 00 00 00 00 00 1A 00 
   169)       647.7  Rx         028D  8  00 00 0B 20 68 01 66 01 
   170)       648.2  Rx         018B  8  00 00 00 00 00 00 1A 00 
   171)       648.7  Rx         028B  8  00 00 13 20 53 01 72 01 
   172)       649.2  Rx         018C  8  00 00 00 00 00 00 1B 00 
   173)       649.7  Rx         01AA  8  1C 20 35 00 DA 0C 01 00 
   174)       650.1  Rx         028C  8  00 00 19 20 27 01 51 01 
   175)       656.2  Error      0004  4  01 08 01 00
   176)       656.3  Error      0008  4  01 13 09 00
   177)       656.5  Error      0004  4  01 08 0A 00
   178)       656.8  Rx         072A  1  05 
   179)       656.8  Error      0000  4  00 00 09 00
   180)       676.6  Rx         070C  1  05 
   181)       676.6  Error      0000  4  00 00 08 00
   182)       695.1  Rx         070D  1  05 
   183)       695.1  Error      0000  4  00 00 07 00
   184)       702.3  Rx         0080  0  
   185)       702.3  Error      0000  4  00 00 06 00
   186)       724.2  Rx         020B  8  FF 7F 00 00 C4 09 FF 7F 
   187)       724.2  Error      0000  4  00 00 05 00
   188)       724.4  Rx         030B  1  00 
   189)       724.4  Error      0000  4  00 00 04 00
   190)       724.9  Rx         020C  8  FF 7F 00 00 D0 07 FF 7F 
   191)       724.9  Error      0000  4  00 00 03 00
   192)       725.1  Rx         030C  1  00 
   193)       725.1  Error      0000  4  00 00 02 00
   194)       725.6  Rx         020D  8  00 00 00 00 B8 0B FF 7F 
   195)       725.6  Error      0000  4  00 00 01 00
   196)       725.8  Rx         030D  1  00 
   197)       725.8  Error      0000  4  00 00 00 00
   198)       727.6  Rx         018D  8  00 00 00 00 00 00 20 00 
   199)       728.1  Rx         028D  8  00 00 0B 20 68 01 66 01 
   200)       728.6  Rx         018B  8  00 00 00 00 00 00 21 00 
   201)       729.1  Rx         018C  8  00 00 00 00 00 00 1D 00 
   202)       729.5  Rx         028B  8  00 00 13 20 53 01 72 01 
   203)       730.0  Rx         028C  8  00 00 19 20 27 01 51 01 
   204)       731.7  Rx         0703  1  05 
   205)       739.9  Rx         070B  1  05 
   206)       747.4  Rx         070D  1  05 
   207)       749.4  Rx         01AA  8  1C 20 35 00 DA 0C 01 00 
   208)       756.2  Error      0004  4  01 0A 01 00
   209)       756.5  Error      0002  4  01 1A 01 00
   210)       756.8  Rx         072A  1  05 
   211)       756.8  Error      0000  4  00 00 00 00
   212)       759.3  Rx         04AA  8  0F 22 0E 1D 05 14 00 00 
   213)       776.8  Rx         070C  1  05 
   214)       782.9  Rx         0080  0  
   215)       799.5  Rx         070D  1  05 
   216)       804.1  Rx         020B  8  FF 7F 00 00 C4 09 FF 7F 
   217)       804.3  Rx         030B  1  00 
   218)       804.8  Rx         020C  8  FF 7F 00 00 D0 07 FF 7F 
   219)       805.0  Rx         030C  1  00 
   220)       805.5  Rx         020D  8  00 00 00 00 B8 0B FF 7F 
   221)       805.8  Rx         030D  1  00 
   222)       807.9  Rx         018D  8  00 00 00 00 00 00 26 00 
   223)       808.4  Rx         028D  8  00 00 0B 20 68 01 66 01 
   224)       808.9  Rx         018B  8  00 00 00 00 00 00 23 00 
   225)       809.4  Rx         018C  8  00 00 00 00 00 00 21 00 
   226)       809.9  Rx         028B  8  00 00 13 20 53 01 72 01 
   227)       810.3  Rx         028C  8  00 00 19 20 27 01 51 01 
   228)       840.2  Rx         070B  1  05 
   229)       849.2  Error      0004  4  01 0A 01 00
   230)       849.7  Rx         01AA  8  1C 20 35 00 DA 0C 01 00 
   231)       849.7  Error      0000  4  00 00 00 00
   232)       851.9  Rx         070D  1  05 
   233)       856.5  Rx         072A  1  05 
   234)       861.2  Rx         0080  0  
   235)       877.2  Rx         070C  1  05 
   236)       883.2  Rx         020B  8  FF 7F 00 00 C4 09 FF 7F 
   237)       883.4  Rx         030B  1  00 
   238)       883.9  Rx         020C  8  FF 7F 00 00 D0 07 FF 7F 
   239)       884.1  Rx         030C  1  00 
   240)       884.6  Rx         020D  8  00 00 00 00 B8 0B FF 7F 
   241)       884.9  Rx         030D  1  00 
   242)       885.4  Rx         018B  8  00 00 00 00 00 00 24 00 
   243)       885.9  Rx         018C  8  00 00 00 00 00 00 1F 00 
   244)       886.3  Rx         028B  8  00 00 13 20 53 01 72 01 
   245)       886.8  Rx         028C  8  00 00 19 20 27 01 51 01 
   246)       888.3  Rx         018D  8  00 00 00 00 00 00 1F 00 
   247)       888.7  Rx         028D  8  00 00 18 20 68 01 66 01 
   248)       903.9  Rx         070D  1  05 
   249)       940.3  Rx         0080  0  
   250)       940.7  Rx         070B  1  05 
   251)       949.5  Rx         01AA  8  1C 20 34 00 DA 0C 01 00 
   252)       956.2  Rx         070D  1  05 
   253)       956.5  Rx         072A  1  05 
   254)       961.9  Rx         020B  8  FF 7F 00 00 C4 09 FF 7F 
   255)       962.1  Rx         030B  1  00 
   256)       962.6  Rx         020C  8  FF 7F 00 00 D0 07 FF 7F 
   257)       962.8  Rx         030C  1  00 
   258)       963.3  Rx         020D  8  00 00 00 00 B8 0B FF 7F 
   259)       963.6  Rx         030D  1  00 
   260)       964.6  Rx         018D  8  00 00 00 00 00 00 1A 00 
   261)       965.1  Rx         028D  8  00 00 18 20 68 01 66 01 
   262)       965.6  Rx         018B  8  00 00 00 00 00 00 25 00 
   263)       966.1  Rx         018C  8  00 00 00 00 00 00 20 00 
   264)       966.6  Rx         028B  8  00 00 13 20 53 01 72 01 
   265)       967.1  Rx         028C  8  00 00 19 20 27 01 51 01 
   266)       977.5  Rx         070C  1  05 
   267)      1008.4  Rx         070D  1  05 
   268)      1019.1  Rx         0080  0  
   269)      1041.2  Rx         020B  8  FF 7F 00 00 C4 09 FF 7F 
   270)      1041.4  Rx         030B  1  00 
   271)      1041.9  Rx         020C  8  FF 7F 00 00 D0 07 FF 7F 
   272)      1042.1  Rx         030C  1  00 
   273)      1042.6  Rx         020D  8  00 00 00 00 B8 0B FF 7F 
   274)      1042.8  Rx         030D  1  00 
   275)      1043.1  Rx         070B  1  05 
   276)      1045.0  Rx         018D  8  00 00 00 00 00 00 21 00 
   277)      1045.4  Rx         028D  8  00 00 0B 20 68 01 66 01 
   278)      1045.9  Rx         018B  8  00 00 00 00 00 00 20 00 
   279)      1046.4  Rx         018C  8  00 00 00 00 00 00 1A 00 
   280)      1046.9  Rx         028B  8  00 00 13 20 53 01 72 01 
   281)      1047.4  Rx         028C  8  00 00 19 20 27 01 51 01 
   282)      1048.1  Rx         0703  1  05 
   283)      1049.3  Error      0004  4  01 0A 01 00
   284)      1049.9  Rx         01AA  8  1C 20 34 00 DA 0C 01 00 
   285)      1049.9  Error      0000  4  00 00 00 00
   286)      1056.5  Rx         072A  1  05 
   287)      1060.6  Rx         070D  1  05 
   288)      1077.8  Rx         070C  1  05 
   289)      1098.2  Rx         0080  0  
   290)      1112.8  Rx         070D  1  05 
   291)      1120.1  Rx         020B  8  FF 7F 00 00 C4 09 FF 7F 
   292)      1120.3  Rx         030B  1  00 
   293)      1120.8  Rx         020C  8  FF 7F 00 00 D0 07 FF 7F 
   294)      1121.1  Rx         030C  1  00 
   295)      1121.5  Rx         020D  8  00 00 00 00 B8 0B FF 7F 
   296)      1122.0  Rx         018B  8  00 00 00 00 00 00 22 00 
   297)      1122.5  Rx         028B  8  00 00 13 20 53 01 72 01 
   298)      1123.0  Rx         018C  8  00 00 00 00 00 00 1D 00 
   299)      1123.5  Rx         028C  8  00 00 19 20 27 01 51 01 
   300)      1123.7  Rx         030D  1  00 
   301)      1125.3  Rx         018D  8  00 00 00 00 00 00 1E 00 
   302)      1125.8  Rx         028D  8  00 00 0B 20 68 01 66 01 
   303)      1141.5  Rx         070B  1  05 
   304)      1149.5  Rx         01AA  8  1C 20 34 00 DA 0C 01 00 
   305)      1156.3  Error      0004  4  01 08 01 00
   306)      1156.4  Error      0008  4  01 13 09 00
   307)      1156.6  Error      0002  4  01 1B 0A 00
   308)      1156.7  Error      0008  4  01 13 12 00
   309)      1157.0  Error      0002  4  01 1A 12 00
   310)      1157.3  Rx         072A  1  05 
   311)      1157.3  Error      0000  4  00 00 11 00
   312)      1165.0  Rx         070D  1  05 
   313)      1165.0  Error      0000  4  00 00 10 00
   314)      1178.3  Rx         070C  1  05 
   315)      1178.3  Error      0000  4  00 00 0F 00
   316)      1178.8  Rx         0080  0  
   317)      1178.8  Error      0000  4  00 00 0E 00
   318)      1200.8  Rx         020B  8  FF 7F 00 00 C4 09 FF 7F 
   319)      1200.8  Error      0000  4  00 00 0D 00
   320)      1201.0  Rx         030B  1  00 
   321)      1201.0  Error      0000  4  00 00 0C 00
   322)      1201.5  Rx         020C  8  FF 7F 00 00 D0 07 FF 7F 
   323)      1201.5  Error      0000  4  00 00 0B 00
   324)      1201.7  Rx         030C  1  00 
   325)      1201.7  Error      0000  4  00 00 0A 00
   326)      1202.2  Rx         018B  8  00 00 00 00 00 00 1E 00 
   327)      1202.2  Error      0000  4  00 00 09 00
   328)      1202.7  Rx         020D  8  00 00 00 00 B8 0B FF 7F 
   329)      1202.7  Error      0000  4  00 00 08 00
   330)      1203.2  Rx         018C  8  00 00 00 00 00 00 20 00 
   331)      1203.2  Error      0000  4  00 00 07 00
   332)      1203.7  Rx         028B  8  00 00 13 20 53 01 72 01 
   333)      1203.7  Error      0000  4  00 00 06 00
   334)      1204.2  Rx         028C  8  00 00 19 20 27 01 51 01 
   335)      1204.2  Error      0000  4  00 00 05 00
   336)      1204.4  Rx         030D  1  00 
   337)      1204.4  Error      0000  4  00 00 04 00
   338)      1205.6  Rx         018D  8  00 00 00 00 00 00 1C 00 
   339)      1205.7  Error      0000  4  00 00 03 00
   340)      1206.1  Rx         028D  8  00 00 0B 20 68 01 66 01 
   341)      1206.1  Error      0000  4  00 00 02 00
   342)      1217.3  Rx         070D  1  05 
   343)      1217.3  Error      0000  4  00 00 01 00
   344)      1241.8  Rx         070B  1  05 
   345)      1241.8  Error      0000  4  00 00 00 00
   346)      1249.5  Error      0004  4  01 08 01 00
   347)      1250.0  Error      0002  4  01 1A 01 00
   348)      1250.6  Rx         01AA  8  1D 20 34 00 DA 0C 01 00 
   349)      1250.6  Error      0000  4  00 00 00 00
   350)      1256.4  Rx         072A  1  05 
   351)      1257.8  Rx         0080  0  
   352)      1269.5  Rx         070D  1  05 
   353)      1278.5  Rx         070C  1  05 
   354)      1279.7  Rx         020B  8  FF 7F 00 00 C4 09 FF 7F 
   355)      1280.0  Rx         030B  1  00 
   356)      1280.5  Rx         020C  8  FF 7F 00 00 D0 07 FF 7F 
   357)      1280.7  Rx         030C  1  00 
   358)      1281.2  Rx         020D  8  00 00 00 00 B8 0B FF 7F 
   359)      1281.4  Rx         030D  1  00 
   360)      1282.0  Rx         018D  8  00 00 00 00 00 00 1D 00 
   361)      1282.5  Rx         018B  8  00 00 00 00 00 00 1D 00 
   362)      1282.9  Rx         028B  8  00 00 13 20 53 01 72 01 
   363)      1283.4  Rx         018C  8  00 00 00 00 00 00 20 00 
   364)      1283.9  Rx         028C  8  00 00 19 20 27 01 51 01 
   365)      1284.4  Rx         028D  8  00 00 0B 20 68 01 66 01 
   366)      1321.7  Rx         070D  1  05 
   367)      1336.8  Rx         0080  0  
   368)      1342.2  Rx         070B  1  05 
   369)      1349.5  Error      0002  4  01 18 01 00
   370)      1350.1  Rx         01AA  8  1D 20 34 00 DA 0C 01 00 
   371)      1350.1  Error      0000  4  00 00 00 00
   372)      1356.5  Rx         072A  1  05 
   373)      1358.5  Rx         020B  8  FF 7F 00 00 C4 09 FF 7F 
   374)      1358.7  Rx         030B  1  00 
   375)      1359.2  Rx         020C  8  FF 7F 00 00 D0 07 FF 7F 
   376)      1359.4  Rx         030C  1  00 
   377)      1359.9  Rx         020D  8  00 00 00 00 B8 0B FF 7F 
   378)      1360.2  Rx         030D  1  00 
   379)      1362.7  Rx         018B  8  00 00 00 00 00 00 1F 00 
   380)      1363.2  Rx         018D  8  00 00 00 00 00 00 1B 00 
   381)      1363.7  Rx         018C  8  00 00 00 00 00 00 22 00 
   382)      1364.1  Rx         028B  8  00 00 13 20 53 01 72 01 
   383)      1364.6  Rx         028C  8  00 00 19 20 27 01 51 01 
   384)      1365.1  Rx         028D  8  00 00 0B 20 68 01 66 01 
   385)      1366.5  Rx         0703  1  05 
   386)      1373.9  Rx         070D  1  05 
   387)      1379.1  Rx         070C  1  05 
   388)      1415.5  Rx         0080  0  
   389)      1426.3  Rx         070D  1  05 
   390)      1436.9  Rx         020B  8  FF 7F 00 00 C4 09 FF 7F 
   391)      1437.1  Rx         030B  1  00 
   392)      1437.6  Rx         020C  8  FF 7F 00 00 D0 07 FF 7F 
   393)      1437.8  Rx         030C  1  00 
   394)      1438.3  Rx         020D  8  00 00 00 00 B8 0B FF 7F 
   395)      1438.5  Rx         030D  1  00 
   396)      1439.0  Rx         018B  8  00 00 00 00 00 00 1A 00 
   397)      1439.5  Rx         028B  8  00 00 13 20 53 01 72 01 
   398)      1440.0  Rx         018C  8  00 00 00 00 00 00 22 00 
   399)      1440.5  Rx         028C  8  00 00 19 20 27 01 51 01 
   400)      1442.6  Rx         018D  8  00 00 00 00 00 00 20 00 
   401)      1443.1  Rx         028D  8  00 00 0B 20 68 01 66 01 
   402)      1443.4  Rx         070B  1  05 
   403)      1449.6  Rx         01AA  8  1D 20 34 00 DA 0C 01 00 
   404)      1456.3  Error      0004  4  01 02 01 00
   405)      1456.5  Error      0004  4  01 0A 02 00
   406)      1456.8  Rx         072A  1  05 
   407)      1456.8  Error      0000  4  00 00 01 00
   408)      1478.3  Rx         070D  1  05 
   409)      1478.4  Error      0000  4  00 00 00 00
   410)      1479.2  Rx         070C  1  05 
   411)      1494.5  Rx         0080  0  
   412)      1517.2  Rx         020B  8  FF 7F 00 00 C4 09 FF 7F 
   413)      1517.4  Rx         030B  1  00 
   414)      1517.9  Rx         020C  8  FF 7F 00 00 D0 07 FF 7F 
   415)      1518.2  Rx         030C  1  00 
   416)      1518.6  Rx         020D  8  00 00 00 00 B8 0B FF 7F 
   417)      1518.9  Rx         030D  1  00 
   418)      1519.4  Rx         018B  8  00 00 00 00 00 00 21 00 
   419)      1519.9  Rx         018C  8  00 00 00 00 00 00 1F 00 
   420)      1520.3  Rx         028B  8  00 00 13 20 53 01 72 01 
   421)      1520.8  Rx         028C  8  00 00 19 20 27 01 51 01 
   422)      1523.0  Rx         018D  8  00 00 00 00 00 00 23 00 
   423)      1523.5  Rx         028D  8  00 00 18 20 68 01 66 01 
   424)      1530.7  Rx         070D  1  05 
   425)      1543.0  Rx         070B  1  05 
   426)      1549.6  Error      0002  4  01 1B 01 00
   427)      1549.6  Error      0008  4  01 13 09 00
   428)      1550.1  Rx         01AA  8  1D 20 34 00 DA 0C 01 00 
   429)      1550.2  Error      0000  4  00 00 08 00
   430)      1556.7  Rx         072A  1  05 
   431)      1556.7  Error      0000  4  00 00 07 00
   432)      1576.1  Rx         0080  0  
   433)      1576.1  Error      0000  4  00 00 06 00
   434)      1579.6  Rx         070C  1  05 
   435)      1579.6  Error      0000  4  00 00 05 00
   436)      1582.8  Rx         070D  1  05 
   437)      1582.8  Error      0000  4  00 00 04 00
   438)      1597.9  Rx         020B  8  FF 7F 00 00 C4 09 FF 7F 
   439)      1598.0  Error      0000  4  00 00 03 00
   440)      1598.2  Rx         030B  1  00 
   441)      1598.2  Error      0000  4  00 00 02 00
   442)      1598.7  Rx         020C  8  FF 7F 00 00 D0 07 FF 7F 
   443)      1598.7  Error      0000  4  00 00 01 00
   444)      1598.9  Rx         030C  1  00 
   445)      1598.9  Error      0000  4  00 00 00 00
   446)      1599.4  Rx         020D  8  00 00 00 00 B8 0B FF 7F 
   447)      1599.9  Rx         018B  8  00 00 00 00 00 00 1B 00 
   448)      1600.4  Rx         018C  8  00 00 00 00 00 00 1C 00 
   449)      1600.9  Rx         028B  8  00 00 13 20 53 01 72 01 
   450)      1601.3  Rx         028C  8  00 00 19 20 27 01 51 01 
   451)      1601.6  Rx         030D  1  00 
   452)      1603.3  Rx         018D  8  00 00 00 00 00 00 20 00 
   453)      1603.7  Rx         028D  8  00 00 18 20 68 01 66 01 
   454)      1635.0  Rx         070D  1  05 
   455)      1643.4  Rx         070B  1  05 
   456)      1649.6  Error      0002  4  01 1A 01 00
   457)      1650.2  Rx         01AA  8  1D 20 35 00 DA 0C 01 00 
   458)      1650.2  Error      0000  4  00 00 00 00
   459)      1656.0  Rx         0080  0  
   460)      1656.5  Rx         072A  1  05 
   461)      1677.4  Rx         020B  8  FF 7F 00 00 C4 09 FF 7F 
   462)      1677.7  Rx         030B  1  00 
   463)      1678.2  Rx         020C  8  FF 7F 00 00 D0 07 FF 7F 
   464)      1678.4  Rx         030C  1  00 
   465)      1678.9  Rx         020D  8  00 00 00 00 B8 0B FF 7F 
   466)      1679.1  Rx         030D  1  00 
   467)      1679.6  Rx         018D  8  00 00 00 00 00 00 20 00 
   468)      1680.1  Rx         018B  8  00 00 00 00 00 00 1D 00 
   469)      1680.6  Rx         028B  8  00 00 13 20 53 01 72 01 
   470)      1680.8  Rx         070C  1  05 
   471)      1681.3  Rx         018C  8  00 00 00 00 00 00 1C 00 
   472)      1681.8  Rx         028C  8  00 00 19 20 27 01 51 01 
   473)      1683.5  Rx         028D  8  00 00 18 20 68 01 65 01 
   474)      1685.0  Rx         0703  1  05 
   475)      1687.1  Rx         070D  1  05 
   476)      1734.9  Rx         0080  0  
   477)      1739.3  Rx         070D  1  05 
   478)      1743.6  Rx         070B  1  05 
   479)      1749.6  Rx         01AA  8  1D 20 35 00 DA 0C 01 00 
   480)      1756.5  Rx         020B  8  FF 7F 00 00 C4 09 FF 7F 
   481)      1756.7  Rx         030B  1  00 
   482)      1757.2  Rx         020C  8  FF 7F 00 00 D0 07 FF 7F 
   483)      1757.4  Rx         030C  1  00 
   484)      1757.9  Rx         020D  8  00 00 00 00 B8 0B FF 7F 
   485)      1758.2  Rx         030D  1  00 
   486)      1758.4  Rx         072A  1  05 
   487)      1759.2  Error      0004  4  01 0A 01 00
   488)      1759.8  Rx         04AA  8  10 22 0E 1D 05 14 00 00 
   489)      1759.8  Error      0000  4  00 00 00 00
   490)      1760.3  Rx         018B  8  00 00 00 00 00 00 1C 00 
   491)      1760.8  Rx         018C  8  00 00 00 00 00 00 1F 00 
   492)      1761.3  Rx         018D  8  00 00 00 00 00 00 1B 00 
   493)      1761.8  Rx         028B  8  00 00 13 20 53 01 72 01 
   494)      1762.2  Rx         028C  8  00 00 19 20 27 01 51 01 
   495)      1762.7  Rx         028D  8  00 00 0B 20 68 01 66 01 
   496)      1780.2  Rx         070C  1  05 
   497)      1791.5  Rx         070D  1  05 
   498)      1814.5  Rx         0080  0  
   499)      1835.5  Rx         020B  8  FF 7F 00 00 C4 09 FF 7F 
   500)      1835.8  Rx         030B  1  00 
   501)      1836.3  Rx         020C  8  FF 7F 00 00 D0 07 FF 7F 
   502)      1836.8  Rx         018B  8  00 00 00 00 00 00 1C 00 
   503)      1837.3  Rx         018C  8  00 00 00 00 00 00 23 00 
   504)      1837.7  Rx         028B  8  00 00 13 20 53 01 72 01 
   505)      1838.0  Rx         030C  1  00 
   506)      1838.4  Rx         020D  8  00 00 00 00 B8 0B FF 7F 
   507)      1838.7  Rx         030D  1  00 
   508)      1840.2  Rx         018D  8  00 00 00 00 00 00 1E 00 
   509)      1840.7  Rx         028D  8  00 00 0B 20 68 01 66 01 
   510)      1841.1  Rx         028C  8  00 00 19 20 27 01 51 01 
   511)      1843.8  Rx         070D  1  05 
   512)      1844.1  Rx         070B  1  05 
   513)      1849.6  Rx         01AA  8  1D 20 35 00 DA 0C 01 00 
   514)      1856.5  Rx         072A  1  05 
   515)      1880.6  Rx         070C  1  05 
   516)      1893.4  Rx         0080  0  
   517)      1896.0  Rx         070D  1  05 
   518)      1915.1  Rx         020B  8  FF 7F 00 00 C4 09 FF 7F 
   519)      1915.3  Rx         030B  1  00 
   520)      1915.8  Rx         020C  8  FF 7F 00 00 D0 07 FF 7F 
   521)      1916.1  Rx         030C  1  00 
   522)      1916.6  Rx         020D  8  00 00 00 00 B8 0B FF 7F 
   523)      1917.1  Rx         018B  8  00 00 00 00 00 00 1D 00 
   524)      1917.5  Rx         018C  8  00 00 00 00 00 00 22 00 
   525)      1918.0  Rx         028B  8  00 00 13 20 53 01 72 01 
   526)      1918.5  Rx         028C  8  00 00 19 20 27 01 51 01 
   527)      1918.7  Rx         030D  1  00 
   528)      1920.5  Rx         018D  8  00 00 00 00 00 00 1A 00 
   529)      1921.0  Rx         028D  8  00 00 0B 20 68 01 66 01 
   530)      1944.4  Rx         070B  1  05 
   531)      1948.2  Rx         070D  1  05 
   532)      1949.3  Error      0004  4  01 0A 01 00
   533)      1949.5  Error      0004  4  01 0A 02 00
   534)      1955.7  Rx         01AA  8  1D 20 36 00 DA 0C 01 00 
   535)      1955.7  Error      0000  4  00 00 01 00
   536)      1956.5  Rx         072A  1  05 
   537)      1956.5  Error      0000  4  00 00 00 00
   538)      1973.2  Rx         0080  0  
   539)      1980.9  Rx         070C  1  05 
   540)      1994.3  Rx         020B  8  FF 7F 00 00 C4 09 FF 7F 
   541)      1994.5  Rx         030B  1  00 
   542)      1995.0  Rx         020C  8  FF 7F 00 00 D0 07 FF 7F 
   543)      1995.2  Rx         030C  1  00 
   544)      1995.7  Rx         020D  8  00 00 00 00 B8 0B FF 7F 
   545)      1996.0  Rx         030D  1  00 
   546)      1996.8  Rx         018D  8  00 00 00 00 00 00 16 00 
   547)      1997.3  Rx         018B  8  00 00 00 00 00 00 20 00 
   548)      1997.8  Rx         018C  8  00 00 00 00 00 00 1D 00 
   549)      1998.3  Rx         028B  8  00 00 13 20 53 01 72 01 
   550)      1998.7  Rx         028C  8  00 00 19 20 27 01 51 01 
   551)      1999.2  Rx         028D  8  00 00 18 20 68 01 66 01 
   552)      2000.6  Rx         070D  1  05 
   553)      2001.9  Rx         0703  1  05 
   554)      2044.8  Rx         070B  1  05 
   555)      2049.6  Rx         01AA  8  1D 20 36 00 DA 0C 01 00 
   556)      2052.6  Rx         070D  1  05 
   557)      2053.0  Rx         0080  0  
   558)      2056.6  Rx         072A  1  05 
   559)      2074.5  Rx         020B  8  FF 7F 00 00 C4 09 FF 7F 
   560)      2074.7  Rx         030B  1  00 
   561)      2075.2  Rx         020C  8  FF 7F 00 00 D0 07 FF 7F 
   562)      2075.4  Rx         030C  1  00 
   563)      2075.9  Rx         020D  8  00 00 00 00 B8 0B FF 7F 
   564)      2076.1  Rx         030D  1  00 
   565)      2077.1  Rx         018D  8  00 00 00 00 00 00 18 00 
   566)      2077.6  Rx         018B  8  00 00 00 00 00 00 1B 00 
   567)      2078.1  Rx         018C  8  00 00 00 00 00 00 21 00 
   568)      2078.6  Rx         028B  8  00 00 13 20 53 01 72 01 
   569)      2079.1  Rx         028C  8  00 00 19 20 27 01 51 01 
   570)      2079.6  Rx         028D  8  00 00 18 20 68 01 66 01 
   571)      2081.5  Rx         070C  1  05 
   572)      2105.0  Rx         070D  1  05 
   573)      2132.0  Rx         0080  0  
   574)      2145.2  Rx         070B  1  05 
   575)      2149.6  Rx         01AA  8  1D 20 36 00 DA 0C 01 00 
   576)      2153.4  Rx         020B  8  FF 7F 00 00 C4 09 FF 7F 
   577)      2153.6  Rx         030B  1  00 
   578)      2154.1  Rx         020C  8  FF 7F 00 00 D0 07 FF 7F 
   579)      2154.3  Rx         030C  1  00 
   580)      2154.8  Rx         020D  8  00 00 00 00 B8 0B FF 7F 
   581)      2155.0  Rx         030D  1  00 
   582)      2156.6  Rx         072A  1  05 
   583)      2157.1  Rx         070D  1  05 
   584)      2157.6  Rx         018D  8  00 00 00 00 00 00 18 00 
   585)      2158.1  Rx         018B  8  00 00 00 00 00 00 1E 00 
   586)      2158.6  Rx         018C  8  00 00 00 00 00 00 1C 00 
   587)      2159.0  Rx         028B  8  00 00 13 20 53 01 72 01 
   588)      2159.5  Rx         028C  8  00 00 19 20 27 01 51 01 
   589)      2160.0  Rx         028D  8  00 00 18 20 68 01 66 01 
   590)      2181.6  Rx         070C  1  05 
   591)      2209.3  Rx         070D  1  05 
   592)      2210.7  Rx         0080  0  
   593)      2232.2  Rx         020B  8  FF 7F 00 00 C4 09 FF 7F 
   594)      2232.5  Rx         030B  1  00 
   595)      2232.9  Rx         020C  8  FF 7F 00 00 D0 07 FF 7F 
   596)      2233.2  Rx         030C  1  00 
   597)      2233.7  Rx         020D  8  00 00 00 00 B8 0B FF 7F 
   598)      2234.2  Rx         018B  8  00 00 00 00 00 00 1D 00 
   599)      2234.7  Rx         018C  8  00 00 00 00 00 00 21 00 
   600)      2235.1  Rx         028B  8  00 00 13 20 53 01 72 01 
   601)      2235.6  Rx         028C  8  00 00 19 20 27 01 51 01 
   602)      2235.8  Rx         030D  1  00 
   603)      2237.8  Rx         018D  8  00 00 00 00 00 00 1C 00 
   604)      2238.3  Rx         028D  8  00 00 18 20 68 01 66 01 
   605)      2245.5  Rx         070B  1  05 
   606)      2249.6  Error      0002  4  01 1B 01 00
   607)      2250.2  Rx         01AA  8  1E 20 35 00 DA 0C 01 00 
   608)      2250.2  Error      0000  4  00 00 00 00
   609)      2256.7  Rx         072A  1  05 
   610)      2261.5  Rx         070D  1  05 
   611)      2282.0  Rx         070C  1  05 
   612)      2289.7  Rx         0080  0  
   613)      2311.2  Rx         020B  8  FF 7F 00 00 C4 09 FF 7F 
   614)      2311.5  Rx         030B  1  00 
   615)      2312.0  Rx         020C  8  FF 7F 00 00 D0 07 FF 7F 
   616)      2312.2  Rx         030C  1  00 
   617)      2312.7  Rx         020D  8  00 00 00 00 B8 0B FF 7F 
   618)      2312.9  Rx         030D  1  00 
   619)      2313.8  Rx         070D  1  05 
   620)      2314.3  Rx         018B  8  00 00 00 00 00 00 1E 00 
   621)      2314.8  Rx         018C  8  00 00 00 00 00 00 22 00 
   622)      2315.3  Rx         018D  8  00 00 00 00 00 00 1B 00 
   623)      2315.8  Rx         028B  8  00 00 13 20 53 01 72 01 
   624)      2316.3  Rx         028C  8  00 00 19 20 27 01 51 01 
   625)      2316.8  Rx         028D  8  00 00 0B 20 68 01 66 01 
   626)      2318.5  Rx         0703  1  05 
   627)      2346.0  Rx         070B  1  05 
   628)      2349.7  Rx         01AA  8  1E 20 36 00 DA 0C 01 00 
   629)      2356.6  Rx         072A  1  05 
   630)      2366.0  Rx         070D  1  05 
   631)      2369.3  Rx         0080  0  
   632)      2382.3  Rx         070C  1  05 
   633)      2390.2  Rx         020B  8  FF 7F 00 00 C4 09 FF 7F 
   634)      2390.5  Rx         030B  1  00 
   635)      2391.0  Rx         020C  8  FF 7F 00 00 D0 07 FF 7F 
   636)      2391.2  Rx         030C  1  00 
   637)      2391.7  Rx         020D  8  00 00 00 00 B8 0B FF 7F 
   638)      2391.9  Rx         030D  1  00 
   639)      2394.8  Rx         018C  8  00 00 00 00 00 00 1E 00 
   640)      2395.3  Rx         018B  8  00 00 00 00 00 00 1C 00 
   641)      2395.8  Rx         018D  8  00 00 00 00 00 00 1E 00 
   642)      2396.3  Rx         028B  8  00 00 13 20 53 01 72 01 
   643)      2396.7  Rx         028C  8  00 00 19 20 27 01 51 01 
   644)      2397.2  Rx         028D  8  00 00 18 20 68 01 66 01 
   645)      2418.2  Rx         070D  1  05 
   646)      2446.3  Rx         070B  1  05 
   647)      2449.7  Rx         01AA  8  1E 20 36 00 DA 0C 01 00 
   648)      2449.9  Rx         0080  0  
   649)      2456.6  Error      0004  4  01 08 01 00
   650)      2456.9  Rx         072A  1  05 
   651)      2456.9  Error      0000  4  00 00 00 00
   652)      2470.4  Rx         070D  1  05 
   653)      2471.2  Rx         020B  8  FF 7F 00 00 C4 09 FF 7F 
   654)      2471.4  Rx         030B  1  00 
   655)      2471.9  Rx         020C  8  FF 7F 00 00 D0 07 FF 7F 
   656)      2472.1  Rx         030C  1  00 
   657)      2472.6  Rx         020D  8  00 00 00 00 B8 0B FF 7F 
   658)      2472.9  Rx         030D  1  00 
   659)      2474.9  Rx         018D  8  00 00 00 00 00 00 25 00 
   660)      2475.3  Rx         018B  8  00 00 00 00 00 00 1E 00 
   661)      2475.9  Rx         018C  8  00 00 00 00 00 00 24 00 
   662)      2476.3  Rx         028B  8  00 00 13 20 53 01 72 01 
   663)      2476.8  Rx         028C  8  00 00 19 20 27 01 51 01 
   664)      2477.3  Rx         028D  8  00 00 18 20 68 01 66 01 
   665)      2482.7  Rx         070C  1  05 
   666)      2522.6  Rx         070D  1  05 
   667)      2528.7  Rx         0080  0  
   668)      2546.8  Rx         070B  1  05 
   669)      2549.7  Rx         01AA  8  1E 20 36 00 DA 0C 01 00 
   670)      2550.8  Rx         020B  8  FF 7F 00 00 C4 09 FF 7F 
   671)      2551.0  Rx         030B  1  00 
   672)      2551.5  Rx         020C  8  FF 7F 00 00 D0 07 FF 7F 
   673)      2551.8  Rx         030C  1  00 
   674)      2552.2  Rx         020D  8  00 00 00 00 B8 0B FF 7F 
   675)      2552.5  Rx         030D  1  00 
   676)      2555.2  Rx         018D  8  00 00 00 00 00 00 1D 00 
   677)      2555.7  Rx         018B  8  00 00 00 00 00 00 1A 00 
   678)      2556.2  Rx         018C  8  00 00 00 00 00 00 21 00 
   679)      2556.7  Rx         028B  8  00 00 13 20 53 01 72 01 
   680)      2557.1  Rx         028C  8  00 00 19 20 27 01 51 01 
   681)      2557.6  Rx         028D  8  00 00 0B 20 68 01 66 01 
   682)      2557.9  Rx         072A  1  05 
   683)      2574.8  Rx         070D  1  05 
   684)      2583.1  Rx         070C  1  05 
   685)      2608.3  Rx         0080  0  
   686)      2627.1  Rx         070D  1  05 
   687)      2630.0  Rx         020B  8  FF 7F 00 00 C4 09 FF 7F 
   688)      2630.2  Rx         030B  1  00 
   689)      2630.7  Rx         020C  8  FF 7F 00 00 D0 07 FF 7F 
   690)      2630.9  Rx         030C  1  00 
   691)      2631.4  Rx         018B  8  00 00 00 00 00 00 1B 00 
   692)      2631.9  Rx         020D  8  00 00 00 00 B8 0B FF 7F 
   693)      2632.4  Rx         018C  8  00 00 00 00 00 00 22 00 
   694)      2632.9  Rx         028B  8  00 00 13 20 53 01 72 01 
   695)      2633.4  Rx         028C  8  00 00 19 20 27 01 51 01 
   696)      2633.6  Rx         030D  1  00 
   697)      2635.5  Rx         018D  8  00 00 00 00 00 00 1F 00 
   698)      2636.0  Rx         028D  8  00 00 18 20 68 01 66 01 
   699)      2637.5  Rx         0703  1  05 
   700)      2647.1  Rx         070B  1  05 
   701)      2649.8  Rx         01AA  8  1E 20 35 00 DA 0C 01 00 
   702)      2656.7  Rx         072A  1  05 
   703)      2679.2  Rx         070D  1  05 
   704)      2683.3  Rx         070C  1  05 
   705)      2687.4  Rx         0080  0  
   706)      2708.9  Rx         020B  8  FF 7F 00 00 C4 09 FF 7F 
   707)      2709.1  Rx         030B  1  00 
   708)      2709.6  Rx         020C  8  FF 7F 00 00 D0 07 FF 7F 
   709)      2709.9  Rx         030C  1  00 
   710)      2710.4  Rx         020D  8  00 00 00 00 B8 0B FF 7F 
   711)      2710.6  Rx         030D  1  00 
   712)      2711.6  Rx         018B  8  00 00 00 00 00 00 1C 00 
   713)      2712.1  Rx         018D  8  00 00 00 00 00 00 19 00 
   714)      2712.6  Rx         018C  8  00 00 00 00 00 00 1E 00 
   715)      2713.1  Rx         028B  8  00 00 13 20 53 01 72 01 
   716)      2713.6  Rx         028C  8  00 00 19 20 27 01 51 01 
   717)      2714.1  Rx         028D  8  00 00 18 20 68 01 66 01 
   718)      2731.4  Rx         070D  1  05 
   719)      2747.4  Rx         070B  1  05 
   720)      2749.7  Rx         01AA  8  1E 20 36 00 DA 0C 01 00 
   721)      2756.8  Error      0002  4  01 18 01 00
   722)      2757.4  Rx         02AA  8  01 00 00 00 00 00 00 00 
   723)      2757.4  Error      0000  4  00 00 00 00
   724)      2759.3  Rx         072A  1  05 
   725)      2764.6  Rx         04AA  8  11 22 0E 1D 05 14 00 00 
   726)      2766.8  Rx         0080  0  
   727)      2783.6  Rx         070D  1  05 
   728)      2783.9  Rx         070C  1  05 
   729)      2788.5  Rx         020B  8  FF 7F 00 00 C4 09 FF 7F 
   730)      2788.7  Rx         030B  1  00 
   731)      2789.2  Rx         020C  8  FF 7F 00 00 D0 07 FF 7F 
   732)      2789.4  Rx         030C  1  00 
   733)      2789.9  Rx         020D  8  00 00 00 00 B8 0B FF 7F 
   734)      2790.1  Rx         030D  1  00 
   735)      2791.9  Rx         018B  8  00 00 00 00 00 00 1B 00 
   736)      2792.4  Rx         028B  8  00 00 13 20 53 01 72 01 
   737)      2792.9  Rx         018C  8  00 00 00 00 00 00 1B 00 
   738)      2793.4  Rx         018D  8  00 00 00 00 00 00 1D 00 
   739)      2793.9  Rx         028C  8  00 00 19 20 27 01 51 01 
   740)      2794.4  Rx         028D  8  00 00 18 20 68 01 66 01 
   741)      2835.8  Rx         070D  1  05 
   742)      2847.2  Rx         0080  0  
   743)      2847.7  Rx         070B  1  05 
   744)      2849.7  Rx         01AA  8  1E 20 36 00 DA 0C 01 00 
   745)      2856.6  Error      0004  4  01 0B 01 00
   746)      2856.9  Rx         072A  1  05 
   747)      2856.9  Error      0000  4  00 00 00 00
   748)      2868.7  Rx         020B  8  FF 7F 00 00 C4 09 FF 7F 
   749)      2869.0  Rx         030B  1  00 
   750)      2869.5  Rx         020C  8  FF 7F 00 00 D0 07 FF 7F 
   751)      2869.7  Rx         030C  1  00 
   752)      2870.2  Rx         020D  8  00 00 00 00 B8 0B FF 7F 
   753)      2870.4  Rx         030D  1  00 
   754)      2872.3  Rx         018B  8  00 00 00 00 00 00 1D 00 
   755)      2872.8  Rx         018C  8  00 00 00 00 00 00 1C 00 
   756)      2873.3  Rx         018D  8  00 00 00 00 00 00 1C 00 
   757)      2873.7  Rx         028B  8  00 00 13 20 53 01 72 01 
   758)      2874.2  Rx         028C  8  00 00 19 20 27 01 51 01 
   759)      2874.7  Rx         028D  8  00 00 0B 20 68 01 66 01 
   760)      2884.0  Rx         070C  1  05 
   761)      2888.1  Rx         070D  1  05 
   762)      2926.7  Rx         0080  0  
   763)      2940.3  Rx         070D  1  05 
   764)      2948.3  Rx         020B  8  FF 7F 00 00 C4 09 FF 7F 
   765)      2948.5  Rx         030B  1  00 
   766)      2949.0  Rx         020C  8  FF 7F 00 00 D0 07 FF 7F 
   767)      2949.2  Rx         030C  1  00 
   768)      2949.4  Rx         070B  1  05 
   769)      2949.9  Rx         01AA  8  1E 20 36 00 DA 0C 01 00 
   770)      2950.4  Rx         020D  8  00 00 00 00 B8 0B FF 7F 
   771)      2950.6  Rx         030D  1  00 
   772)      2952.6  Rx         018B  8  00 00 00 00 00 00 1E 00 
   773)      2953.1  Rx         018C  8  00 00 00 00 00 00 1D 00 
   774)      2953.6  Rx         018D  8  00 00 00 00 00 00 20 00 
   775)      2954.0  Rx         028B  8  00 00 13 20 53 01 72 01 
   776)      2954.5  Rx         028C  8  00 00 19 20 27 01 51 01 
   777)      2955.0  Rx         028D  8  00 00 18 20 68 01 66 01 
   778)      2955.7  Rx         0703  1  05 
   779)      2956.6  Rx         072A  1  05 
   780)      2984.3  Rx         070C  1  05 
   781)      2992.6  Rx         070D  1  05 
   782)      3005.7  Rx         0080  0  
   783)      3027.2  Rx         020B  8  FF 7F 00 00 C4 09 FF 7F 
   784)      3027.4  Rx         030B  1  00 
   785)      3027.9  Rx         020C  8  FF 7F 00 00 D0 07 FF 7F 
   786)      3028.1  Rx         030C  1  00 
   787)      3028.6  Rx         020D  8  00 00 00 00 B8 0B FF 7F 
   788)      3029.1  Rx         018B  8  00 00 00 00 00 00 1A 00 
   789)      3029.6  Rx         018C  8  00 00 00 00 00 00 21 00 
   790)      3030.1  Rx         028B  8  00 00 13 20 53 01 72 01 
   791)      3030.6  Rx         028C  8  00 00 19 20 27 01 51 01 
   792)      3030.8  Rx         030D  1  00 
   793)      3033.5  Rx         018D  8  00 00 00 00 00 00 1E 00 
   794)      3034.0  Rx         028D  8  00 00 18 20 68 01 66 01 
   795)      3044.7  Rx         070D  1  05 
   796)      3048.5  Rx         070B  1  05 
   797)      3049.8  Rx         01AA  8  1E 20 35 00 DA 0C 01 00 
   798)      3056.7  Error      0002  4  01 1A 01 00
   799)      3057.0  Rx         072A  1  05 
   800)      3057.0  Error      0000  4  00 00 00 00
   801)      3084.7  Rx         070C  1  05 
   802)      3084.9  Rx         0080  0  
   803)      3097.0  Rx         070D  1  05 
   804)      3105.9  Rx         020B  8  FF 7F 00 00 C4 09 FF 7F 
   805)      3106.2  Rx         030B  1  00 
   806)      3106.7  Rx         020C  8  FF 7F 00 00 D0 07 FF 7F 
   807)      3106.9  Rx         030C  1  00 
   808)      3107.4  Rx         020D  8  00 00 00 00 B8 0B FF 7F 
   809)      3107.6  Rx         030D  1  00 
   810)      3109.2  Rx         018B  8  00 00 00 00 00 00 1C 00 
   811)      3109.7  Rx         018C  8  00 00 00 00 00 00 21 00 
   812)      3110.2  Rx         018D  8  00 00 00 00 00 00 1F 00 
   813)      3110.7  Rx         028B  8  00 00 13 20 53 01 72 01 
   814)      3111.2  Rx         028C  8  00 00 19 20 27 01 51 01 
   815)      3111.7  Rx         028D  8  00 00 18 20 68 01 66 01 
   816)      3148.9  Rx         070B  1  05 
   817)      3149.2  Rx         070D  1  05 
   818)      3149.8  Rx         01AA  8  1E 20 36 00 DA 0C 01 00 
   819)      3156.7  Rx         072A  1  05 
   820)      3164.6  Rx         0080  0  
   821)      3185.1  Rx         070C  1  05 
   822)      3186.1  Rx         020B  8  FF 7F 00 00 C4 09 FF 7F 
   823)      3186.3  Rx         030B  1  00 
   824)      3186.8  Rx         020C  8  FF 7F 00 00 D0 07 FF 7F 
   825)      3187.0  Rx         030C  1  00 
   826)      3187.5  Rx         020D  8  00 00 00 00 B8 0B FF 7F 
   827)      3187.8  Rx         030D  1  00 
   828)      3189.5  Rx         018C  8  00 00 00 00 00 00 1B 00 
   829)      3190.0  Rx         018B  8  00 00 00 00 00 00 1C 00 
   830)      3190.5  Rx         018D  8  00 00 00 00 00 00 1F 00 
   831)      3191.0  Rx         028B  8  00 00 13 20 53 01 72 01 
   832)      3191.5  Rx         028C  8  00 00 19 20 27 01 51 01 
   833)      3192.0  Rx         028D  8  00 00 0B 20 68 01 66 01 
   834)      3201.4  Rx         070D  1  05 
   835)      3243.7  Rx         0080  0  
   836)      3249.4  Rx         070B  1  05 
   837)      3249.9  Rx         01AA  8  1F 20 37 00 DA 0C 01 00 
   838)      3253.6  Rx         070D  1  05 
   839)      3256.7  Rx         072A  1  05 
   840)      3265.2  Rx         020B  8  FF 7F 00 00 C4 09 FF 7F 
   841)      3265.4  Rx         030B  1  00 
   842)      3265.9  Rx         020C  8  FF 7F 00 00 D0 07 FF 7F 
   843)      3266.4  Rx         018B  8  00 00 00 00 00 00 21 00 
   844)      3266.9  Rx         028B  8  00 00 13 20 53 01 72 01 
   845)      3267.1  Rx         030C  1  00 
   846)      3267.6  Rx         020D  8  00 00 00 00 B8 0B FF 7F 
   847)      3267.8  Rx         030D  1  00 
   848)      3269.8  Rx         018C  8  00 00 00 00 00 00 1C 00 
   849)      3270.3  Rx         018D  8  00 00 00 00 00 00 20 00 
   850)      3270.8  Rx         028C  8  00 00 19 20 27 01 51 01 
   851)      3271.3  Rx         028D  8  00 00 18 20 68 01 66 01 
   852)      3272.7  Rx         0703  1  05 
   853)      3285.5  Rx         070C  1  05 
   854)      3305.8  Rx         070D  1  05 
   855)      3323.8  Rx         0080  0  
   856)      3345.5  Rx         020B  8  FF 7F 00 00 C4 09 FF 7F 
   857)      3345.7  Rx         030B  1  00 
   858)      3346.2  Rx         018B  8  00 00 00 00 00 00 24 00 
   859)      3346.7  Rx         020C  8  FF 7F 00 00 D0 07 FF 7F 
   860)      3346.9  Rx         030C  1  00 
   861)      3347.4  Rx         020D  8  00 00 00 00 B8 0B FF 7F 
   862)      3347.6  Rx         030D  1  00 
   863)      3349.7  Error      0004  4  01 0A 01 00
   864)      3350.3  Rx         018C  8  00 00 00 00 00 00 25 00 
   865)      3350.3  Error      0000  4  00 00 00 00
   866)      3350.8  Rx         018D  8  00 00 00 00 00 00 1A 00 
   867)      3351.3  Rx         01AA  8  1F 20 36 00 DA 0C 01 00 
   868)      3351.7  Rx         028C  8  00 00 19 20 27 01 51 01 
   869)      3352.2  Rx         028D  8  00 00 0B 20 68 01 66 01 
   870)      3352.4  Rx         070B  1  05 
   871)      3352.9  Rx         028B  8  00 00 13 20 53 01 72 01 
   872)      3356.7  Rx         072A  1  05 
   873)      3358.0  Rx         070D  1  05 
   874)      3385.8  Rx         070C  1  05 
   875)      3402.8  Rx         0080  0  
   876)      3410.2  Rx         070D  1  05 
   877)      3424.0  Rx         020B  8  FF 7F 00 00 C4 09 FF 7F 
   878)      3424.3  Rx         030B  1  00 
   879)      3424.8  Rx         020C  8  FF 7F 00 00 D0 07 FF 7F 
   880)      3425.0  Rx         030C  1  00 
   881)      3425.5  Rx         020D  8  00 00 00 00 B8 0B FF 7F 
   882)      3425.7  Rx         030D  1  00 
   883)      3426.4  Rx         018C  8  00 00 00 00 00 00 1F 00 
   884)      3426.9  Rx         018B  8  00 00 00 00 00 00 25 00 
   885)      3427.4  Rx         018D  8  00 00 00 00 00 00 20 00 
   886)      3427.8  Rx         028B  8  00 00 13 20 53 01 72 01 
   887)      3428.3  Rx         028C  8  00 00 19 20 27 01 51 01 
   888)      3428.8  Rx         028D  8  00 00 0B 20 68 01 66 01 
   889)      3449.8  Error      0002  4  01 1B 01 00
   890)      3450.4  Rx         01AA  8  1F 20 36 00 DA 0C 01 00 
   891)      3450.4  Error      0000  4  00 00 00 00
   892)      3450.6  Rx         070B  1  05 
   893)      3456.7  Rx         072A  1  05 
   894)      3462.5  Rx         070D  1  05 
   895)      3481.2  Rx         0080  0  
   896)      3486.3  Rx         070C  1  05 
   897)      3503.0  Rx         020B  8  FF 7F 00 00 C4 09 FF 7F 
   898)      3503.2  Rx         030B  1  00 
   899)      3503.7  Rx         020C  8  FF 7F 00 00 D0 07 FF 7F 
   900)      3503.9  Rx         030C  1  00 
   901)      3504.4  Rx         020D  8  00 00 00 00 B8 0B FF 7F 
   902)      3504.7  Rx         030D  1  00 
   903)      3506.7  Rx         018C  8  00 00 00 00 00 00 1F 00 
   904)      3507.1  Rx         018B  8  00 00 00 00 00 00 1F 00 
   905)      3507.6  Rx         018D  8  00 00 00 00 00 00 1D 00 
   906)      3508.1  Rx         028B  8  00 00 13 20 53 01 72 01 
   907)      3508.6  Rx         028C  8  00 00 19 20 27 01 51 01 
   908)      3509.1  Rx         028D  8  00 00 18 20 68 01 66 01 
   909)      3514.7  Rx         070D  1  05 
   910)      3549.9  Rx         01AA  8  1F 20 36 00 DA 0C 01 00 
   911)      3550.5  Rx         070B  1  05 
   912)      3557.0  Rx         072A  1  05 
   913)      3561.1  Rx         0080  0  
   914)      3567.0  Rx         070D  1  05 
   915)      3583.0  Rx         020B  8  FF 7F 00 00 C4 09 FF 7F 
   916)      3583.2  Rx         030B  1  00 
   917)      3583.7  Rx         020C  8  FF 7F 00 00 D0 07 FF 7F 
   918)      3583.9  Rx         030C  1  00 
   919)      3584.4  Rx         020D  8  00 00 00 00 B8 0B FF 7F 
   920)      3584.6  Rx         030D  1  00 
   921)      3586.5  Rx         070C  1  05 
   922)      3587.0  Rx         018C  8  00 00 00 00 00 00 1E 00 
   923)      3587.5  Rx         018B  8  00 00 00 00 00 00 20 00 
   924)      3588.0  Rx         018D  8  00 00 00 00 00 00 13 00 
   925)      3588.4  Rx         028B  8  00 00 13 20 53 01 72 01 
   926)      3588.9  Rx         028C  8  00 00 19 20 27 01 51 01 
   927)      3589.4  Rx         028D  8  00 00 18 20 68 01 66 01 
   928)      3590.2  Rx         0703  1  05 
   929)      3619.1  Rx         070D  1  05 
   930)      3640.3  Rx         0080  0  
   931)      3649.9  Error      0002  4  01 1A 01 00
   932)      3650.4  Rx         01AA  8  1F 20 36 00 DA 0C 01 00 
   933)      3650.4  Error      0000  4  00 00 00 00
   934)      3650.8  Rx         070B  1  05 
   935)      3656.8  Rx         072A  1  05 
   936)      3662.2  Rx         020B  8  FF 7F 00 00 C4 09 FF 7F 
   937)      3662.5  Rx         030B  1  00 
   938)      3663.0  Rx         020C  8  FF 7F 00 00 D0 07 FF 7F 
   939)      3663.4  Rx         018B  8  00 00 00 00 00 00 21 00 
   940)      3663.9  Rx         028B  8  00 00 13 20 53 01 72 01 
   941)      3664.1  Rx         030C  1  00 
   942)      3664.6  Rx         020D  8  00 00 00 00 B8 0B FF 7F 
   943)      3664.9  Rx         030D  1  00 
   944)      3667.3  Rx         018C  8  00 00 00 00 00 00 23 00 
   945)      3667.8  Rx         018D  8  00 00 00 00 00 00 17 00 
   946)      3668.3  Rx         028C  8  00 00 19 20 27 01 51 01 
   947)      3668.8  Rx         028D  8  00 00 18 20 68 01 66 01 
   948)      3671.5  Rx         070D  1  05 
   949)      3686.9  Rx         070C  1  05 
   950)      3721.2  Rx         0080  0  
   951)      3723.6  Rx         070D  1  05 
   952)      3743.2  Rx         020B  8  FF 7F 00 00 C4 09 FF 7F 
   953)      3743.4  Rx         030B  1  00 
   954)      3743.9  Rx         020C  8  FF 7F 00 00 D0 07 FF 7F 
   955)      3744.1  Rx         030C  1  00 
   956)      3744.6  Rx         020D  8  00 00 00 00 B8 0B FF 7F 
   957)      3744.9  Rx         030D  1  00 
   958)      3747.6  Rx         018C  8  00 00 00 00 00 00 1E 00 
   959)      3748.1  Rx         018B  8  00 00 00 00 00 00 1B 00 
   960)      3748.6  Rx         018D  8  00 00 00 00 00 00 1A 00 
   961)      3749.1  Rx         028B  8  00 00 13 20 53 01 72 01 
   962)      3749.6  Rx         028C  8  00 00 19 20 27 01 51 01 
   963)      3750.0  Rx         01AA  8  1F 20 36 00 DA 0C 01 00 
   964)      3750.5  Rx         028D  8  00 00 18 20 68 01 66 01 
   965)      3751.3  Rx         070B  1  05 
   966)      3756.9  Rx         072A  1  05 
   967)      3759.9  Rx         04AA  8  12 22 0E 1D 05 14 00 00 
   968)      3775.9  Rx         070D  1  05 
   969)      3787.3  Rx         070C  1  05 
   970)      3800.9  Rx         0080  0  
   971)      3822.4  Rx         020B  8  FF 7F 00 00 C4 09 FF 7F 
   972)      3822.6  Rx         030B  1  00 
   973)      3823.1  Rx         020C  8  FF 7F 00 00 D0 07 FF 7F 
   974)      3823.3  Rx         030C  1  00 
   975)      3823.8  Rx         020D  8  00 00 00 00 B8 0B FF 7F 
   976)      3824.3  Rx         018B  8  00 00 00 00 00 00 1E 00 
   977)      3824.8  Rx         018C  8  00 00 00 00 00 00 20 00 
   978)      3825.3  Rx         018D  8  00 00 00 00 00 00 1B 00 
   979)      3825.8  Rx         028B  8  00 00 13 20 53 01 72 01 
   980)      3826.3  Rx         028C  8  00 00 19 20 27 01 51 01 
   981)      3826.5  Rx         030D  1  00 
   982)      3828.1  Rx         070D  1  05 
   983)      3828.6  Rx         028D  8  00 00 0B 20 68 01 66 01 
   984)      3850.1  Rx         01AA  8  1F 20 35 00 DA 0C 01 00 
   985)      3851.7  Rx         070B  1  05 
   986)      3856.9  Error      0002  4  01 1A 01 00
   987)      3857.2  Rx         072A  1  05 
   988)      3857.2  Error      0000  4  00 00 00 00
   989)      3879.3  Rx         0080  0  
   990)      3880.3  Rx         070D  1  05 
   991)      3887.6  Rx         070C  1  05 
   992)      3901.5  Rx         020B  8  FF 7F 00 00 C4 09 FF 7F 
   993)      3901.7  Rx         030B  1  00 
   994)      3902.2  Rx         020C  8  FF 7F 00 00 D0 07 FF 7F 
   995)      3902.4  Rx         030C  1  00 
   996)      3902.9  Rx         020D  8  00 00 00 00 B8 0B FF 7F 
   997)      3903.1  Rx         030D  1  00 
   998)      3904.1  Rx         018C  8  00 00 00 00 00 00 22 00 
   999)      3904.6  Rx         018B  8  00 00 00 00 00 00 1F 00 
  1000)      3905.1  Rx         018D  8  00 00 00 00 00 00 1E 00 
  1001)      3905.6  Rx         028B  8  00 00 13 20 53 01 72 01 
  1002)      3906.1  Rx         028C  8  00 00 19 20 27 01 51 01 
  1003)      3906.6  Rx         028D  8  00 00 18 20 68 01 66 01 
  1004)      3909.0  Rx         0703  1  05 
  1005)      3932.5  Rx         070D  1  05 
  1006)      3950.0  Error      0004  4  01 0A 01 00
  1007)      3950.5  Error      0002  4  01 1A 01 00
  1008)      3951.0  Rx         01AA  8  1F 20 35 00 DA 0C 01 00 
  1009)      3951.0  Error      0000  4  00 00 00 00
  1010)      3952.2  Rx         070B  1  05 
  1011)      3957.0  Rx         072A  1  05 
  1012)      3958.4  Rx         0080  0  
  1013)      3980.2  Rx         020B  8  FF 7F 00 00 C4 09 FF 7F 
  1014)      3980.4  Rx         030B  1  00 
  1015)      3980.9  Rx         020C  8  FF 7F 00 00 D0 07 FF 7F 
  1016)      3981.2  Rx         030C  1  00 
  1017)      3981.7  Rx         020D  8  00 00 00 00 B8 0B FF 7F 
  1018)      3981.9  Rx         030D  1  00 
  1019)      3984.4  Rx         018C  8  00 00 00 00 00 00 1D 00 
  1020)      3984.9  Rx         028C  8  00 00 19 20 27 01 51 01 
  1021)      3985.4  Rx         018B  8  00 00 00 00 00 00 20 00 
  1022)      3985.9  Rx         028B  8  00 00 13 20 53 01 72 01 
  1023)      3986.1  Rx         070D  1  05 
  1024)      3986.6  Rx         018D  8  00 00 00 00 00 00 22 00 
  1025)      3987.1  Rx         028D  8  00 00 18 20 68 01 66 01 
  1026)      3988.1  Rx         070C  1  05 
  1027)      4037.0  Rx         070D  1  05 
  1028)      4037.5  Rx         0080  0  
  1029)      4050.1  Rx         01AA  8  1F 20 35 00 DA 0C 01 00 
  1030)      4052.5  Rx         070B  1  05 
  1031)      4057.1  Rx         072A  1  05 
  1032)      4059.5  Rx         020B  8  FF 7F 00 00 C4 09 FF 7F 
  1033)      4059.7  Rx         030B  1  00 
  1034)      4060.2  Rx         020C  8  FF 7F 00 00 D0 07 FF 7F 
  1035)      4060.5  Rx         030C  1  00 
  1036)      4061.0  Rx         018B  8  00 00 00 00 00 00 25 00 
  1037)      4061.5  Rx         018C  8  00 00 00 00 00 00 21 00 
  1038)      4062.0  Rx         020D  8  00 00 00 00 B8 0B FF 7F 
  1039)      4062.4  Rx         028B  8  00 00 13 20 53 01 72 01 
  1040)      4062.9  Rx         028C  8  00 00 19 20 27 01 51 01 
  1041)      4063.1  Rx         030D  1  00 
  1042)      4065.5  Rx         018D  8  00 00 00 00 00 00 26 00 
  1043)      4066.0  Rx         028D  8  00 00 18 20 68 01 66 01 
  1044)      4088.3  Rx         070C  1  05 
  1045)      4089.2  Rx         070D  1  05 
  1046)      4117.7  Rx         0080  0  
  1047)      4139.3  Rx         020B  8  FF 7F 00 00 C4 09 FF 7F 
  1048)      4139.5  Rx         030B  1  00 
  1049)      4140.0  Rx         020C  8  FF 7F 00 00 D0 07 FF 7F 
  1050)      4140.2  Rx         030C  1  00 
  1051)      4140.7  Rx         020D  8  00 00 00 00 B8 0B FF 7F 
  1052)      4141.2  Rx         018C  8  00 00 00 00 00 00 22 00 
  1053)      4141.7  Rx         018B  8  00 00 00 00 00 00 20 00 
  1054)      4142.2  Rx         028B  8  00 00 13 20 53 01 72 01 
  1055)      4142.6  Rx         028C  8  00 00 19 20 27 01 51 01 
  1056)      4142.9  Rx         030D  1  00 
  1057)      4143.1  Rx         070D  1  05 
  1058)      4143.6  Rx         018D  8  00 00 00 00 00 00 27 00 
  1059)      4145.8  Rx         028D  8  00 00 18 20 68 01 66 01 
  1060)      4150.1  Error      0002  4  01 1A 01 00
  1061)      4150.6  Rx         01AA  8  1F 20 35 00 DA 0C 01 00 
  1062)      4150.6  Error      0000  4  00 00 00 00
  1063)      4153.0  Rx         070B  1  05 
  1064)      4157.0  Rx         072A  1  05 
  1065)      4188.9  Rx         070C  1  05 
  1066)      4193.6  Rx         070D  1  05 
  1067)      4197.5  Rx         0080  0  
  1068)      4219.8  Rx         020B  8  FF 7F 00 00 C4 09 FF 7F 
  1069)      4220.1  Rx         030B  1  00 
  1070)      4220.5  Rx         020C  8  FF 7F 00 00 D0 07 FF 7F 
  1071)      4220.8  Rx         030C  1  00 
  1072)      4221.3  Rx         020D  8  00 00 00 00 B8 0B FF 7F 
  1073)      4221.8  Rx         018B  8  00 00 00 00 00 00 1B 00 
  1074)      4222.3  Rx         018C  8  00 00 00 00 00 00 1B 00 
  1075)      4222.8  Rx         018D  8  00 00 00 00 00 00 27 00 
  1076)      4223.2  Rx         028B  8  00 00 13 20 53 01 72 01 
  1077)      4223.7  Rx         028C  8  00 00 19 20 27 01 51 01 
  1078)      4223.9  Rx         030D  1  00 
  1079)      4226.1  Rx         028D  8  00 00 18 20 68 01 66 01 
  1080)      4227.4  Rx         0703  1  05 
  1081)      4245.9  Rx         070D  1  05 
  1082)      4250.1  Rx         01AA  8  1F 20 35 00 DA 0C 01 00 
  1083)      4253.2  Rx         070B  1  05 
  1084)      4257.2  Rx         072A  1  05 
  1085)      4276.6  Rx         0080  0  
  1086)      4289.0  Rx         070C  1  05 
  1087)      4298.1  Rx         020B  8  FF 7F 00 00 C4 09 FF 7F 
  1088)      4298.3  Rx         030B  1  00 
  1089)      4298.8  Rx         020C  8  FF 7F 00 00 D0 07 FF 7F 
  1090)      4299.0  Rx         030C  1  00 
  1091)      4299.5  Rx         020D  8  00 00 00 00 B8 0B FF 7F 
  1092)      4299.8  Rx         030D  1  00 
  1093)      4300.0  Rx         070D  1  05 
  1094)      4301.5  Rx         018C  8  00 00 00 00 00 00 22 00 
  1095)      4302.0  Rx         018B  8  00 00 00 00 00 00 1A 00 
  1096)      4302.5  Rx         028B  8  00 00 13 20 53 01 72 01 
  1097)      4303.0  Rx         028C  8  00 00 19 20 27 01 51 01 
  1098)      4303.5  Rx         018D  8  00 00 00 00 00 00 26 00 
  1099)      4304.0  Rx         028D  8  00 00 18 20 68 01 66 01 
  1100)      4350.2  Rx         01AA  8  20 20 35 00 DA 0C 01 00 
  1101)      4350.4  Rx         070D  1  05 
  1102)      4353.6  Rx         070B  1  05 
  1103)      4355.3  Rx         0080  0  
  1104)      4357.1  Rx         072A  1  05 
  1105)      4377.1  Rx         020B  8  FF 7F 00 00 C4 09 FF 7F 
  1106)      4377.4  Rx         030B  1  00 
  1107)      4377.8  Rx         020C  8  FF 7F 00 00 D0 07 FF 7F 
  1108)      4378.3  Rx         018B  8  00 00 00 00 00 00 1E 00 
  1109)      4378.8  Rx         028B  8  00 00 13 20 53 01 72 01 
  1110)      4379.0  Rx         030C  1  00 
  1111)      4379.5  Rx         020D  8  00 00 00 00 B8 0B FF 7F 
  1112)      4379.8  Rx         030D  1  00 
  1113)      4381.8  Rx         018C  8  00 00 00 00 00 00 1B 00 
  1114)      4382.3  Rx         028C  8  00 00 19 20 27 01 51 01 
  1115)      4382.9  Rx         018D  8  00 00 00 00 00 00 21 00 
  1116)      4383.4  Rx         028D  8  00 00 0B 20 68 01 66 01 
  1117)      4389.4  Rx         070C  1  05 
  1118)      4402.5  Rx         070D  1  05 
  1119)      4434.7  Rx         0080  0  
  1120)      4450.2  Error      0002  4  01 18 01 00
  1121)      4450.6  Error      0004  4  01 0A 02 00
  1122)      4451.1  Rx         01AA  8  20 20 34 00 DA 0C 01 00 
  1123)      4451.1  Error      0000  4  00 00 01 00
  1124)      4454.0  Rx         070B  1  05 
  1125)      4454.0  Error      0000  4  00 00 00 00
  1126)      4454.8  Rx         070D  1  05 
  1127)      4456.0  Rx         020B  8  FF 7F 00 00 C4 09 FF 7F 
  1128)      4456.2  Rx         030B  1  00 
  1129)      4456.7  Rx         020C  8  FF 7F 00 00 D0 07 FF 7F 
  1130)      4456.9  Rx         030C  1  00 
  1131)      4457.4  Rx         020D  8  00 00 00 00 B8 0B FF 7F 
  1132)      4457.7  Rx         030D  1  00 
  1133)      4458.2  Rx         018C  8  00 00 00 00 00 00 1D 00 
  1134)      4458.7  Rx         018B  8  00 00 00 00 00 00 1D 00 
  1135)      4459.1  Rx         028B  8  00 00 13 20 53 01 72 01 
  1136)      4459.6  Rx         018D  8  00 00 00 00 00 00 22 00 
  1137)      4460.1  Rx         028C  8  00 00 19 20 27 01 51 01 
  1138)      4460.6  Rx         028D  8  00 00 18 20 68 01 66 01 
  1139)      4460.8  Rx         072A  1  05 
  1140)      4489.7  Rx         070C  1  05 
  1141)      4506.9  Rx         070D  1  05 
  1142)      4514.4  Rx         0080  0  
  1143)      4535.7  Rx         020B  8  FF 7F 00 00 C4 09 FF 7F 
  1144)      4536.0  Rx         030B  1  00 
  1145)      4536.5  Rx         020C  8  FF 7F 00 00 D0 07 FF 7F 
  1146)      4536.7  Rx         030C  1  00 
  1147)      4537.2  Rx         020D  8  00 00 00 00 B8 0B FF 7F 
  1148)      4537.4  Rx         030D  1  00 
  1149)      4538.4  Rx         018C  8  00 00 00 00 00 00 21 00 
  1150)      4538.9  Rx         018B  8  00 00 00 00 00 00 1E 00 
  1151)      4539.4  Rx         028B  8  00 00 13 20 53 01 72 01 
  1152)      4539.9  Rx         018D  8  00 00 00 00 00 00 1B 00 
  1153)      4540.3  Rx         028C  8  00 00 19 20 27 01 51 01 
  1154)      4540.8  Rx         028D  8  00 00 18 20 68 01 66 01 
  1155)      4543.4  Rx         0703  1  05 
  1156)      4549.8  Error      0004  4  01 0A 01 00
  1157)      4550.3  Error      0002  4  01 18 02 00
  1158)      4550.4  Error      0008  4  01 13 0A 00
  1159)      4550.9  Rx         01AA  8  20 20 34 00 DA 0C 01 00 
  1160)      4550.9  Error      0000  4  00 00 09 00
  1161)      4554.4  Rx         070B  1  05 
  1162)      4554.4  Error      0000  4  00 00 08 00
  1163)      4557.1  Rx         072A  1  05 
  1164)      4557.1  Error      0000  4  00 00 07 00
  1165)      4559.2  Rx         070D  1  05 
  1166)      4559.2  Error      0000  4  00 00 06 00
  1167)      4590.1  Rx         070C  1  05 
  1168)      4590.1  Error      0000  4  00 00 05 00
  1169)      4595.4  Rx         0080  0  
  1170)      4595.4  Error      0000  4  00 00 04 00
  1171)      4611.4  Rx         070D  1  05 
  1172)      4611.4  Error      0000  4  00 00 03 00
  1173)      4617.3  Rx         020B  8  FF 7F 00 00 C4 09 FF 7F 
  1174)      4617.3  Error      0000  4  00 00 02 00
  1175)      4617.5  Rx         030B  1  00 
  1176)      4617.5  Error      0000  4  00 00 01 00
  1177)      4618.0  Rx         020C  8  FF 7F 00 00 D0 07 FF 7F 
  1178)      4618.0  Error      0000  4  00 00 00 00
  1179)      4618.3  Rx         030C  1  00 
  1180)      4618.8  Rx         018C  8  00 00 00 00 00 00 1C 00 
  1181)      4619.3  Rx         018B  8  00 00 00 00 00 00 21 00 
  1182)      4619.7  Rx         020D  8  00 00 00 00 B8 0B FF 7F 
  1183)      4620.2  Rx         028B  8  00 00 13 20 53 01 72 01 
  1184)      4620.5  Rx         030D  1  00 
  1185)      4622.6  Rx         028C  8  00 00 19 20 27 01 51 01 
  1186)      4623.8  Rx         018D  8  00 00 00 00 00 00 19 00 
  1187)      4624.3  Rx         028D  8  00 00 18 20 68 01 66 01 
  1188)      4650.3  Rx         01AA  8  20 20 35 00 DA 0C 01 00 
  1189)      4654.8  Rx         070B  1  05 
  1190)      4657.1  Rx         072A  1  05 
  1191)      4663.6  Rx         070D  1  05 
  1192)      4674.7  Rx         0080  0  
  1193)      4690.5  Rx         070C  1  05 
  1194)      4695.9  Rx         020B  8  FF 7F 00 00 C4 09 FF 7F 
  1195)      4696.1  Rx         030B  1  00 
  1196)      4696.6  Rx         020C  8  FF 7F 00 00 D0 07 FF 7F 
  1197)      4696.9  Rx         030C  1  00 
  1198)      4697.4  Rx         020D  8  00 00 00 00 B8 0B FF 7F 
  1199)      4697.6  Rx         030D  1  00 
  1200)      4699.3  Rx         018B  8  00 00 00 00 00 00 1D 00 
  1201)      4699.8  Rx         018C  8  00 00 00 00 00 00 1D 00 
  1202)      4700.3  Rx         018D  8  00 00 00 00 00 00 16 00 
  1203)      4700.8  Rx         028B  8  00 00 13 20 53 01 72 01 
  1204)      4701.3  Rx         028C  8  00 00 19 20 27 01 51 01 
  1205)      4701.7  Rx         028D  8  00 00 18 20 68 01 66 01 
  1206)      4715.7  Rx         070D  1  05 
  1207)      4750.2  Rx         01AA  8  20 20 36 00 DA 0C 01 00 
  1208)      4753.5  Rx         0080  0  
  1209)      4755.1  Rx         070B  1  05 
  1210)      4756.9  Error      0004  4  01 08 01 00
  1211)      4757.2  Rx         072A  1  05 
  1212)      4757.2  Error      0000  4  00 00 00 00
  1213)      4759.9  Error      0004  4  01 08 01 00
  1214)      4760.1  Error      0004  4  01 06 02 00
  1215)      4760.6  Error      0002  4  01 1B 03 00
  1216)      4761.1  Error      0002  4  01 18 04 00
  1217)      4761.6  Error      0002  4  01 1A 04 00
  1218)      4762.1  Rx         04AA  8  13 22 0E 1D 05 14 00 00 
  1219)      4762.1  Error      0000  4  00 00 03 00
  1220)      4767.9  Rx         070D  1  05 
  1221)      4767.9  Error      0000  4  00 00 02 00
  1222)      4775.3  Rx         020B  8  FF 7F 00 00 C4 09 FF 7F 
  1223)      4775.3  Error      0000  4  00 00 01 00
  1224)      4775.5  Rx         030B  1  00 
  1225)      4775.5  Error      0000  4  00 00 00 00
  1226)      4776.0  Rx         020C  8  FF 7F 00 00 D0 07 FF 7F 
  1227)      4776.2  Rx         030C  1  00 
  1228)      4776.7  Rx         020D  8  00 00 00 00 B8 0B FF 7F 
  1229)      4777.0  Rx         030D  1  00 
  1230)      4779.2  Rx         018C  8  00 00 00 00 00 00 1F 00 
  1231)      4779.7  Rx         018B  8  00 00 00 00 00 00 1F 00 
  1232)      4780.1  Rx         028B  8  00 00 13 20 53 01 72 01 
  1233)      4780.6  Rx         018D  8  00 00 00 00 00 00 1E 00 
  1234)      4781.1  Rx         028C  8  00 00 19 20 27 01 51 01 
  1235)      4781.6  Rx         028D  8  00 00 18 20 68 01 66 01 
  1236)      4790.7  Rx         070C  1  05 
  1237)      4820.2  Rx         070D  1  05 
  1238)      4833.0  Rx         0080  0  
  1239)      4850.2  Error      0002  4  01 18 01 00
  1240)      4850.2  Error      0008  4  01 13 09 00
  1241)      4850.7  Rx         01AA  8  20 20 35 00 DA 0C 01 00 
  1242)      4850.7  Error      0000  4  00 00 08 00
  1243)      4854.1  Rx         020B  8  FF 7F 00 00 C4 09 FF 7F 
  1244)      4854.1  Error      0000  4  00 00 07 00
  1245)      4854.3  Rx         030B  1  00 
  1246)      4854.3  Error      0000  4  00 00 06 00
  1247)      4854.8  Rx         020C  8  FF 7F 00 00 D0 07 FF 7F 
  1248)      4854.8  Error      0000  4  00 00 05 00
  1249)      4855.0  Rx         030C  1  00 
  1250)      4855.1  Error      0000  4  00 00 04 00
  1251)      4855.5  Rx         018C  8  00 00 00 00 00 00 1B 00 
  1252)      4855.6  Error      0000  4  00 00 03 00
  1253)      4856.0  Rx         020D  8  00 00 00 00 B8 0B FF 7F 
  1254)      4856.0  Error      0000  4  00 00 02 00
  1255)      4856.3  Rx         030D  1  00 
  1256)      4856.3  Error      0000  4  00 00 01 00
  1257)      4856.8  Rx         018D  8  00 00 00 00 00 00 23 00 
  1258)      4856.8  Error      0000  4  00 00 00 00
  1259)      4857.0  Rx         070B  1  05 
  1260)      4857.5  Rx         018B  8  00 00 00 00 00 00 20 00 
  1261)      4858.0  Rx         028B  8  00 00 13 20 53 01 72 01 
  1262)      4858.2  Error      0002  4  01 1B 01 00
  1263)      4858.5  Rx         072A  1  05 
  1264)      4858.5  Error      0000  4  00 00 00 00
  1265)      4859.4  Rx         028C  8  00 00 19 20 27 01 51 01 
  1266)      4860.8  Rx         028D  8  00 00 18 20 68 01 66 01 
  1267)      4861.2  Rx         0703  1  05 
  1268)      4872.4  Rx         070D  1  05 
  1269)      4891.3  Rx         070C  1  05 
  1270)      4911.5  Rx         0080  0  
  1271)      4924.6  Rx         070D  1  05 
  1272)      4933.2  Rx         020B  8  FF 7F 00 00 C4 09 FF 7F 
  1273)      4933.4  Rx         030B  1  00 
  1274)      4933.9  Rx         020C  8  FF 7F 00 00 D0 07 FF 7F 
  1275)      4934.1  Rx         030C  1  00 
  1276)      4934.6  Rx         020D  8  00 00 00 00 B8 0B FF 7F 
  1277)      4934.8  Rx         030D  1  00 
  1278)      4935.7  Rx         018C  8  00 00 00 00 00 00 21 00 
  1279)      4936.2  Rx         028C  8  00 00 19 20 27 01 51 01 
  1280)      4936.7  Rx         018B  8  00 00 00 00 00 00 20 00 
  1281)      4937.2  Rx         018D  8  00 00 00 00 00 00 22 00 
  1282)      4937.6  Rx         028B  8  00 00 13 20 53 01 72 01 
  1283)      4938.1  Rx         028D  8  00 00 0B 20 68 01 66 01 
  1284)      4950.2  Rx         01AA  8  20 20 36 00 DA 0C 01 00 
  1285)      4955.9  Rx         070B  1  05 
  1286)      4957.1  Rx         072A  1  05 
  1287)      4976.8  Rx         070D  1  05 
  1288)      4991.4  Rx         070C  1  05 
  1289)      4992.5  Rx         0080  0  
  1290)      5013.9  Rx         020B  8  FF 7F 00 00 C4 09 FF 7F 
  1291)      5014.2  Rx         030B  1  00 
  1292)      5014.7  Rx         020C  8  FF 7F 00 00 D0 07 FF 7F 
  1293)      5014.9  Rx         030C  1  00 
  1294)      5015.4  Rx         020D  8  00 00 00 00 B8 0B FF 7F 
  1295)      5015.6  Rx         030D  1  00 
  1296)      5016.1  Rx         018C  8  00 00 00 00 00 00 1C 00 
  1297)      5016.6  Rx         018B  8  00 00 00 00 00 00 1E 00 
  1298)      5017.1  Rx         028B  8  00 00 13 20 53 01 72 01 
  1299)      5017.6  Rx         018D  8  00 00 00 00 00 00 1F 00 
  1300)      5018.1  Rx         028C  8  00 00 19 20 27 01 51 01 
  1301)      5018.5  Rx         028D  8  00 00 18 20 68 01 66 01 
  1302)      5029.1  Rx         070D  1  05 
  1303)      5050.2  Rx         01AA  8  21 20 35 00 DA 0C 01 00 
  1304)      5056.3  Rx         070B  1  05 
  1305)      5057.2  Rx         072A  1  05 
  1306)      5071.5  Rx         0080  0  
  1307)      5081.2  Rx         070D  1  05 
  1308)      5091.8  Rx         070C  1  05 
  1309)      5092.8  Rx         020B  8  FF 7F 00 00 C4 09 FF 7F 
  1310)      5093.0  Rx         030B  1  00 
  1311)      5093.5  Rx         020C  8  FF 7F 00 00 D0 07 FF 7F 
  1312)      5093.7  Rx         030C  1  00 
  1313)      5094.2  Rx         020D  8  00 00 00 00 B8 0B FF 7F 
  1314)      5094.5  Rx         030D  1  00 
  1315)      5096.3  Rx         018C  8  00 00 00 00 00 00 26 00 
  1316)      5096.7  Rx         028C  8  00 00 19 20 27 01 51 01 
  1317)      5097.2  Rx         018B  8  00 00 00 00 00 00 23 00 
  1318)      5097.7  Rx         018D  8  00 00 00 00 00 00 1F 00 
  1319)      5098.2  Rx         028B  8  00 00 13 20 53 01 72 01 
  1320)      5098.7  Rx         028D  8  00 00 18 20 68 01 66 01 
  1321)      5133.7  Rx         070D  1  05 
  1322)      5150.3  Rx         01AA  8  20 20 37 00 DA 0C 01 00 
  1323)      5150.5  Rx         0080  0  
  1324)      5156.6  Rx         070B  1  05 
  1325)      5157.2  Rx         072A  1  05 
  1326)      5171.8  Rx         020B  8  FF 7F 00 00 C4 09 FF 7F 
  1327)      5172.0  Rx         030B  1  00 
  1328)      5172.5  Rx         020C  8  FF 7F 00 00 D0 07 FF 7F 
  1329)      5172.7  Rx         030C  1  00 
  1330)      5173.2  Rx         018B  8  00 00 00 00 00 00 22 00 
  1331)      5173.7  Rx         020D  8  00 00 00 00 B8 0B FF 7F 
  1332)      5174.2  Rx         028B  8  00 00 13 20 53 01 72 01 
  1333)      5174.4  Rx         030D  1  00 
  1334)      5176.5  Rx         018C  8  00 00 00 00 00 00 22 00 
  1335)      5177.0  Rx         028C  8  00 00 19 20 27 01 51 01 
  1336)      5178.0  Rx         018D  8  00 00 00 00 00 00 24 00 
  1337)      5178.5  Rx         028D  8  00 00 18 20 68 01 66 01 
  1338)      5179.4  Rx         0703  1  05 
  1339)      5185.7  Rx         070D  1  05 
  1340)      5192.2  Rx         070C  1  05 
  1341)      5229.3  Rx         0080  0  
  1342)      5238.0  Rx         070D  1  05 
  1343)      5250.1  Error      0004  4  01 0A 01 00
  1344)      5250.7  Rx         020B  8  FF 7F 00 00 C4 09 FF 7F 
  1345)      5250.7  Error      0000  4  00 00 00 00
  1346)      5251.2  Rx         01AA  8  20 20 35 00 DA 0C 01 00 
  1347)      5251.4  Rx         030B  1  00 
  1348)      5251.9  Rx         020C  8  FF 7F 00 00 D0 07 FF 7F 
  1349)      5252.1  Rx         030C  1  00 
  1350)      5252.6  Rx         020D  8  00 00 00 00 B8 0B FF 7F 
  1351)      5253.1  Rx         018C  8  00 00 00 00 00 00 1F 00 
  1352)      5253.6  Rx         018B  8  00 00 00 00 00 00 23 00 
  1353)      5254.1  Rx         028B  8  00 00 13 20 53 01 72 01 
  1354)      5254.6  Rx         018D  8  00 00 00 00 00 00 20 00 
  1355)      5255.0  Rx         028C  8  00 00 19 20 27 01 51 01 
  1356)      5255.3  Rx         030D  1  00 
  1357)      5257.0  Rx         070B  1  05 
  1358)      5257.2  Rx         072A  1  05 
  1359)      5258.3  Rx         028D  8  00 00 18 20 68 01 66 01 
  1360)      5290.1  Rx         070D  1  05 
  1361)      5292.5  Rx         070C  1  05 
  1362)      5308.2  Rx         0080  0  
  1363)      5329.7  Rx         020B  8  FF 7F 00 00 C4 09 FF 7F 
  1364)      5329.9  Rx         030B  1  00 
  1365)      5330.4  Rx         020C  8  FF 7F 00 00 D0 07 FF 7F 
  1366)      5330.6  Rx         030C  1  00 
  1367)      5331.1  Rx         020D  8  00 00 00 00 B8 0B FF 7F 
  1368)      5331.3  Rx         030D  1  00 
  1369)      5333.1  Rx         018C  8  00 00 00 00 00 00 1B 00 
  1370)      5333.6  Rx         028C  8  00 00 19 20 27 01 51 01 
  1371)      5334.1  Rx         018B  8  00 00 00 00 00 00 1F 00 
  1372)      5334.5  Rx         028B  8  00 00 13 20 53 01 72 01 
  1373)      5335.0  Rx         018D  8  00 00 00 00 00 00 1B 00 
  1374)      5335.5  Rx         028D  8  00 00 18 20 68 01 66 01 
  1375)      5342.3  Rx         070D  1  05 
  1376)      5350.2  Error      0004  4  01 08 01 00
  1377)      5350.8  Error      0002  4  01 1A 01 00
  1378)      5351.3  Rx         01AA  8  21 20 35 00 DA 0C 01 00 
  1379)      5351.3  Error      0000  4  00 00 00 00
  1380)      5357.2  Rx         072A  1  05 
  1381)      5357.5  Rx         070B  1  05 
  1382)      5388.4  Rx         0080  0  
  1383)      5393.0  Rx         070C  1  05 
  1384)      5394.6  Rx         070D  1  05 
  1385)      5409.5  Rx         020B  8  FF 7F 00 00 C4 09 FF 7F 
  1386)      5409.8  Rx         030B  1  00 
  1387)      5410.3  Rx         020C  8  FF 7F 00 00 D0 07 FF 7F 
  1388)      5410.5  Rx         030C  1  00 
  1389)      5411.0  Rx         020D  8  00 00 00 00 B8 0B FF 7F 
  1390)      5411.2  Rx         030D  1  00 
  1391)      5413.4  Rx         018C  8  00 00 00 00 00 00 1F 00 
  1392)      5413.9  Rx         028C  8  00 00 19 20 27 01 51 01 
  1393)      5414.3  Rx         018B  8  00 00 00 00 00 00 1E 00 
  1394)      5414.8  Rx         028B  8  00 00 13 20 53 01 72 01 
  1395)      5415.3  Rx         018D  8  00 00 00 00 00 00 1B 00 
  1396)      5415.8  Rx         028D  8  00 00 18 20 68 01 66 01 
  1397)      5446.8  Rx         070D  1  05 
  1398)      5450.3  Rx         01AA  8  21 20 35 00 DA 0C 01 00 
  1399)      5457.2  Error      0002  4  01 18 01 00
  1400)      5457.5  Rx         072A  1  05 
  1401)      5457.5  Error      0000  4  00 00 00 00
  1402)      5457.8  Rx         070B  1  05 
  1403)      5468.1  Rx         0080  0  
  1404)      5489.7  Rx         020B  8  FF 7F 00 00 C4 09 FF 7F 
  1405)      5490.0  Rx         030B  1  00 
  1406)      5490.4  Rx         020C  8  FF 7F 00 00 D0 07 FF 7F 
  1407)      5490.7  Rx         030C  1  00 
  1408)      5491.2  Rx         020D  8  00 00 00 00 B8 0B FF 7F 
  1409)      5491.4  Rx         030D  1  00 
  1410)      5493.2  Rx         070C  1  05 
  1411)      5493.7  Rx         018C  8  00 00 00 00 00 00 1F 00 
  1412)      5494.2  Rx         028C  8  00 00 19 20 27 01 51 01 
  1413)      5494.7  Rx         018B  8  00 00 00 00 00 00 1F 00 
  1414)      5495.1  Rx         028B  8  00 00 13 20 53 01 72 01 
  1415)      5495.6  Rx         018D  8  00 00 00 00 00 00 1C 00 
  1416)      5496.1  Rx         028D  8  00 00 18 20 68 01 66 01 
  1417)      5497.7  Rx         0703  1  05 
  1418)      5499.1  Rx         070D  1  05 
  1419)      5547.2  Rx         0080  0  
  1420)      5550.0  Error      0004  4  01 0A 01 00
  1421)      5550.5  Rx         01AA  8  21 20 35 00 DA 0C 01 00 
  1422)      5550.6  Error      0000  4  00 00 00 00
  1423)      5551.2  Rx         070D  1  05 
  1424)      5557.4  Rx         072A  1  05 
  1425)      5558.3  Rx         070B  1  05 
  1426)      5568.6  Rx         020B  8  FF 7F 00 00 C4 09 FF 7F 
  1427)      5568.8  Rx         030B  1  00 
  1428)      5569.3  Rx         020C  8  FF 7F 00 00 D0 07 FF 7F 
  1429)      5569.5  Rx         030C  1  00 
  1430)      5570.0  Rx         020D  8  00 00 00 00 B8 0B FF 7F 
  1431)      5570.5  Rx         018C  8  00 00 00 00 00 00 1E 00 
  1432)      5571.0  Rx         018B  8  00 00 00 00 00 00 1E 00 
  1433)      5571.5  Rx         028B  8  00 00 13 20 53 01 72 01 
  1434)      5572.0  Rx         018D  8  00 00 00 00 00 00 18 00 
  1435)      5572.5  Rx         028C  8  00 00 19 20 27 01 51 01 
  1436)      5572.7  Rx         030D  1  00 
  1437)      5575.7  Rx         028D  8  00 00 18 20 68 01 66 01 
  1438)      5593.6  Rx         070C  1  05 
  1439)      5603.5  Rx         070D  1  05 
  1440)      5627.0  Rx         0080  0  
  1441)      5648.8  Rx         020B  8  FF 7F 00 00 C4 09 FF 7F 
  1442)      5649.0  Rx         030B  1  00 
  1443)      5649.5  Rx         020C  8  FF 7F 00 00 D0 07 FF 7F 
  1444)      5649.7  Rx         030C  1  00 
  1445)      5650.2  Rx         020D  8  00 00 00 00 B8 0B FF 7F 
  1446)      5650.7  Rx         018C  8  00 00 00 00 00 00 1F 00 
  1447)      5651.2  Rx         018B  8  00 00 00 00 00 00 1B 00 
  1448)      5651.7  Rx         01AA  8  21 20 36 00 DA 0C 01 00 
  1449)      5652.2  Rx         028B  8  00 00 13 20 53 01 72 01 
  1450)      5652.6  Rx         018D  8  00 00 00 00 00 00 21 00 
  1451)      5653.1  Rx         028C  8  00 00 19 20 27 01 51 01 
  1452)      5653.4  Rx         030D  1  00 
  1453)      5655.7  Rx         070D  1  05 
  1454)      5656.1  Rx         028D  8  00 00 18 20 68 01 66 01 
  1455)      5657.2  Error      0002  4  01 1B 01 00
  1456)      5657.6  Rx         072A  1  05 
  1457)      5657.6  Error      0000  4  00 00 00 00
  1458)      5658.5  Rx         070B  1  05 
  1459)      5693.8  Rx         070C  1  05 
  1460)      5706.3  Rx         0080  0  
  1461)      5708.0  Rx         070D  1  05 
  1462)      5727.8  Rx         020B  8  FF 7F 00 00 C4 09 FF 7F 
  1463)      5728.0  Rx         030B  1  00 
  1464)      5728.5  Rx         020C  8  FF 7F 00 00 D0 07 FF 7F 
  1465)      5728.8  Rx         030C  1  00 
  1466)      5729.3  Rx         020D  8  00 00 00 00 B8 0B FF 7F 
  1467)      5729.5  Rx         030D  1  00 
  1468)      5730.4  Rx         018C  8  00 00 00 00 00 00 1D 00 
  1469)      5730.9  Rx         028C  8  00 00 19 20 27 01 51 01 
  1470)      5731.4  Rx         018B  8  00 00 00 00 00 00 1E 00 
  1471)      5731.8  Rx         028B  8  00 00 13 20 53 01 72 01 
  1472)      5732.7  Rx         018D  8  00 00 00 00 00 00 20 00 
  1473)      5733.2  Rx         028D  8  00 00 18 20 68 01 66 01 
  1474)      5750.3  Error      0002  4  01 1B 01 00
  1475)      5750.3  Error      0008  4  01 13 09 00
  1476)      5750.8  Rx         01AA  8  21 20 35 00 DA 0C 01 00 
  1477)      5750.9  Error      0000  4  00 00 08 00
  1478)      5757.2  Rx         072A  1  05 
  1479)      5757.2  Error      0000  4  00 00 07 00
  1480)      5759.0  Rx         070B  1  05 
  1481)      5759.0  Error      0000  4  00 00 06 00
  1482)      5760.2  Error      0002  4  01 1B 06 00
  1483)      5760.4  Rx         070D  1  05 
  1484)      5760.5  Error      0000  4  00 00 05 00
  1485)      5760.9  Error      0002  4  01 1A 05 00
  1486)      5761.2  Error      0004  4  01 0A 06 00
  1487)      5761.8  Rx         04AA  8  14 22 0E 1D 05 14 00 00 
  1488)      5761.8  Error      0000  4  00 00 05 00
  1489)      5786.2  Rx         0080  0  
  1490)      5786.2  Error      0000  4  00 00 04 00
  1491)      5794.2  Rx         070C  1  05 
  1492)      5794.2  Error      0000  4  00 00 03 00
  1493)      5807.8  Rx         020B  8  FF 7F 00 00 C4 09 FF 7F 
  1494)      5807.9  Error      0000  4  00 00 02 00
  1495)      5808.1  Rx         030B  1  00 
  1496)      5808.1  Error      0000  4  00 00 01 00
  1497)      5808.6  Rx         020C  8  FF 7F 00 00 D0 07 FF 7F 
  1498)      5808.6  Error      0000  4  00 00 00 00
  1499)      5808.8  Rx         030C  1  00 
  1500)      5809.3  Rx         020D  8  00 00 00 00 B8 0B FF 7F 
  1501)      5809.5  Rx         030D  1  00 
  1502)      5810.7  Rx         018C  8  00 00 00 00 00 00 1E 00 
  1503)      5811.1  Rx         028C  8  00 00 19 20 27 01 51 01 
  1504)      5811.6  Rx         018B  8  00 00 00 00 00 00 1F 00 
  1505)      5812.1  Rx         028B  8  00 00 13 20 53 01 72 01 
  1506)      5812.3  Rx         070D  1  05 
  1507)      5813.1  Rx         018D  8  00 00 00 00 00 00 1E 00 
  1508)      5813.6  Rx         028D  8  00 00 18 20 68 01 66 01 
  1509)      5815.4  Rx         0703  1  05 
  1510)      5850.3  Rx         01AA  8  21 20 35 00 DA 0C 01 00 
  1511)      5857.2  Rx         072A  1  05 
  1512)      5859.2  Rx         070B  1  05 
  1513)      5864.4  Rx         070D  1  05 
  1514)      5867.0  Rx         0080  0  
  1515)      5888.3  Rx         020B  8  FF 7F 00 00 C4 09 FF 7F 
  1516)      5888.5  Rx         030B  1  00 
  1517)      5889.0  Rx         020C  8  FF 7F 00 00 D0 07 FF 7F 
  1518)      5889.2  Rx         030C  1  00 
  1519)      5889.7  Rx         020D  8  00 00 00 00 B8 0B FF 7F 
  1520)      5889.9  Rx         030D  1  00 
  1521)      5891.0  Rx         018C  8  00 00 00 00 00 00 19 00 
  1522)      5891.4  Rx         028C  8  00 00 19 20 27 01 51 01 
  1523)      5891.9  Rx         018B  8  00 00 00 00 00 00 20 00 
  1524)      5892.4  Rx         028B  8  00 00 13 20 53 01 72 01 
  1525)      5893.0  Rx         018D  8  00 00 00 00 00 00 20 00 
  1526)      5893.5  Rx         028D  8  00 00 18 20 68 01 66 01 
  1527)      5894.5  Rx         070C  1  05 
  1528)      5916.6  Rx         070D  1  05 
  1529)      5945.4  Rx         0080  0  
  1530)      5950.3  Error      0002  4  01 1B 01 00
  1531)      5950.9  Rx         01AA  8  21 20 36 00 DA 0C 01 00 
  1532)      5950.9  Error      0000  4  00 00 00 00
  1533)      5957.3  Rx         072A  1  05 
  1534)      5959.6  Rx         070B  1  05 
  1535)      5967.0  Rx         020B  8  FF 7F 00 00 C4 09 FF 7F 
  1536)      5967.2  Rx         030B  1  00 
  1537)      5967.7  Rx         020C  8  FF 7F 00 00 D0 07 FF 7F 
  1538)      5968.2  Rx         018B  8  00 00 00 00 00 00 21 00 
  1539)      5968.7  Rx         028B  8  00 00 13 20 53 01 72 01 
  1540)      5968.9  Rx         030C  1  00 
  1541)      5969.4  Rx         020D  8  00 00 00 00 B8 0B FF 7F 
  1542)      5969.7  Rx         030D  1  00 
  1543)      5969.9  Rx         070D  1  05 
  1544)      5971.2  Rx         018C  8  00 00 00 00 00 00 1C 00 
  1545)      5971.7  Rx         028C  8  00 00 19 20 27 01 51 01 
  1546)      5973.3  Rx         018D  8  00 00 00 00 00 00 20 00 
  1547)      5973.8  Rx         028D  8  00 00 18 20 68 01 66 01 
  1548)      5994.9  Rx         070C  1  05 
  1549)      6021.1  Rx         070D  1  05 
  1550)      6024.7  Rx         0080  0  
  1551)      6046.1  Rx         020B  8  FF 7F 00 00 C4 09 FF 7F 
  1552)      6046.3  Rx         030B  1  00 
  1553)      6046.8  Rx         020C  8  FF 7F 00 00 D0 07 FF 7F 
  1554)      6047.0  Rx         030C  1  00 
  1555)      6047.5  Rx         020D  8  00 00 00 00 B8 0B FF 7F 
  1556)      6048.1  Rx         018C  8  00 00 00 00 00 00 21 00 
  1557)      6048.5  Rx         018B  8  00 00 00 00 00 00 1F 00 
  1558)      6049.0  Rx         028B  8  00 00 13 20 53 01 72 01 
  1559)      6049.5  Rx         028C  8  00 00 19 20 27 01 51 01 
  1560)      6050.0  Rx         018D  8  00 00 00 00 00 00 23 00 
  1561)      6050.5  Rx         01AA  8  21 20 36 00 DA 0C 01 00 
  1562)      6050.7  Rx         030D  1  00 
  1563)      6053.6  Rx         028D  8  00 00 18 20 68 01 66 01 
  1564)      6057.4  Rx         072A  1  05 
  1565)      6060.0  Rx         070B  1  05 
  1566)      6073.3  Rx         070D  1  05 
  1567)      6095.3  Rx         070C  1  05 
  1568)      6103.4  Rx         0080  0  
  1569)      6125.0  Rx         020B  8  FF 7F 00 00 C4 09 FF 7F 
  1570)      6125.2  Rx         030B  1  00 
  1571)      6125.7  Rx         020C  8  FF 7F 00 00 D0 07 FF 7F 
  1572)      6125.9  Rx         030C  1  00 
  1573)      6126.4  Rx         020D  8  00 00 00 00 B8 0B FF 7F 
  1574)      6126.6  Rx         030D  1  00 
  1575)      6126.9  Rx         070D  1  05 
  1576)      6127.8  Rx         018C  8  00 00 00 00 00 00 1F 00 
  1577)      6128.3  Rx         028C  8  00 00 19 20 27 01 51 01 
  1578)      6128.8  Rx         018B  8  00 00 00 00 00 00 20 00 
  1579)      6129.3  Rx         028B  8  00 00 13 20 53 01 72 01 
  1580)      6130.0  Rx         018D  8  00 00 00 00 00 00 23 00 
  1581)      6130.5  Rx         028D  8  00 00 18 20 68 01 66 01 
  1582)      6132.2  Rx         0703  1  05 
  1583)      6150.4  Rx         01AA  8  21 20 36 00 DA 0C 01 00 
  1584)      6157.3  Rx         072A  1  05 
  1585)      6160.4  Rx         070B  1  05 
  1586)      6177.7  Rx         070D  1  05 
  1587)      6182.6  Rx         0080  0  
  1588)      6195.6  Rx         070C  1  05 
  1589)      6204.0  Rx         020B  8  FF 7F 00 00 C4 09 FF 7F 
  1590)      6204.2  Rx         030B  1  00 
  1591)      6204.7  Rx         020C  8  FF 7F 00 00 D0 07 FF 7F 
  1592)      6205.2  Rx         018B  8  00 00 00 00 00 00 20 00 
  1593)      6205.7  Rx         028B  8  00 00 13 20 53 01 72 01 
  1594)      6205.9  Rx         030C  1  00 
  1595)      6206.4  Rx         020D  8  00 00 00 00 B8 0B FF 7F 
  1596)      6206.6  Rx         030D  1  00 
  1597)      6208.5  Rx         018C  8  00 00 00 00 00 00 22 00 
  1598)      6209.0  Rx         028C  8  00 00 19 20 27 01 51 01 
  1599)      6210.3  Rx         018D  8  00 00 00 00 00 00 1C 00 
  1600)      6210.8  Rx         028D  8  00 00 18 20 68 01 66 01 
  1601)      6230.0  Rx         070D  1  05 
  1602)      6250.4  Rx         01AA  8  21 20 36 00 DA 0C 01 00 
  1603)      6257.5  Error      0002  4  01 1B 01 00
  1604)      6257.8  Rx         072A  1  05 
  1605)      6257.8  Error      0000  4  00 00 00 00
  1606)      6260.8  Rx         070B  1  05 
  1607)      6263.3  Rx         0080  0  
  1608)      6282.4  Rx         070D  1  05 
  1609)      6284.7  Rx         020B  8  FF 7F 00 00 C4 09 FF 7F 
  1610)      6284.9  Rx         030B  1  00 
  1611)      6285.4  Rx         018B  8  00 00 00 00 00 00 21 00 
  1612)      6285.9  Rx         020C  8  FF 7F 00 00 D0 07 FF 7F 
  1613)      6286.1  Rx         030C  1  00 
  1614)      6286.6  Rx         020D  8  00 00 00 00 B8 0B FF 7F 
  1615)      6286.9  Rx         030D  1  00 
  1616)      6288.4  Rx         018C  8  00 00 00 00 00 00 21 00 
  1617)      6288.9  Rx         028C  8  00 00 19 20 27 01 51 01 
  1618)      6289.4  Rx         028B  8  00 00 13 20 53 01 72 01 
  1619)      6290.7  Rx         018D  8  00 00 00 00 00 00 1E 00 
  1620)      6291.1  Rx         028D  8  00 00 18 20 68 01 66 01 
  1621)      6295.9  Rx         070C  1  05 
  1622)      6334.4  Rx         070D  1  05 
  1623)      6342.3  Rx         0080  0  
  1624)      6350.4  Rx         01AA  8  21 20 36 00 DA 0C 01 00 
  1625)      6357.4  Rx         072A  1  05 
  1626)      6361.1  Rx         070B  1  05 
  1627)      6364.0  Rx         020B  8  FF 7F 00 00 C4 09 FF 7F 
  1628)      6364.2  Rx         030B  1  00 
  1629)      6364.7  Rx         020C  8  FF 7F 00 00 D0 07 FF 7F 
  1630)      6365.0  Rx         030C  1  00 
  1631)      6365.5  Rx         020D  8  00 00 00 00 B8 0B FF 7F 
  1632)      6365.7  Rx         030D  1  00 
  1633)      6366.2  Rx         018B  8  00 00 00 00 00 00 21 00 
  1634)      6366.7  Rx         028B  8  00 00 13 20 53 01 72 01 
  1635)      6367.2  Rx         018D  8  00 00 00 00 00 00 24 00 
  1636)      6367.6  Rx         028D  8  00 00 18 20 68 01 66 01 
  1637)      6369.1  Rx         018C  8  00 00 00 00 00 00 20 00 
  1638)      6369.5  Rx         028C  8  00 00 19 20 27 01 51 01 
  1639)      6386.7  Rx         070D  1  05 
  1640)      6396.3  Rx         070C  1  05 
  1641)      6421.3  Rx         0080  0  
  1642)      6438.8  Rx         070D  1  05 
  1643)      6442.6  Rx         020B  8  FF 7F 00 00 C4 09 FF 7F 
  1644)      6442.9  Rx         030B  1  00 
  1645)      6443.3  Rx         020C  8  FF 7F 00 00 D0 07 FF 7F 
  1646)      6443.6  Rx         030C  1  00 
  1647)      6444.1  Rx         020D  8  00 00 00 00 B8 0B FF 7F 
  1648)      6444.3  Rx         030D  1  00 
  1649)      6444.9  Rx         018C  8  00 00 00 00 00 00 1C 00 
  1650)      6445.4  Rx         028C  8  00 00 19 20 27 01 51 01 
  1651)      6446.0  Rx         018B  8  00 00 00 00 00 00 1E 00 
  1652)      6446.4  Rx         028B  8  00 00 13 20 53 01 72 01 
  1653)      6447.3  Rx         018D  8  00 00 00 00 00 00 21 00 
  1654)      6447.7  Rx         028D  8  00 00 18 20 68 01 66 01 
  1655)      6450.2  Rx         0703  1  05 
  1656)      6450.6  Rx         01AA  8  21 20 36 00 DA 0C 01 00 
  1657)      6457.4  Rx         072A  1  05 
  1658)      6461.6  Rx         070B  1  05 
  1659)      6491.1  Rx         070D  1  05 
  1660)      6496.6  Rx         070C  1  05 
  1661)      6499.5  Rx         0080  0  
  1662)      6521.6  Rx         020B  8  FF 7F 00 00 C4 09 FF 7F 
  1663)      6521.9  Rx         030B  1  00 
  1664)      6522.4  Rx         020C  8  FF 7F 00 00 D0 07 FF 7F 
  1665)      6522.6  Rx         030C  1  00 
  1666)      6523.1  Rx         020D  8  00 00 00 00 B8 0B FF 7F 
  1667)      6523.3  Rx         030D  1  00 
  1668)      6525.2  Rx         018C  8  00 00 00 00 00 00 1F 00 
  1669)      6525.7  Rx         028C  8  00 00 19 20 27 01 51 01 
  1670)      6526.3  Rx         018B  8  00 00 00 00 00 00 19 00 
  1671)      6526.8  Rx         028B  8  00 00 13 20 53 01 72 01 
  1672)      6527.6  Rx         018D  8  00 00 00 00 00 00 22 00 
  1673)      6528.1  Rx         028D  8  00 00 18 20 68 01 66 01 
  1674)      6543.3  Rx         070D  1  05 
  1675)      6550.5  Rx         01AA  8  21 20 36 00 DB 0C 01 00 
  1676)      6557.4  Rx         072A  1  05 
  1677)      6561.9  Rx         070B  1  05 
  1678)      6578.6  Rx         0080  0  
  1679)      6595.6  Rx         070D  1  05 
  1680)      6597.0  Rx         070C  1  05 
  1681)      6600.2  Rx         020B  8  FF 7F 00 00 C4 09 FF 7F 
  1682)      6600.5  Rx         030B  1  00 
  1683)      6601.0  Rx         020C  8  FF 7F 00 00 D0 07 FF 7F 
  1684)      6601.2  Rx         030C  1  00 
  1685)      6601.7  Rx         020D  8  00 00 00 00 B8 0B FF 7F 
  1686)      6601.9  Rx         030D  1  00 
  1687)      6602.5  Rx         018B  8  00 00 00 00 00 00 1C 00 
  1688)      6603.0  Rx         028B  8  00 00 13 20 53 01 72 01 
  1689)      6604.0  Rx         018D  8  00 00 00 00 00 00 23 00 
  1690)      6604.4  Rx         028D  8  00 00 18 20 68 01 66 01 
  1691)      6605.5  Rx         018C  8  00 00 00 00 00 00 1D 00 
  1692)      6606.0  Rx         028C  8  00 00 19 20 27 01 51 01 
  1693)      6647.7  Rx         070D  1  05 
  1694)      6650.2  Error      0004  4  01 0A 01 00
  1695)      6650.4  Error      0004  4  01 0A 02 00
  1696)      6650.9  Error      0002  4  01 18 03 00
  1697)      6651.0  Error      0008  4  01 13 0B 00
  1698)      6651.4  Error      0004  4  01 08 0C 00
  1699)      6651.9  Error      0002  4  01 18 0D 00
  1700)      6652.5  Rx         01AA  8  21 20 36 00 DB 0C 01 00 
  1701)      6652.5  Error      0000  4  00 00 0C 00
  1702)      6657.4  Rx         072A  1  05 
  1703)      6657.4  Error      0000  4  00 00 0B 00
  1704)      6659.3  Rx         0080  0  
  1705)      6659.3  Error      0000  4  00 00 0A 00
  1706)      6662.3  Rx         070B  1  05 
  1707)      6662.3  Error      0000  4  00 00 09 00
  1708)      6681.5  Rx         020B  8  FF 7F 00 00 C4 09 FF 7F 
  1709)      6681.6  Error      0000  4  00 00 08 00
  1710)      6681.8  Rx         030B  1  00 
  1711)      6681.8  Error      0000  4  00 00 07 00
  1712)      6682.3  Rx         020C  8  FF 7F 00 00 D0 07 FF 7F 
  1713)      6682.3  Error      0000  4  00 00 06 00
  1714)      6682.5  Rx         030C  1  00 
  1715)      6682.5  Error      0000  4  00 00 05 00
  1716)      6683.0  Rx         018B  8  00 00 00 00 00 00 1F 00 
  1717)      6683.0  Error      0000  4  00 00 04 00
  1718)      6683.5  Rx         020D  8  00 00 00 00 B8 0B FF 7F 
  1719)      6683.5  Error      0000  4  00 00 03 00
  1720)      6684.0  Rx         028B  8  00 00 13 20 53 01 72 01 
  1721)      6684.0  Error      0000  4  00 00 02 00
  1722)      6684.5  Rx         018D  8  00 00 00 00 00 00 1B 00 
  1723)      6684.5  Error      0000  4  00 00 01 00
  1724)      6684.7  Rx         030D  1  00 
  1725)      6684.7  Error      0000  4  00 00 00 00
  1726)      6685.8  Rx         018C  8  00 00 00 00 00 00 1A 00 
  1727)      6686.3  Rx         028C  8  00 00 19 20 27 01 51 01 
  1728)      6688.3  Rx         028D  8  00 00 18 20 68 01 66 01 
  1729)      6697.4  Rx         070C  1  05 
  1730)      6700.0  Rx         070D  1  05 
  1731)      6739.3  Rx         0080  0  
  1732)      6750.6  Rx         01AA  8  22 20 35 00 DB 0C 01 00 
  1733)      6752.2  Rx         070D  1  05 
  1734)      6757.5  Rx         072A  1  05 
  1735)      6760.4  Error      0002  4  01 1A 01 00
  1736)      6761.0  Rx         04AA  8  15 22 0E 1D 05 14 00 00 
  1737)      6761.0  Error      0000  4  00 00 00 00
  1738)      6761.4  Rx         020B  8  FF 7F 00 00 C4 09 FF 7F 
  1739)      6761.7  Rx         030B  1  00 
  1740)      6762.2  Rx         020C  8  FF 7F 00 00 D0 07 FF 7F 
  1741)      6762.4  Rx         030C  1  00 
  1742)      6762.9  Rx         020D  8  00 00 00 00 B8 0B FF 7F 
  1743)      6763.1  Rx         030D  1  00 
  1744)      6763.3  Rx         070B  1  05 
  1745)      6763.8  Rx         018B  8  00 00 00 00 00 00 1B 00 
  1746)      6764.3  Rx         028B  8  00 00 13 20 53 01 72 01 
  1747)      6764.8  Rx         018D  8  00 00 00 00 00 00 1E 00 
  1748)      6765.3  Rx         028D  8  00 00 18 20 68 01 66 01 
  1749)      6766.5  Rx         018C  8  00 00 00 00 00 00 20 00 
  1750)      6767.0  Rx         028C  8  00 00 19 20 27 01 51 01 
  1751)      6769.4  Rx         0703  1  05 
  1752)      6797.8  Rx         070C  1  05 
  1753)      6804.4  Rx         070D  1  05 
  1754)      6818.4  Rx         0080  0  
  1755)      6840.3  Rx         020B  8  FF 7F 00 00 C4 09 FF 7F 
  1756)      6840.6  Rx         030B  1  00 
  1757)      6841.0  Rx         020C  8  FF 7F 00 00 D0 07 FF 7F 
  1758)      6841.3  Rx         030C  1  00 
  1759)      6841.8  Rx         020D  8  00 00 00 00 B8 0B FF 7F 
  1760)      6842.0  Rx         030D  1  00 
  1761)      6842.5  Rx         018C  8  00 00 00 00 00 00 23 00 
  1762)      6843.0  Rx         028C  8  00 00 19 20 27 01 51 01 
  1763)      6843.5  Rx         018B  8  00 00 00 00 00 00 20 00 
  1764)      6844.0  Rx         028B  8  00 00 13 20 53 01 72 01 
  1765)      6845.0  Rx         018D  8  00 00 00 00 00 00 22 00 
  1766)      6845.5  Rx         028D  8  00 00 18 20 68 01 66 01 
  1767)      6850.3  Error      0004  4  01 0A 01 00
  1768)      6850.8  Error      0002  4  01 1B 02 00
  1769)      6851.4  Error      0002  4  01 1B 02 00
  1770)      6856.6  Rx         070D  1  05 
  1771)      6856.6  Error      0000  4  00 00 01 00
  1772)      6857.8  Rx         01AA  8  22 20 35 00 DB 0C 01 00 
  1773)      6857.8  Error      0000  4  00 00 00 00
  1774)      6858.0  Rx         072A  1  05 
  1775)      6863.1  Rx         070B  1  05 
  1776)      6897.8  Rx         0080  0  
  1777)      6898.1  Rx         070C  1  05 
