;$FILEVERSION=1.1
;$STARTTIME=43980.5628742014
;
;   C:\Users\eric.baril\Documents\acuityprogramming.trc
;
;   Start time: 2020-05-29 13:30:32.331.0
;   Generated by PCAN-View v4.2.5.569
;
;   Message Number
;   |         Time Offset (ms)
;   |         |        Type
;   |         |        |        ID (hex)
;   |         |        |        |     Data Length
;   |         |        |        |     |   Data Bytes (hex) ...
;   |         |        |        |     |   |
;---+--   ----+----  --+--  ----+---  +  -+ -- -- -- -- -- -- --
     1)        35.1  Rx         01AA  8  98 0A 00 00 61 0B 01 00 
     2)       135.1  Rx         01AA  8  98 0A FF FF 61 0B 01 00 
     3)       235.1  Rx         01AA  8  98 0A FF FF 61 0B 01 00 
     4)       335.1  Rx         01AA  8  97 0A 01 00 61 0B 01 00 
     5)       435.1  Rx         01AA  8  97 0A 01 00 61 0B 01 00 
     6)       442.3  Rx         02AA  8  00 00 00 00 00 00 00 00 
     7)       444.5  Rx         072A  1  05 
     8)       450.0  Rx         04AA  8  2F 2C 0D 1D 05 14 00 00 
     9)       535.2  Rx         01AA  8  97 0A 00 00 61 0B 01 00 
    10)       635.1  Rx         01AA  8  97 0A 00 00 61 0B 01 00 
    11)       735.1  Rx         01AA  8  97 0A FF FF 61 0B 01 00 
    12)       835.1  Rx         01AA  8  97 0A FF FF 61 0B 01 00 
    13)       935.2  Rx         01AA  8  97 0A FF FF 61 0B 01 00 
    14)       941.8  Rx         072A  1  05 
    15)      1035.2  Rx         01AA  8  97 0A FF FF 61 0B 01 00 
    16)      1135.2  Rx         01AA  8  97 0A FF FF 61 0B 01 00 
    17)      1235.2  Rx         01AA  8  97 0A FE FF 61 0B 01 00 
    18)      1335.2  Rx         01AA  8  97 0A FF FF 61 0B 01 00 
    19)      1435.3  Rx         01AA  8  97 0A 00 00 61 0B 01 00 
    20)      1442.0  Rx         072A  1  05 
    21)      1445.2  Rx         04AA  8  30 2C 0D 1D 05 14 00 00 
    22)      1535.3  Rx         01AA  8  97 0A 00 00 61 0B 01 00 
    23)      1635.2  Rx         01AA  8  97 0A 00 00 61 0B 01 00 
    24)      1735.2  Rx         01AA  8  97 0A 00 00 61 0B 01 00 
    25)      1835.3  Rx         01AA  8  97 0A 01 00 61 0B 01 00 
    26)      1935.3  Rx         01AA  8  97 0A FF FF 61 0B 01 00 
    27)      1941.9  Rx         072A  1  05 
    28)      2035.3  Rx         01AA  8  97 0A FF FF 61 0B 01 00 
    29)      2135.4  Rx         01AA  8  97 0A FF FF 61 0B 01 00 
    30)      2235.4  Rx         01AA  8  97 0A FF FF 61 0B 01 00 
    31)      2335.4  Rx         01AA  8  97 0A FF FF 61 0B 01 00 
    32)      2435.4  Rx         01AA  8  97 0A FE FF 61 0B 01 00 
    33)      2442.1  Rx         072A  1  05 
    34)      2445.3  Rx         04AA  8  31 2C 0D 1D 05 14 00 00 
    35)      2535.5  Rx         01AA  8  98 0A FF FF 61 0B 01 00 
    36)      2635.6  Rx         01AA  8  97 0A FF FF 61 0B 01 00 
    37)      2735.6  Rx         01AA  8  97 0A FF FF 61 0B 01 00 
    38)      2835.6  Rx         01AA  8  97 0A FF FF 61 0B 01 00 
    39)      2935.6  Rx         01AA  8  98 0A FF FF 61 0B 01 00 
    40)      2942.2  Rx         072A  1  05 
    41)      3035.7  Rx         01AA  8  97 0A FF FF 61 0B 01 00 
    42)      3135.7  Rx         01AA  8  97 0A 00 00 61 0B 01 00 
    43)      3235.7  Rx         01AA  8  97 0A FF FF 61 0B 01 00 
    44)      3335.7  Rx         01AA  8  97 0A FF FF 61 0B 01 00 
    45)      3435.7  Rx         01AA  8  98 0A 00 00 61 0B 01 00 
    46)      3442.5  Rx         072A  1  05 
    47)      3445.6  Rx         04AA  8  32 2C 0D 1D 05 14 00 00 
    48)      3535.8  Rx         01AA  8  98 0A FF FF 61 0B 01 00 
    49)      3635.7  Rx         01AA  8  98 0A FF FF 61 0B 01 00 
    50)      3735.7  Rx         01AA  8  98 0A 00 00 61 0B 01 00 
    51)      3835.8  Rx         01AA  8  98 0A FF FF 61 0B 01 00 
    52)      3935.8  Rx         01AA  8  98 0A FF FF 61 0B 01 00 
    53)      3942.4  Rx         072A  1  05 
    54)      4035.8  Rx         01AA  8  98 0A FF FF 61 0B 01 00 
    55)      4135.8  Rx         01AA  8  97 0A FF FF 61 0B 01 00 
    56)      4235.8  Rx         01AA  8  98 0A FF FF 61 0B 01 00 
    57)      4335.9  Rx         01AA  8  97 0A FF FF 61 0B 01 00 
    58)      4435.9  Rx         01AA  8  98 0A 00 00 61 0B 01 00 
    59)      4442.6  Rx         072A  1  05 
    60)      4445.8  Rx         04AA  8  33 2C 0D 1D 05 14 00 00 
    61)      4535.9  Rx         01AA  8  97 0A 00 00 61 0B 01 00 
    62)      4635.9  Rx         01AA  8  98 0A 00 00 61 0B 01 00 
    63)      4735.8  Rx         01AA  8  97 0A 01 00 61 0B 01 00 
    64)      4835.9  Rx         01AA  8  97 0A 00 00 61 0B 01 00 
    65)      4935.9  Rx         01AA  8  97 0A 00 00 61 0B 01 00 
    66)      4942.3  Rx         072A  1  05 
    67)      5035.9  Rx         01AA  8  97 0A 01 00 61 0B 01 00 
    68)      5135.9  Rx         01AA  8  97 0A 00 00 61 0B 01 00 
    69)      5236.0  Rx         01AA  8  97 0A 00 00 61 0B 01 00 
    70)      5336.0  Rx         01AA  8  97 0A FE FF 61 0B 01 00 
    71)      5436.0  Rx         01AA  8  97 0A 00 00 61 0B 01 00 
    72)      5443.3  Rx         02AA  8  00 00 00 00 00 00 00 00 
    73)      5445.4  Rx         072A  1  05 
    74)      5450.9  Rx         04AA  8  34 2C 0D 1D 05 14 00 00 
    75)      5536.1  Rx         01AA  8  97 0A FF FF 61 0B 01 00 
    76)      5636.0  Rx         01AA  8  97 0A FF FF 61 0B 01 00 
    77)      5736.0  Rx         01AA  8  97 0A FF FF 61 0B 01 00 
    78)      5836.0  Rx         01AA  8  97 0A FE FF 61 0B 01 00 
    79)      5936.0  Rx         01AA  8  97 0A FF FF 61 0B 01 00 
    80)      5942.6  Rx         072A  1  05 
    81)      6036.1  Rx         01AA  8  98 0A FF FF 61 0B 01 00 
    82)      6136.1  Rx         01AA  8  97 0A 00 00 61 0B 01 00 
    83)      6236.1  Rx         01AA  8  98 0A 00 00 61 0B 01 00 
    84)      6336.1  Rx         01AA  8  97 0A 00 00 61 0B 01 00 
    85)      6436.2  Rx         01AA  8  98 0A 00 00 61 0B 01 00 
    86)      6442.9  Rx         072A  1  05 
    87)      6446.0  Rx         04AA  8  35 2C 0D 1D 05 14 00 00 
    88)      6536.2  Rx         01AA  8  98 0A 00 00 61 0B 01 00 
    89)      6636.3  Rx         01AA  8  98 0A 00 00 61 0B 01 00 
    90)      6736.3  Rx         01AA  8  97 0A FF FF 61 0B 01 00 
    91)      6836.4  Rx         01AA  8  97 0A FF FF 61 0B 01 00 
    92)      6936.4  Rx         01AA  8  97 0A FF FF 61 0B 01 00 
    93)      6943.0  Rx         072A  1  05 
    94)      7036.4  Rx         01AA  8  97 0A FF FF 61 0B 01 00 
    95)      7082.3  Rx         062A  8  42 00 51 00 00 00 00 00 
    96)      7083.3  Rx         05AA  8  40 00 51 00 50 00 00 00 
    97)      7085.8  Rx         062A  8  42 01 51 00 00 00 00 00 
    98)      7086.8  Rx         05AA  8  40 01 51 00 6B 03 00 00 
    99)      7089.2  Rx         062A  8  42 02 51 00 00 00 00 00 
   100)      7091.3  Rx         05AA  8  40 02 51 00 03 00 00 00 
   101)      7093.8  Rx         062A  8  42 03 51 00 00 00 00 00 
   102)      7096.3  Rx         05AA  8  40 03 51 00 3F 3F 3F 3F 
   103)      7136.4  Rx         01AA  8  97 0A FF FF 61 0B 01 00 
   104)      7149.6  Rx         062A  8  42 03 51 01 00 00 00 00 
   105)      7150.6  Rx         05AA  8  40 03 51 01 3F 3F 3F 3F 
   106)      7204.4  Rx         062A  8  42 03 51 02 00 00 00 00 
   107)      7205.4  Rx         05AA  8  40 03 51 02 3F 3F 3F 3F 
   108)      7207.8  Rx         062A  8  42 05 51 00 00 00 00 00 
   109)      7208.8  Rx         05AA  8  40 05 51 00 64 00 00 00 
   110)      7211.2  Rx         062A  8  42 06 51 00 00 00 00 00 
   111)      7212.2  Rx         05AA  8  40 06 51 00 60 64 00 00 
   112)      7214.5  Rx         062A  8  42 07 51 00 00 00 00 00 
   113)      7216.3  Rx         05AA  8  40 07 51 00 2E 09 00 00 
   114)      7218.7  Rx         062A  8  42 08 51 00 00 00 00 00 
   115)      7221.3  Rx         05AA  8  40 08 51 00 88 13 00 00 
   116)      7223.7  Rx         062A  8  42 0A 51 00 00 00 00 00 
   117)      7226.3  Rx         05AA  8  40 0A 51 00 32 5F 00 00 
   118)      7228.7  Rx         062A  8  42 13 51 00 00 00 00 00 
   119)      7231.3  Rx         05AA  8  40 13 51 00 01 00 00 00 
   120)      7233.7  Rx         062A  8  42 12 51 00 00 00 00 00 
   121)      7236.4  Rx         01AA  8  97 0A 00 00 61 0B 01 00 
   122)      7243.4  Rx         05AA  8  40 12 51 00 01 32 05 00 
   123)      7245.7  Rx         062A  8  42 16 51 00 00 00 00 00 
   124)      7246.7  Rx         05AA  8  40 16 51 00 05 07 00 00 
   125)      7249.1  Rx         062A  8  42 14 51 01 00 00 00 00 
   126)      7251.3  Rx         05AA  8  40 14 51 01 1D 05 14 00 
   127)      7253.6  Rx         062A  8  42 14 51 00 00 00 00 00 
   128)      7256.3  Rx         05AA  8  40 14 51 00 35 2C 0D 00 
   129)      7258.7  Rx         062A  8  42 09 51 00 00 00 00 00 
   130)      7261.3  Rx         05AA  8  40 09 51 00 AC C5 27 37 
   131)      7263.6  Rx         062A  8  42 09 51 01 00 00 00 00 
   132)      7266.3  Rx         05AA  8  40 09 51 01 6F 12 03 3B 
   133)      7268.6  Rx         062A  8  42 09 51 02 00 00 00 00 
   134)      7271.3  Rx         05AA  8  40 09 51 02 4E 64 E6 BB 
   135)      7273.5  Rx         062A  8  42 09 51 03 00 00 00 00 
   136)      7276.3  Rx         05AA  8  40 09 51 03 C3 F5 F8 3F 
   137)      7278.6  Rx         062A  8  42 09 51 04 00 00 00 00 
   138)      7281.3  Rx         05AA  8  40 09 51 04 87 97 71 B7 
   139)      7283.5  Rx         062A  8  42 09 51 05 00 00 00 00 
   140)      7286.3  Rx         05AA  8  40 09 51 05 89 D2 5E 3B 
   141)      7288.6  Rx         062A  8  42 09 51 06 00 00 00 00 
   142)      7291.3  Rx         05AA  8  40 09 51 06 1F DA C7 BB 
   143)      7293.6  Rx         062A  8  42 09 51 07 00 00 00 00 
   144)      7296.3  Rx         05AA  8  40 09 51 07 85 EB F1 3F 
   145)      7298.6  Rx         062A  8  42 09 51 08 00 00 00 00 
   146)      7301.3  Rx         05AA  8  40 09 51 08 8E 2B 64 B7 
   147)      7303.5  Rx         062A  8  42 09 51 09 00 00 00 00 
   148)      7306.3  Rx         05AA  8  40 09 51 09 F4 FD D4 3B 
   149)      7308.6  Rx         062A  8  42 09 51 0A 00 00 00 00 
   150)      7311.3  Rx         05AA  8  40 09 51 0A DC B8 C5 BB 
   151)      7313.5  Rx         062A  8  42 09 51 0B 00 00 00 00 
   152)      7316.3  Rx         05AA  8  40 09 51 0B 59 A4 E9 3F 
   153)      7336.4  Rx         01AA  8  97 0A 00 00 61 0B 01 00 
   154)      7349.1  Rx         062A  8  22 00 51 00 50 00 42 56 
   155)      7350.1  Rx         05AA  8  60 00 51 00 50 00 42 56 
   156)      7365.1  Rx         062A  8  22 01 51 00 E8 03 41 68 
   157)      7366.5  Rx         05AA  8  60 01 51 00 E8 03 41 68 
   158)      7379.0  Rx         062A  8  22 02 51 00 E8 FD 54 79 
   159)      7380.0  Rx         05AA  8  60 02 51 00 E8 FD 54 79 
   160)      7393.5  Rx         062A  8  22 03 51 00 54 4C 44 5F 
   161)      7394.5  Rx         05AA  8  60 03 51 00 54 4C 44 5F 
   162)      7436.5  Rx         01AA  8  97 0A 01 00 61 0B 01 00 
   163)      7443.2  Rx         072A  1  05 
   164)      7446.4  Rx         04AA  8  36 2C 0D 1D 05 14 00 00 
   165)      7447.3  Rx         062A  8  22 03 51 01 31 31 32 38 
   166)      7451.3  Rx         05AA  8  60 03 51 01 31 31 32 38 
   167)      7501.5  Rx         062A  8  22 03 51 02 35 38 31 20 
   168)      7502.5  Rx         05AA  8  60 03 51 02 35 38 31 20 
   169)      7515.6  Rx         062A  8  22 05 51 00 50 44 4F 44 
   170)      7516.6  Rx         05AA  8  60 05 51 00 50 44 4F 44 
   171)      7529.6  Rx         062A  8  22 06 51 00 60 64 43 45 
   172)      7530.6  Rx         05AA  8  60 06 51 00 60 64 43 45 
   173)      7536.5  Rx         01AA  8  97 0A 00 00 61 0B 01 00 
   174)      7543.7  Rx         062A  8  22 07 51 00 2E 09 43 46 
   175)      7544.7  Rx         05AA  8  60 07 51 00 2E 09 43 46 
   176)      7557.7  Rx         062A  8  22 08 51 00 88 13 53 4F 
   177)      7558.7  Rx         05AA  8  60 08 51 00 88 13 53 4F 
   178)      7571.6  Rx         062A  8  22 0A 51 00 32 5F 42 43 
   179)      7572.6  Rx         05AA  8  60 0A 51 00 32 5F 42 43 
   180)      7575.0  Rx         062A  8  22 13 51 00 52 6E 67 00 
   181)      7576.5  Rx         05AA  8  60 13 51 00 52 6E 67 00 
   182)      7578.9  Rx         062A  8  22 12 51 00 01 32 01 46 
   183)      7581.0  Rx         072A  1  05 
   184)      7586.5  Rx         05AA  8  60 12 51 00 01 32 01 46 
   185)      7588.9  Rx         062A  8  22 16 51 00 05 07 00 63 
   186)      7591.5  Rx         05AA  8  60 16 51 00 05 07 00 63 
   187)      7636.6  Rx         01AA  8  97 0A 00 00 61 0B 01 00 
   188)      7676.0  Rx         072A  1  05 
   189)      7736.6  Rx         01AA  8  97 0A 00 00 61 0B 01 00 
   190)      7776.1  Rx         072A  1  05 
   191)      7836.7  Rx         01AA  8  97 0A FF FF 61 0B 01 00 
   192)      7876.1  Rx         072A  1  05 
   193)      7936.7  Rx         01AA  8  97 0A FF FF 61 0B 01 00 
   194)      7976.1  Rx         072A  1  05 
   195)      8036.7  Rx         01AA  8  97 0A FF FF 61 0B 01 00 
   196)      8076.1  Rx         072A  1  05 
   197)      8087.1  Rx         062A  8  22 16 51 00 05 07 00 63 
   198)      8088.1  Rx         05AA  8  60 16 51 00 05 07 00 63 
   199)      8136.8  Rx         01AA  8  97 0A FF FF 61 0B 01 00 
   200)      8176.2  Rx         072A  1  05 
   201)      8236.8  Rx         01AA  8  97 0A FF FF 61 0B 01 00 
   202)      8276.2  Rx         072A  1  05 
   203)      8336.8  Rx         01AA  8  97 0A FF FF 61 0B 01 00 
   204)      8376.2  Rx         072A  1  05 
   205)      8436.8  Rx         01AA  8  97 0A FF FF 61 0B 01 00 
   206)      8444.0  Rx         04AA  8  36 2C 0D 1D 05 14 00 00 
   207)      8476.2  Rx         072A  1  05 
   208)      8536.8  Rx         01AA  8  97 0A FF FF 61 0B 01 00 
   209)      8576.4  Rx         072A  1  05 
   210)      8587.8  Rx         062A  8  22 16 51 00 05 07 00 63 
   211)      8588.8  Rx         05AA  8  60 16 51 00 05 07 00 63 
   212)      8637.0  Rx         01AA  8  97 0A FF FF 61 0B 01 00 
   213)      8676.4  Rx         072A  1  05 
   214)      8737.0  Rx         01AA  8  97 0A FF FF 61 0B 01 00 
   215)      8776.4  Rx         072A  1  05 
   216)      8837.0  Rx         01AA  8  97 0A FF FF 61 0B 01 00 
   217)      8876.4  Rx         072A  1  05 
   218)      8937.0  Rx         01AA  8  97 0A FF FF 61 0B 01 00 
   219)      8976.4  Rx         072A  1  05 
   220)      9037.1  Rx         01AA  8  97 0A 00 00 61 0B 01 00 
   221)      9076.5  Rx         072A  1  05 
   222)      9089.2  Rx         062A  8  22 09 51 00 E2 BB 8D 35 
   223)      9090.2  Rx         05AA  8  60 09 51 00 E2 BB 8D 35 
   224)      9092.6  Rx         062A  8  22 09 51 01 D7 34 EF 3A 
   225)      9093.6  Rx         05AA  8  60 09 51 01 D7 34 EF 3A 
   226)      9096.1  Rx         062A  8  22 09 51 02 F4 C0 47 BB 
   227)      9097.1  Rx         05AA  8  60 09 51 02 F4 C0 47 BB 
   228)      9137.1  Rx         01AA  8  97 0A 00 00 61 0B 01 00 
   229)      9142.8  Rx         062A  8  22 09 51 03 B4 C8 F6 3F 
   230)      9144.1  Rx         05AA  8  60 09 51 03 B4 C8 F6 3F 
   231)      9146.6  Rx         062A  8  22 09 51 04 72 DD 35 37 
   232)      9147.6  Rx         05AA  8  60 09 51 04 72 DD 35 37 
   233)      9150.0  Rx         062A  8  22 09 51 05 1F 6A 5B 3B 
   234)      9151.9  Rx         05AA  8  60 09 51 05 1F 6A 5B 3B 
   235)      9154.3  Rx         062A  8  22 09 51 06 8C 67 50 BB 
   236)      9156.9  Rx         05AA  8  60 09 51 06 8C 67 50 BB 
   237)      9159.4  Rx         062A  8  22 09 51 07 04 56 EE 3F 
   238)      9162.0  Rx         05AA  8  60 09 51 07 04 56 EE 3F 
   239)      9164.4  Rx         062A  8  22 09 51 08 4E 81 AB 38 
   240)      9166.9  Rx         05AA  8  60 09 51 08 4E 81 AB 38 
   241)      9169.3  Rx         062A  8  22 09 51 09 D8 47 A7 3B 
   242)      9171.9  Rx         05AA  8  60 09 51 09 D8 47 A7 3B 
   243)      9174.3  Rx         062A  8  22 09 51 0A 26 C7 9D BB 
   244)      9176.5  Rx         072A  1  05 
   245)      9181.9  Rx         05AA  8  60 09 51 0A 26 C7 9D BB 
   246)      9184.4  Rx         062A  8  22 09 51 0B E9 26 E1 3F 
   247)      9186.9  Rx         05AA  8  60 09 51 0B E9 26 E1 3F 
   248)      9189.3  Rx         062A  8  22 F1 51 00 02 62 61 75 
   249)      9192.0  Rx         05AA  8  60 F1 51 00 02 62 61 75 
   250)      9237.1  Rx         01AA  8  97 0A 01 00 61 0B 01 00 
   251)      9276.5  Rx         072A  1  05 
   252)      9295.0  Rx         062A  8  22 FF 51 00 53 54 4F 52 
   253)      9319.8  Error      0004  4  01 0E 01 00
   254)      9319.9  Error      0002  4  01 17 02 00
   255)      9320.0  Error      0002  4  01 17 03 00
   256)      9320.1  Error      0008  4  01 17 03 00
   257)      9320.3  Error      0008  4  01 17 03 00
   258)      9320.4  Error      0008  4  01 17 03 00
   259)      9320.5  Error      0002  4  01 17 04 00
   260)      9320.6  Error      0002  4  01 17 05 00
   261)      9320.7  Error      0002  4  01 17 06 00
   262)      9320.8  Error      0002  4  01 17 07 00
   263)      9320.9  Error      0002  4  01 17 08 00
   264)      9321.0  Error      0008  4  01 17 08 00
   265)      9321.1  Error      0008  4  01 17 08 00
   266)      9321.2  Error      0008  4  01 17 08 00
   267)      9321.3  Error      0002  4  01 17 09 00
   268)      9321.4  Error      0002  4  01 17 0A 00
   269)      9321.5  Error      0002  4  01 17 0B 00
   270)      9321.6  Error      0002  4  01 17 0C 00
   271)      9321.7  Error      0002  4  01 17 0D 00
   272)      9321.8  Error      0008  4  01 17 0D 00
   273)      9321.9  Error      0008  4  01 17 0D 00
   274)      9322.0  Error      0008  4  01 17 0D 00
   275)      9322.1  Error      0002  4  01 17 0E 00
   276)      9322.2  Error      0002  4  01 17 0F 00
   277)      9322.3  Error      0002  4  01 17 10 00
   278)      9322.4  Error      0002  4  01 17 11 00
   279)      9322.5  Error      0002  4  01 17 12 00
   280)      9322.6  Error      0008  4  01 17 12 00
   281)      9322.7  Error      0008  4  01 17 12 00
   282)      9322.9  Error      0008  4  01 17 12 00
   283)      9323.0  Error      0002  4  01 17 13 00
   284)      9323.0  Error      0002  4  01 17 14 00
   285)      9323.1  Error      0002  4  01 17 15 00
   286)      9323.2  Error      0002  4  01 17 16 00
   287)      9323.3  Error      0002  4  01 17 17 00
   288)      9323.5  Error      0008  4  01 17 17 00
   289)      9323.6  Error      0008  4  01 17 17 00
   290)      9323.7  Error      0008  4  01 17 17 00
   291)      9323.8  Error      0002  4  01 17 18 00
   292)      9323.9  Error      0002  4  01 17 19 00
   293)      9324.0  Error      0002  4  01 17 1A 00
   294)      9324.1  Error      0002  4  01 17 1B 00
   295)      9324.2  Error      0002  4  01 17 1C 00
   296)      9324.3  Error      0008  4  01 17 1C 00
   297)      9324.4  Error      0008  4  01 17 1C 00
   298)      9324.5  Error      0008  4  01 17 1C 00
   299)      9324.6  Error      0002  4  01 17 1D 00
   300)      9324.7  Error      0002  4  01 17 1E 00
   301)      9324.8  Error      0002  4  01 17 1F 00
   302)      9324.9  Error      0002  4  01 17 20 00
   303)      9325.0  Error      0002  4  01 17 21 00
   304)      9325.1  Error      0008  4  01 17 21 00
   305)      9325.2  Error      0008  4  01 17 21 00
   306)      9325.3  Error      0008  4  01 17 21 00
   307)      9325.4  Error      0002  4  01 17 22 00
   308)      9325.5  Error      0002  4  01 17 23 00
   309)      9325.6  Error      0002  4  01 17 24 00
   310)      9325.7  Error      0002  4  01 17 25 00
   311)      9325.8  Error      0002  4  01 17 26 00
   312)      9325.9  Error      0008  4  01 17 26 00
   313)      9326.1  Error      0008  4  01 17 26 00
   314)      9326.2  Error      0008  4  01 17 26 00
   315)      9326.3  Error      0002  4  01 17 27 00
   316)      9326.4  Error      0002  4  01 17 28 00
   317)      9326.5  Error      0002  4  01 17 29 00
   318)      9326.6  Error      0002  4  01 17 2A 00
   319)      9326.7  Error      0002  4  01 17 2B 00
   320)      9326.8  Error      0008  4  01 17 2B 00
   321)      9326.9  Error      0008  4  01 17 2B 00
   322)      9327.0  Error      0008  4  01 17 2B 00
   323)      9327.1  Error      0002  4  01 17 2C 00
   324)      9327.2  Error      0002  4  01 17 2D 00
   325)      9327.3  Error      0002  4  01 17 2E 00
   326)      9327.4  Error      0002  4  01 17 2F 00
   327)      9327.5  Error      0002  4  01 17 30 00
   328)      9327.6  Error      0008  4  01 17 30 00
   329)      9327.7  Error      0008  4  01 17 30 00
   330)      9327.8  Error      0008  4  01 17 30 00
   331)      9327.9  Error      0002  4  01 17 31 00
   332)      9328.0  Error      0002  4  01 17 32 00
   333)      9328.1  Error      0002  4  01 17 33 00
   334)      9328.2  Error      0002  4  01 17 34 00
   335)      9328.3  Error      0008  4  01 17 34 00
   336)      9328.4  Error      0008  4  01 17 34 00
   337)      9328.5  Error      0002  4  01 17 35 00
   338)      9328.6  Error      0002  4  01 17 36 00
   339)      9328.7  Error      0002  4  01 17 37 00
   340)      9328.8  Error      0002  4  01 17 38 00
   341)      9328.9  Error      0002  4  01 17 39 00
   342)      9329.0  Error      0008  4  01 17 39 00
   343)      9329.1  Error      0008  4  01 17 39 00
   344)      9329.2  Error      0002  4  01 17 3A 00
   345)      9329.3  Error      0002  4  01 17 3B 00
   346)      9329.4  Error      0002  4  01 17 3C 00
   347)      9329.5  Error      0002  4  01 17 3D 00
   348)      9329.6  Error      0002  4  01 17 3E 00
   349)      9329.7  Error      0008  4  01 17 3E 00
   350)      9329.9  Error      0008  4  01 17 3E 00
   351)      9329.9  Error      0002  4  01 17 3F 00
   352)      9330.0  Error      0002  4  01 17 40 00
   353)      9330.1  Error      0002  4  01 17 41 00
   354)      9330.2  Error      0002  4  01 17 42 00
   355)      9330.3  Error      0002  4  01 17 43 00
   356)      9330.4  Error      0008  4  01 17 43 00
   357)      9330.6  Error      0008  4  01 17 43 00
   358)      9330.7  Error      0002  4  01 17 44 00
   359)      9330.8  Error      0002  4  01 17 45 00
   360)      9330.9  Error      0002  4  01 17 46 00
   361)      9330.9  Error      0002  4  01 17 47 00
   362)      9331.0  Error      0002  4  01 17 48 00
   363)      9331.2  Error      0008  4  01 17 48 00
   364)      9331.3  Error      0008  4  01 17 48 00
   365)      9331.4  Error      0008  4  01 17 48 00
   366)      9331.5  Error      0002  4  01 17 49 00
   367)      9331.6  Error      0002  4  01 17 4A 00
   368)      9331.7  Error      0002  4  01 17 4B 00
   369)      9331.8  Error      0002  4  01 17 4C 00
   370)      9331.9  Error      0008  4  01 17 4C 00
   371)      9332.0  Error      0008  4  01 17 4C 00
   372)      9332.1  Error      0008  4  01 17 4C 00
   373)      9332.2  Error      0002  4  01 17 4D 00
   374)      9332.3  Error      0002  4  01 17 4E 00
   375)      9332.4  Error      0002  4  01 17 4F 00
   376)      9332.5  Error      0002  4  01 17 50 00
   377)      9332.6  Error      0008  4  01 17 50 00
   378)      9332.7  Error      0008  4  01 17 50 00
   379)      9332.8  Error      0008  4  01 17 50 00
   380)      9332.9  Error      0002  4  01 17 51 00
   381)      9333.0  Error      0002  4  01 17 52 00
   382)      9333.1  Error      0002  4  01 17 53 00
   383)      9333.2  Error      0002  4  01 17 54 00
   384)      9333.3  Error      0008  4  01 17 54 00
   385)      9333.4  Error      0002  4  01 17 55 00
   386)      9333.5  Error      0008  4  01 17 55 00
   387)      9333.6  Error      0002  4  01 17 56 00
   388)      9333.7  Error      0002  4  01 17 57 00
   389)      9333.8  Error      0002  4  01 17 58 00
   390)      9333.9  Error      0002  4  01 17 59 00
   391)      9334.0  Error      0008  4  01 17 59 00
   392)      9334.1  Error      0008  4  01 17 59 00
   393)      9334.3  Error      0008  4  01 17 59 00
   394)      9334.4  Error      0002  4  01 17 5A 00
   395)      9334.5  Error      0002  4  01 17 5B 00
   396)      9334.6  Error      0002  4  01 17 5C 00
   397)      9334.6  Error      0002  4  01 17 5D 00
   398)      9334.8  Error      0008  4  01 17 5D 00
   399)      9334.9  Error      0008  4  01 17 5D 00
   400)      9335.0  Error      0008  4  01 17 5D 00
   401)      9335.1  Error      0002  4  01 17 5E 00
   402)      9335.2  Error      0002  4  01 17 5F 00
   403)      9335.3  Warng  FFFFFFFF  4  00 00 00 08  BUSHEAVY 
   404)      9335.3  Error      0002  4  01 17 60 00
   405)      9335.4  Error      0002  4  01 17 61 00
   406)      9335.5  Error      0008  4  01 17 61 00
   407)      9335.6  Error      0008  4  01 17 61 00
   408)      9335.7  Error      0008  4  01 17 61 00
   409)      9335.8  Error      0002  4  01 17 62 00
   410)      9335.9  Error      0002  4  01 17 63 00
   411)      9336.0  Error      0002  4  01 17 64 00
   412)      9336.1  Error      0002  4  01 17 65 00
   413)      9336.2  Error      0008  4  01 17 65 00
   414)      9336.3  Error      0008  4  01 17 65 00
   415)      9336.4  Error      0008  4  01 17 65 00
   416)      9336.5  Error      0002  4  01 17 66 00
   417)      9336.6  Error      0002  4  01 17 67 00
   418)      9336.7  Error      0002  4  01 17 68 00
   419)      9336.8  Error      0002  4  01 17 69 00
   420)      9336.9  Error      0008  4  01 17 69 00
   421)      9337.0  Error      0008  4  01 17 69 00
   422)      9337.2  Error      0008  4  01 17 69 00
   423)      9337.3  Error      0002  4  01 17 6A 00
   424)      9337.4  Error      0002  4  01 17 6B 00
   425)      9337.4  Error      0002  4  01 17 6C 00
   426)      9337.5  Error      0002  4  01 17 6D 00
   427)      9337.7  Error      0008  4  01 17 6D 00
   428)      9337.8  Error      0008  4  01 17 6D 00
   429)      9337.9  Error      0008  4  01 17 6D 00
   430)      9338.0  Error      0002  4  01 17 6E 00
   431)      9338.1  Error      0002  4  01 17 6F 00
   432)      9338.2  Error      0002  4  01 17 70 00
   433)      9338.3  Error      0002  4  01 17 71 00
   434)      9338.4  Error      0008  4  01 17 71 00
   435)      9338.5  Error      0008  4  01 17 71 00
   436)      9338.6  Error      0008  4  01 17 71 00
   437)      9338.7  Error      0002  4  01 17 72 00
   438)      9338.8  Error      0002  4  01 17 73 00
   439)      9338.9  Error      0002  4  01 17 74 00
   440)      9339.0  Error      0002  4  01 17 75 00
   441)      9339.1  Error      0008  4  01 17 75 00
   442)      9339.2  Error      0008  4  01 17 75 00
   443)      9339.3  Error      0008  4  01 17 75 00
   444)      9339.4  Error      0002  4  01 17 76 00
   445)      9339.5  Error      0002  4  01 17 77 00
   446)      9339.6  Error      0002  4  01 17 78 00
   447)      9339.7  Error      0002  4  01 17 79 00
   448)      9339.8  Error      0008  4  01 17 79 00
   449)      9339.9  Error      0008  4  01 17 79 00
   450)      9340.1  Error      0008  4  01 17 79 00
   451)      9340.1  Error      0002  4  01 17 7A 00
   452)      9340.2  Error      0002  4  01 17 7B 00
   453)      9340.3  Error      0002  4  01 17 7C 00
   454)      9340.4  Error      0002  4  01 17 7D 00
   455)      9340.6  Error      0008  4  01 17 7D 00
   456)      9340.7  Error      0008  4  01 17 7D 00
   457)      9340.8  Error      0008  4  01 17 7D 00
   458)      9340.9  Error      0002  4  01 17 7E 00
   459)      9341.0  Error      0002  4  01 17 7F 00
   460)      9341.1  Error      0002  4  01 17 80 00
   461)      9341.2  Error      0002  4  01 17 80 00
   462)      9341.5  Error      0002  4  01 17 80 00
   463)      9342.0  Error      0004  4  01 0E 80 00
   464)      9342.5  Error      0004  4  01 0E 80 00
   465)      9343.0  Error      0004  4  01 0E 80 00
   466)      9343.5  Error      0004  4  01 0E 80 00
   467)      9344.0  Error      0004  4  01 0E 80 00
   468)      9344.5  Error      0004  4  01 0E 80 00
   469)      9345.0  Error      0004  4  01 0E 80 00
   470)      9345.5  Error      0004  4  01 0E 80 00
   471)      9346.1  Error      0004  4  01 0E 80 00
   472)      9346.6  Error      0004  4  01 0E 80 00
   473)      9347.1  Error      0004  4  01 0E 80 00
   474)      9347.6  Error      0004  4  01 0E 80 00
   475)      9348.1  Error      0004  4  01 0E 80 00
   476)      9348.6  Error      0004  4  01 0E 80 00
   477)      9349.1  Error      0004  4  01 0E 80 00
   478)      9349.6  Error      0004  4  01 0E 80 00
   479)      9350.2  Error      0004  4  01 0E 80 00
   480)      9350.7  Error      0004  4  01 0E 80 00
   481)      9351.2  Error      0004  4  01 0E 80 00
   482)      9351.7  Error      0004  4  01 0E 80 00
   483)      9352.2  Error      0004  4  01 0E 80 00
   484)      9352.7  Error      0004  4  01 0E 80 00
   485)      9353.2  Error      0004  4  01 0E 80 00
   486)      9353.7  Error      0004  4  01 0E 80 00
   487)      9354.3  Error      0004  4  01 0E 80 00
   488)      9354.8  Error      0004  4  01 0E 80 00
   489)      9355.3  Error      0004  4  01 0E 80 00
   490)      9355.8  Error      0004  4  01 0E 80 00
   491)      9356.3  Error      0004  4  01 0E 80 00
   492)      9356.8  Error      0004  4  01 0E 80 00
   493)      9357.3  Error      0004  4  01 0E 80 00
   494)      9357.8  Error      0004  4  01 0E 80 00
   495)      9358.3  Error      0004  4  01 0E 80 00
   496)      9358.9  Error      0004  4  01 0E 80 00
   497)      9359.4  Error      0004  4  01 0E 80 00
   498)      9359.9  Error      0004  4  01 0E 80 00
   499)      9360.4  Error      0004  4  01 0E 80 00
   500)      9360.9  Error      0004  4  01 0E 80 00
   501)      9361.4  Error      0004  4  01 0E 80 00
   502)      9361.9  Error      0004  4  01 0E 80 00
   503)      9362.4  Error      0004  4  01 0E 80 00
   504)      9363.0  Error      0004  4  01 0E 80 00
   505)      9363.5  Error      0004  4  01 0E 80 00
   506)      9364.0  Error      0004  4  01 0E 80 00
   507)      9364.5  Error      0004  4  01 0E 80 00
   508)      9365.0  Error      0004  4  01 0E 80 00
   509)      9365.5  Error      0004  4  01 0E 80 00
   510)      9366.0  Error      0004  4  01 0E 80 00
   511)      9366.5  Error      0004  4  01 0E 80 00
   512)      9367.1  Error      0004  4  01 0E 80 00
   513)      9367.6  Error      0004  4  01 0E 80 00
   514)      9368.1  Error      0004  4  01 0E 80 00
   515)      9368.6  Error      0004  4  01 0E 80 00
   516)      9369.1  Error      0004  4  01 0E 80 00
   517)      9369.6  Error      0004  4  01 0E 80 00
   518)      9370.1  Error      0004  4  01 0E 80 00
   519)      9370.6  Error      0004  4  01 0E 80 00
   520)      9371.1  Error      0004  4  01 0E 80 00
   521)      9371.7  Error      0004  4  01 0E 80 00
   522)      9372.2  Error      0004  4  01 0E 80 00
   523)      9372.7  Error      0004  4  01 0E 80 00
   524)      9373.2  Error      0004  4  01 0E 80 00
   525)      9373.7  Error      0004  4  01 0E 80 00
   526)      9374.2  Error      0004  4  01 0E 80 00
   527)      9374.7  Error      0004  4  01 0E 80 00
   528)      9375.2  Error      0004  4  01 0E 80 00
   529)      9375.8  Error      0004  4  01 0E 80 00
   530)      9376.3  Error      0004  4  01 0E 80 00
   531)      9376.8  Error      0004  4  01 0E 80 00
   532)      9377.3  Error      0004  4  01 0E 80 00
   533)      9377.8  Error      0004  4  01 0E 80 00
   534)      9378.3  Error      0004  4  01 0E 80 00
   535)      9378.8  Error      0004  4  01 0E 80 00
   536)      9379.3  Error      0004  4  01 0E 80 00
   537)      9379.9  Error      0004  4  01 0E 80 00
   538)      9380.4  Error      0004  4  01 0E 80 00
   539)      9380.9  Error      0004  4  01 0E 80 00
   540)      9381.4  Error      0004  4  01 0E 80 00
   541)      9381.9  Error      0004  4  01 0E 80 00
   542)      9382.4  Error      0004  4  01 0E 80 00
   543)      9382.9  Error      0004  4  01 0E 80 00
   544)      9383.4  Error      0004  4  01 0E 80 00
   545)      9383.9  Error      0004  4  01 0E 80 00
   546)      9384.5  Error      0004  4  01 0E 80 00
   547)      9385.0  Error      0004  4  01 0E 80 00
   548)      9385.5  Error      0004  4  01 0E 80 00
   549)      9386.0  Error      0004  4  01 0E 80 00
   550)      9386.5  Error      0004  4  01 0E 80 00
   551)      9387.0  Error      0004  4  01 0E 80 00
   552)      9387.5  Error      0004  4  01 0E 80 00
   553)      9388.0  Error      0004  4  01 0E 80 00
   554)      9388.6  Error      0004  4  01 0E 80 00
   555)      9389.1  Error      0004  4  01 0E 80 00
   556)      9389.6  Error      0004  4  01 0E 80 00
   557)      9390.1  Error      0004  4  01 0E 80 00
   558)      9390.6  Error      0004  4  01 0E 80 00
   559)      9391.1  Error      0004  4  01 0E 80 00
   560)      9391.6  Error      0004  4  01 0E 80 00
   561)      9392.1  Error      0004  4  01 0E 80 00
   562)      9392.7  Error      0004  4  01 0E 80 00
   563)      9393.2  Error      0004  4  01 0E 80 00
   564)      9393.7  Error      0004  4  01 0E 80 00
   565)      9394.2  Error      0004  4  01 0E 80 00
   566)      9394.7  Error      0004  4  01 0E 80 00
   567)      9395.2  Error      0004  4  01 0E 80 00
   568)      9395.7  Error      0004  4  01 0E 80 00
   569)      9396.2  Error      0004  4  01 0E 80 00
   570)      9396.7  Error      0004  4  01 0E 80 00
   571)      9397.3  Error      0004  4  01 0E 80 00
   572)      9397.8  Error      0004  4  01 0E 80 00
   573)      9398.3  Error      0004  4  01 0E 80 00
   574)      9398.8  Error      0004  4  01 0E 80 00
   575)      9399.3  Error      0004  4  01 0E 80 00
   576)      9399.8  Error      0004  4  01 0E 80 00
   577)      9400.3  Error      0004  4  01 0E 80 00
   578)      9400.8  Error      0004  4  01 0E 80 00
   579)      9401.4  Error      0004  4  01 0E 80 00
   580)      9401.9  Error      0004  4  01 0E 80 00
   581)      9402.4  Error      0004  4  01 0E 80 00
   582)      9402.9  Error      0004  4  01 0E 80 00
   583)      9403.4  Error      0004  4  01 0E 80 00
   584)      9403.9  Error      0004  4  01 0E 80 00
   585)      9404.4  Error      0004  4  01 0E 80 00
   586)      9404.9  Error      0004  4  01 0E 80 00
   587)      9405.5  Error      0004  4  01 0E 80 00
   588)      9406.0  Error      0004  4  01 0E 80 00
   589)      9406.5  Error      0004  4  01 0E 80 00
   590)      9407.0  Error      0004  4  01 0E 80 00
   591)      9407.5  Error      0004  4  01 0E 80 00
   592)      9408.0  Error      0004  4  01 0E 80 00
   593)      9408.5  Error      0004  4  01 0E 80 00
   594)      9409.0  Error      0004  4  01 0E 80 00
   595)      9409.5  Error      0004  4  01 0E 80 00
   596)      9410.1  Error      0004  4  01 0E 80 00
   597)      9410.6  Error      0004  4  01 0E 80 00
   598)      9411.1  Error      0004  4  01 0E 80 00
   599)      9411.6  Error      0004  4  01 0E 80 00
   600)      9412.1  Error      0004  4  01 0E 80 00
   601)      9412.6  Error      0004  4  01 0E 80 00
   602)      9413.1  Error      0004  4  01 0E 80 00
   603)      9413.6  Error      0004  4  01 0E 80 00
   604)      9414.2  Error      0004  4  01 0E 80 00
   605)      9414.7  Error      0004  4  01 0E 80 00
   606)      9415.2  Error      0004  4  01 0E 80 00
   607)      9415.7  Error      0004  4  01 0E 80 00
   608)      9416.2  Error      0004  4  01 0E 80 00
   609)      9416.7  Error      0004  4  01 0E 80 00
   610)      9417.2  Error      0004  4  01 0E 80 00
   611)      9417.7  Error      0004  4  01 0E 80 00
   612)      9418.3  Error      0004  4  01 0E 80 00
   613)      9418.8  Error      0004  4  01 0E 80 00
   614)      9419.3  Error      0004  4  01 0E 80 00
   615)      9419.8  Error      0004  4  01 0E 80 00
   616)      9420.3  Error      0004  4  01 0E 80 00
   617)      9420.8  Error      0004  4  01 0E 80 00
   618)      9421.3  Error      0004  4  01 0E 80 00
   619)      9421.8  Error      0004  4  01 0E 80 00
   620)      9422.3  Error      0004  4  01 0E 80 00
   621)      9422.9  Error      0004  4  01 0E 80 00
   622)      9423.4  Error      0004  4  01 0E 80 00
   623)      9423.9  Error      0004  4  01 0E 80 00
   624)      9424.4  Error      0004  4  01 0E 80 00
   625)      9794.5  Error      0004  4  01 0E 7F 00
   626)      9794.5  Rx         062A  8  22 FF 51 00 53 54 4F 52 
   627)     10294.1  Rx         062A  8  22 FF 51 00 53 54 4F 52 
   628)     10294.1  Error      0000  4  00 00 7E 00
   629)     10469.9  Error      0004  4  01 02 7F 00
   630)     10469.9  Error      0008  4  01 13 87 00
   631)     10470.0  Error      0008  4  01 13 87 00
   632)     10470.0  Error      0008  4  01 13 87 00
   633)     11474.8  Error      0004  4  01 02 87 00
   634)     11475.0  Error      0008  4  01 12 87 00
   635)     11475.1  Error      0002  4  01 17 87 00
   636)     11475.1  Error      0008  4  01 13 87 00
   637)     11475.2  Error      0002  4  01 17 87 00
   638)     11475.4  Error      0008  4  01 12 87 00
   639)     11475.5  Error      0002  4  01 17 87 00
   640)     11475.8  Error      0004  4  01 02 87 00
   641)     11476.0  Error      0008  4  01 12 87 00
   642)     11476.1  Error      0002  4  01 17 87 00
   643)     11476.2  Error      0008  4  01 13 87 00
   644)     11476.2  Error      0002  4  01 17 87 00
   645)     11476.4  Error      0008  4  01 12 87 00
   646)     11476.5  Error      0002  4  01 17 87 00
   647)     11476.8  Error      0004  4  01 02 87 00
   648)     11477.1  Error      0008  4  01 12 87 00
   649)     11477.2  Error      0002  4  01 17 87 00
   650)     11477.2  Error      0008  4  01 13 87 00
   651)     11477.2  Error      0002  4  01 17 87 00
   652)     11477.4  Error      0008  4  01 12 87 00
   653)     11477.5  Error      0002  4  01 17 87 00
   654)     11477.9  Error      0004  4  01 02 87 00
   655)     11478.1  Error      0008  4  01 12 87 00
   656)     11478.2  Error      0002  4  01 17 87 00
   657)     11478.3  Error      0008  4  01 13 87 00
   658)     11478.3  Error      0002  4  01 17 87 00
   659)     11478.5  Error      0008  4  01 12 87 00
   660)     11478.6  Error      0002  4  01 17 87 00
   661)     11478.9  Error      0004  4  01 02 87 00
   662)     11479.2  Error      0008  4  01 12 87 00
   663)     11479.3  Error      0002  4  01 17 87 00
   664)     11479.3  Error      0008  4  01 13 87 00
   665)     11479.3  Error      0002  4  01 17 87 00
   666)     11479.5  Error      0008  4  01 12 87 00
   667)     11479.6  Error      0002  4  01 17 87 00
   668)     11480.0  Error      0004  4  01 02 87 00
   669)     11480.2  Error      0008  4  01 12 87 00
   670)     11480.3  Error      0002  4  01 17 87 00
   671)     11480.4  Error      0008  4  01 13 87 00
   672)     11480.4  Error      0002  4  01 17 87 00
   673)     11480.6  Error      0008  4  01 12 87 00
   674)     11480.7  Error      0002  4  01 17 87 00
   675)     11481.0  Error      0004  4  01 02 87 00
   676)     11481.2  Error      0008  4  01 12 87 00
   677)     11481.3  Error      0002  4  01 17 87 00
   678)     11481.4  Error      0008  4  01 13 87 00
   679)     11481.4  Error      0002  4  01 17 87 00
   680)     11481.6  Error      0008  4  01 12 87 00
   681)     11481.7  Error      0008  4  01 12 87 00
   682)     11481.8  Error      0002  4  01 17 87 00
   683)     11481.9  Error      0008  4  01 13 87 00
   684)     11482.0  Error      0008  4  01 12 87 00
   685)     11482.1  Error      0002  4  01 17 87 00
   686)     11482.1  Error      0008  4  01 13 87 00
   687)     11482.2  Error      0008  4  01 12 87 00
   688)     11482.3  Error      0002  4  01 17 87 00
   689)     11482.4  Error      0008  4  01 13 87 00
   690)     11482.4  Error      0008  4  01 12 87 00
   691)     11482.5  Error      0002  4  01 17 87 00
   692)     11482.6  Error      0008  4  01 13 87 00
   693)     11482.7  Error      0008  4  01 12 87 00
   694)     11482.8  Error      0002  4  01 17 87 00
   695)     11482.8  Error      0008  4  01 13 87 00
   696)     11482.9  Error      0008  4  01 12 87 00
   697)     11483.0  Error      0002  4  01 17 87 00
   698)     11483.1  Error      0008  4  01 13 87 00
   699)     11483.1  Error      0008  4  01 12 87 00
   700)     11483.2  Error      0002  4  01 17 87 00
   701)     11483.3  Error      0008  4  01 13 87 00
   702)     11483.4  Error      0008  4  01 12 87 00
   703)     11483.5  Error      0002  4  01 17 87 00
   704)     11483.5  Error      0008  4  01 13 87 00
   705)     11483.6  Error      0008  4  01 12 87 00
   706)     11483.7  Error      0002  4  01 17 87 00
   707)     11483.8  Error      0008  4  01 13 87 00
   708)     11483.8  Error      0008  4  01 12 87 00
   709)     11483.9  Error      0002  4  01 17 87 00
   710)     11484.0  Error      0008  4  01 13 87 00
   711)     11484.1  Error      0008  4  01 12 87 00
   712)     11484.2  Error      0002  4  01 17 87 00
   713)     11484.2  Error      0008  4  01 13 87 00
   714)     11484.3  Error      0008  4  01 12 87 00
   715)     11484.4  Error      0002  4  01 17 87 00
   716)     11484.5  Error      0008  4  01 13 87 00
   717)     11484.5  Error      0008  4  01 12 87 00
   718)     11484.6  Error      0002  4  01 17 87 00
   719)     11484.7  Error      0008  4  01 13 87 00
   720)     11484.8  Error      0008  4  01 12 87 00
   721)     11484.9  Error      0002  4  01 17 87 00
   722)     11484.9  Error      0008  4  01 13 87 00
   723)     11485.0  Error      0008  4  01 12 87 00
   724)     11485.1  Error      0002  4  01 17 87 00
   725)     11485.2  Error      0008  4  01 13 87 00
   726)     11485.2  Error      0008  4  01 12 87 00
   727)     11485.3  Error      0002  4  01 17 87 00
   728)     11485.4  Error      0008  4  01 13 87 00
   729)     11485.5  Error      0008  4  01 12 87 00
   730)     11485.6  Error      0002  4  01 17 87 00
   731)     11485.6  Error      0008  4  01 13 87 00
   732)     11485.7  Error      0008  4  01 12 87 00
   733)     11485.8  Error      0002  4  01 17 87 00
   734)     11485.9  Error      0008  4  01 13 87 00
   735)     11485.9  Error      0008  4  01 12 87 00
   736)     11486.0  Error      0002  4  01 17 87 00
   737)     11486.1  Error      0008  4  01 13 87 00
   738)     11486.2  Error      0008  4  01 12 87 00
   739)     11486.2  Error      0002  4  01 17 87 00
   740)     11486.3  Error      0008  4  01 13 87 00
   741)     11486.4  Error      0008  4  01 12 87 00
   742)     11486.5  Error      0002  4  01 17 87 00
   743)     11486.5  Error      0008  4  01 13 87 00
   744)     11486.6  Error      0008  4  01 12 87 00
   745)     11486.7  Error      0002  4  01 17 87 00
   746)     11486.8  Error      0008  4  01 13 87 00
   747)     11486.8  Error      0008  4  01 12 87 00
   748)     11486.9  Error      0002  4  01 17 87 00
   749)     11487.0  Error      0008  4  01 13 87 00
   750)     11487.1  Error      0008  4  01 12 87 00
   751)     11487.2  Error      0002  4  01 17 87 00
   752)     11487.2  Error      0008  4  01 13 87 00
   753)     11487.3  Error      0008  4  01 12 87 00
   754)     11487.4  Error      0002  4  01 17 87 00
   755)     11487.5  Error      0008  4  01 13 87 00
   756)     11487.5  Error      0008  4  01 12 87 00
   757)     11487.6  Error      0002  4  01 17 87 00
   758)     11487.7  Error      0008  4  01 13 87 00
   759)     11487.8  Error      0008  4  01 12 87 00
   760)     11487.9  Error      0002  4  01 17 87 00
   761)     11487.9  Error      0008  4  01 13 87 00
   762)     11488.0  Error      0008  4  01 12 87 00
   763)     11488.1  Error      0002  4  01 17 87 00
   764)     11488.2  Error      0008  4  01 13 87 00
   765)     11488.2  Error      0008  4  01 12 87 00
   766)     11488.3  Error      0002  4  01 17 87 00
   767)     11488.4  Error      0008  4  01 13 87 00
   768)     11488.5  Error      0008  4  01 12 87 00
   769)     11488.6  Error      0002  4  01 17 87 00
   770)     11488.6  Error      0008  4  01 13 87 00
   771)     11488.7  Error      0008  4  01 12 87 00
   772)     11488.8  Error      0002  4  01 17 87 00
   773)     11488.9  Error      0008  4  01 13 87 00
   774)     11488.9  Error      0008  4  01 12 87 00
   775)     11489.0  Error      0002  4  01 17 87 00
   776)     11489.1  Error      0008  4  01 13 87 00
   777)     11489.2  Error      0008  4  01 12 87 00
   778)     11489.3  Error      0002  4  01 17 87 00
   779)     11489.3  Error      0008  4  01 13 87 00
   780)     11489.4  Error      0008  4  01 12 87 00
   781)     11489.5  Error      0002  4  01 17 87 00
   782)     11489.6  Error      0008  4  01 13 87 00
   783)     11489.6  Error      0008  4  01 12 87 00
   784)     11489.7  Error      0002  4  01 17 87 00
   785)     11489.8  Error      0008  4  01 13 87 00
   786)     11489.9  Error      0008  4  01 12 87 00
   787)     11490.0  Error      0002  4  01 17 87 00
   788)     11490.0  Error      0008  4  01 13 87 00
   789)     11490.1  Error      0008  4  01 12 87 00
   790)     11490.2  Error      0002  4  01 17 87 00
   791)     11490.3  Error      0008  4  01 13 87 00
   792)     11490.3  Error      0008  4  01 12 87 00
   793)     11490.4  Error      0002  4  01 17 87 00
   794)     11490.5  Error      0008  4  01 13 87 00
   795)     11490.6  Error      0008  4  01 12 87 00
   796)     11490.7  Error      0002  4  01 17 87 00
   797)     11490.7  Error      0008  4  01 13 87 00
   798)     11490.8  Error      0008  4  01 12 87 00
   799)     11490.9  Error      0002  4  01 17 87 00
   800)     11491.0  Error      0008  4  01 13 87 00
   801)     11491.0  Error      0008  4  01 12 87 00
   802)     11491.1  Error      0002  4  01 17 87 00
   803)     11491.2  Error      0008  4  01 13 87 00
   804)     11491.3  Error      0008  4  01 12 87 00
   805)     11491.4  Error      0002  4  01 17 87 00
   806)     11491.4  Error      0008  4  01 13 87 00
   807)     11491.5  Error      0008  4  01 12 87 00
   808)     11491.6  Error      0002  4  01 17 87 00
   809)     11491.7  Error      0008  4  01 13 87 00
   810)     11491.7  Error      0008  4  01 12 87 00
   811)     11491.8  Error      0002  4  01 17 87 00
   812)     11491.9  Error      0008  4  01 13 87 00
   813)     11492.0  Error      0008  4  01 12 87 00
   814)     11492.0  Error      0002  4  01 17 87 00
   815)     11492.1  Error      0008  4  01 13 87 00
   816)     11492.2  Error      0008  4  01 12 87 00
   817)     11492.3  Error      0002  4  01 17 87 00
   818)     11492.3  Error      0008  4  01 13 87 00
   819)     11492.4  Error      0008  4  01 12 87 00
   820)     11492.5  Error      0002  4  01 17 87 00
   821)     11492.6  Error      0008  4  01 13 87 00
   822)     11492.6  Error      0008  4  01 12 87 00
   823)     11492.7  Error      0002  4  01 17 87 00
   824)     11492.8  Error      0008  4  01 13 87 00
   825)     11492.9  Error      0008  4  01 12 87 00
   826)     11493.0  Error      0002  4  01 17 87 00
   827)     11493.0  Error      0008  4  01 13 87 00
   828)     11493.1  Error      0008  4  01 12 87 00
   829)     11493.2  Error      0002  4  01 17 87 00
   830)     11493.3  Error      0008  4  01 13 87 00
   831)     11493.3  Error      0008  4  01 12 87 00
   832)     11493.4  Error      0002  4  01 17 87 00
   833)     11493.5  Error      0008  4  01 13 87 00
   834)     11493.6  Error      0008  4  01 12 87 00
   835)     11493.7  Error      0002  4  01 17 87 00
   836)     11493.7  Error      0008  4  01 13 87 00
   837)     11493.8  Error      0008  4  01 12 87 00
   838)     11493.9  Error      0002  4  01 17 87 00
   839)     11494.0  Error      0008  4  01 13 87 00
   840)     11494.0  Error      0008  4  01 12 87 00
   841)     11494.1  Error      0002  4  01 17 87 00
   842)     11494.2  Error      0008  4  01 13 87 00
   843)     11494.3  Error      0008  4  01 12 87 00
   844)     11494.4  Error      0002  4  01 17 87 00
   845)     11494.4  Error      0008  4  01 13 87 00
   846)     11494.5  Error      0008  4  01 12 87 00
   847)     11494.6  Error      0002  4  01 17 87 00
   848)     11494.7  Error      0008  4  01 13 87 00
   849)     11494.7  Error      0008  4  01 12 87 00
   850)     11494.8  Error      0002  4  01 17 87 00
   851)     11494.9  Error      0008  4  01 13 87 00
   852)     11495.0  Error      0008  4  01 12 87 00
   853)     11495.1  Error      0002  4  01 17 87 00
   854)     11495.1  Error      0008  4  01 13 87 00
   855)     11495.2  Error      0008  4  01 12 87 00
   856)     11495.3  Error      0002  4  01 17 87 00
   857)     11495.4  Error      0008  4  01 13 87 00
   858)     11495.4  Error      0008  4  01 12 87 00
   859)     11495.5  Error      0002  4  01 17 87 00
   860)     11495.6  Error      0008  4  01 13 87 00
   861)     11495.7  Error      0008  4  01 12 87 00
   862)     11495.8  Error      0002  4  01 17 87 00
   863)     11495.8  Error      0008  4  01 13 87 00
   864)     11495.9  Error      0008  4  01 12 87 00
   865)     11496.0  Error      0002  4  01 17 87 00
   866)     11496.1  Error      0008  4  01 13 87 00
   867)     11496.1  Error      0008  4  01 12 87 00
   868)     11496.2  Error      0002  4  01 17 87 00
   869)     11496.3  Error      0008  4  01 13 87 00
   870)     11496.4  Error      0008  4  01 12 87 00
   871)     11496.5  Error      0002  4  01 17 87 00
   872)     11496.5  Error      0008  4  01 13 87 00
   873)     11496.6  Error      0008  4  01 12 87 00
   874)     11496.7  Error      0002  4  01 17 87 00
   875)     11496.8  Error      0008  4  01 13 87 00
   876)     11496.8  Error      0008  4  01 12 87 00
   877)     11496.9  Error      0002  4  01 17 87 00
   878)     11497.0  Error      0008  4  01 13 87 00
   879)     11497.1  Error      0008  4  01 12 87 00
   880)     11497.2  Error      0002  4  01 17 87 00
   881)     11497.2  Error      0008  4  01 13 87 00
   882)     11497.3  Error      0008  4  01 12 87 00
   883)     11497.4  Error      0002  4  01 17 87 00
