;$FILEVERSION=1.1
;$STARTTIME=43980.5628742014
;
;   C:\Users\eric.baril\Documents\acuityprogramming.trc
;
;   Start time: 2020-05-29 13:30:32.331.0
;   Generated by PCAN-View v4.2.5.569
;	53 54 4F 52	--> STOR
;   Message Number
;   |         Time Offset (ms)
;   |         |        Type
;   |         |        |        ID (hex)
;   |         |        |        |     Data Length
;   |         |        |        |     |   Data Bytes (hex) ...
;   |         |        |        |     |   |
;---+--   ----+----  --+--  ----+---  +  -+ -- -- -- -- -- -- --

    
   
   104)      7149.6  Rx         062A  8  42 03 51 01 00 00 00 00 
   105)      7150.6  Rx         05AA  8  40 03 51 01 3F 3F 3F 3F 
   106)      7204.4  Rx         062A  8  42 03 51 02 00 00 00 00 
   107)      7205.4  Rx         05AA  8  40 03 51 02 3F 3F 3F 3F 
   108)      7207.8  Rx         062A  8  42 05 51 00 00 00 00 00 
   109)      7208.8  Rx         05AA  8  40 05 51 00 64 00 00 00 
   110)      7211.2  Rx         062A  8  42 06 51 00 00 00 00 00 
   111)      7212.2  Rx         05AA  8  40 06 51 00 60 64 00 00 
   112)      7214.5  Rx         062A  8  42 07 51 00 00 00 00 00 
   113)      7216.3  Rx         05AA  8  40 07 51 00 2E 09 00 00 
   114)      7218.7  Rx         062A  8  42 08 51 00 00 00 00 00 
   115)      7221.3  Rx         05AA  8  40 08 51 00 88 13 00 00 
   116)      7223.7  Rx         062A  8  42 0A 51 00 00 00 00 00 
   117)      7226.3  Rx         05AA  8  40 0A 51 00 32 5F 00 00 
   118)      7228.7  Rx         062A  8  42 13 51 00 00 00 00 00 
   119)      7231.3  Rx         05AA  8  40 13 51 00 01 00 00 00 
   120)      7233.7  Rx         062A  8  42 12 51 00 00 00 00 00 
   
   122)      7243.4  Rx         05AA  8  40 12 51 00 01 32 05 00 
   123)      7245.7  Rx         062A  8  42 16 51 00 00 00 00 00 
   124)      7246.7  Rx         05AA  8  40 16 51 00 05 07 00 00 
   125)      7249.1  Rx         062A  8  42 14 51 01 00 00 00 00 
   126)      7251.3  Rx         05AA  8  40 14 51 01 1D 05 14 00 
   127)      7253.6  Rx         062A  8  42 14 51 00 00 00 00 00 
   128)      7256.3  Rx         05AA  8  40 14 51 00 35 2C 0D 00 
   129)      7258.7  Rx         062A  8  42 09 51 00 00 00 00 00 
   130)      7261.3  Rx         05AA  8  40 09 51 00 AC C5 27 37 
   131)      7263.6  Rx         062A  8  42 09 51 01 00 00 00 00 
   132)      7266.3  Rx         05AA  8  40 09 51 01 6F 12 03 3B 
   133)      7268.6  Rx         062A  8  42 09 51 02 00 00 00 00 
   134)      7271.3  Rx         05AA  8  40 09 51 02 4E 64 E6 BB 
   135)      7273.5  Rx         062A  8  42 09 51 03 00 00 00 00 
   136)      7276.3  Rx         05AA  8  40 09 51 03 C3 F5 F8 3F 
   137)      7278.6  Rx         062A  8  42 09 51 04 00 00 00 00 
   138)      7281.3  Rx         05AA  8  40 09 51 04 87 97 71 B7 
   139)      7283.5  Rx         062A  8  42 09 51 05 00 00 00 00 
   140)      7286.3  Rx         05AA  8  40 09 51 05 89 D2 5E 3B 
   141)      7288.6  Rx         062A  8  42 09 51 06 00 00 00 00 
   142)      7291.3  Rx         05AA  8  40 09 51 06 1F DA C7 BB 
   143)      7293.6  Rx         062A  8  42 09 51 07 00 00 00 00 
   144)      7296.3  Rx         05AA  8  40 09 51 07 85 EB F1 3F 
   145)      7298.6  Rx         062A  8  42 09 51 08 00 00 00 00 
   146)      7301.3  Rx         05AA  8  40 09 51 08 8E 2B 64 B7 
   147)      7303.5  Rx         062A  8  42 09 51 09 00 00 00 00 
   148)      7306.3  Rx         05AA  8  40 09 51 09 F4 FD D4 3B 
   149)      7308.6  Rx         062A  8  42 09 51 0A 00 00 00 00 
   150)      7311.3  Rx         05AA  8  40 09 51 0A DC B8 C5 BB 
   151)      7313.5  Rx         062A  8  42 09 51 0B 00 00 00 00 
   152)      7316.3  Rx         05AA  8  40 09 51 0B 59 A4 E9 3F 
   
   
   
   
   
   ####WRITES
   
    95)      7082.3  Rx         062A  8  42 00 51 00 00 00 00 00 
    96)      7083.3  Rx         05AA  8  40 00 51 00 50 00 00 00 
   
   154)      7349.1  Rx         062A  8  22 00 51 00 50 00 42 56 #Batt Voltage
   155)      7350.1  Rx         05AA  8  60 00 51 00 50 00 42 56 
   
    97)      7085.8  Rx         062A  8  42 01 51 00 00 00 00 00 
    98)      7086.8  Rx         05AA  8  40 01 51 00 6B 03 00 00 
   156)      7365.1  Rx         062A  8  22 01 51 00 E8 03 41 68 # AmpHours rating
   157)      7366.5  Rx         05AA  8  60 01 51 00 E8 03 41 68 
   
   
    99)      7089.2  Rx         062A  8  42 02 51 00 00 00 00 00 
   100)      7091.3  Rx         05AA  8  40 02 51 00 03 00 00 00 
   158)      7379.0  Rx         062A  8  22 02 51 00 E8 FD 54 79 #Battery profile
   159)      7380.0  Rx         05AA  8  60 02 51 00 E8 FD 54 79 
   
   
   101)      7093.8  Rx         062A  8  42 03 51 00 00 00 00 00 
   102)      7096.3  Rx         05AA  8  40 03 51 00 3F 3F 3F 3F 
   160)      7393.5  Rx         062A  8  22 03 51 00 54 4C 44 5F #Battery ID
   161)      7394.5  Rx         05AA  8  60 03 51 00 54 4C 44 5F 
   
   165)      7447.3  Rx         062A  8  22 03 51 01 31 31 32 38 #Battery ID
   166)      7451.3  Rx         05AA  8  60 03 51 01 31 31 32 38 
   
   167)      7501.5  Rx         062A  8  22 03 51 02 35 38 31 20 #Battery ID
   168)      7502.5  Rx         05AA  8  60 03 51 02 35 38 31 20 
   
   169)      7515.6  Rx         062A  8  22 05 51 00 50 44 4F 44 #Depth of discharge
   170)      7516.6  Rx         05AA  8  60 05 51 00 50 44 4F 44 
   
   171)      7529.6  Rx         062A  8  22 06 51 00 60 64 43 45 #Charge efficiency
   172)      7530.6  Rx         05AA  8  60 06 51 00 60 64 43 45 
   
   174)      7543.7  Rx         062A  8  22 07 51 00 2E 09 43 46 #ChargeFull mV per cell
   175)      7544.7  Rx         05AA  8  60 07 51 00 2E 09 43 46 
   
   176)      7557.7  Rx         062A  8  22 08 51 00 88 13 53 4F #Current Sensor Offset, in mA.
   177)      7558.7  Rx         05AA  8  60 08 51 00 88 13 53 4F 
   
   178)      571.6  Rx         062A  8  22 0A 51 00 32 5F 42 43 #Battery Cycle Thresholds, low and high.  Range 0–100.
   179)      7572.6  Rx         05AA  8  60 0A 51 00 32 5F 42 43 
   
   180)      7575.0  Rx         062A  8  22 13 51 00 52 6E 67 00 # Sets binned Ah range. For low range, set  	 	 	 	 Byte8 to 0h. For high range, set Byte8 to 1h
   181)      7576.5  Rx         05AA  8  60 13 51 00 52 6E 67 00 
   
   182)      7578.9  Rx         062A  8  22 12 51 00 01 32 01 46 #  PDO1, PDO2, and Heartbeat Tx frequency. Resolution 100ms. Value of 0 disables PDO.
   184)      7586.5  Rx         05AA  8  60 12 51 00 01 32 01 46 
   
   185)      7588.9  Rx         062A  8  22 16 51 00 05 07 00 63 #Capacity Temp Coefficient, hot and cold. _H _C TC Resolution 0.1% per °C.	  Charger Full Temp Coefficient, resolution 0.1mV per °C.
   186)      7591.5  Rx         05AA  8  60 16 51 00 05 07 00 63 
   
   
   197)      8087.1  Rx         062A  8  22 16 51 00 05 07 00 63 #Capacity Temp Coefficient, hot and cold. _H _C TC Resolution 0.1% per °C.	  Charger Full Temp Coefficient, resolution 0.1mV per °C.
   198)      8088.1  Rx         05AA  8  60 16 51 00 05 07 00 63 
   
   210)      8587.8  Rx         062A  8  22 16 51 00 05 07 00 63 #Capacity Temp Coefficient, hot and cold. _H _C TC Resolution 0.1% per °C.	  Charger Full Temp Coefficient, resolution 0.1mV per °C.
   211)      8588.8  Rx         05AA  8  60 16 51 00 05 07 00 63 
   
   
   
   222)      9089.2  Rx         062A  8  22 09 51 00 E2 BB 8D 35 #Custom discharge parameters; see Definitions
   223)      9090.2  Rx         05AA  8  60 09 51 00 E2 BB 8D 35 
   
   224)      9092.6  Rx         062A  8  22 09 51 01 D7 34 EF 3A #Custom discharge parameters; see Definitions
   225)      9093.6  Rx         05AA  8  60 09 51 01 D7 34 EF 3A 
   
   226)      9096.1  Rx         062A  8  22 09 51 02 F4 C0 47 BB #Custom discharge parameters; see Definitions
   227)      9097.1  Rx         05AA  8  60 09 51 02 F4 C0 47 BB 
   
   229)      9142.8  Rx         062A  8  22 09 51 03 B4 C8 F6 3F #Custom discharge parameters; see Definitions
   230)      9144.1  Rx         05AA  8  60 09 51 03 B4 C8 F6 3F
   
   231)      9146.6  Rx         062A  8  22 09 51 04 72 DD 35 37 #Custom discharge parameters; see Definitions
   232)      9147.6  Rx         05AA  8  60 09 51 04 72 DD 35 37
   
   233)      9150.0  Rx         062A  8  22 09 51 05 1F 6A 5B 3B #Custom discharge parameters; see Definitions
   234)      9151.9  Rx         05AA  8  60 09 51 05 1F 6A 5B 3B
   
   235)      9154.3  Rx         062A  8  22 09 51 06 8C 67 50 BB #Custom discharge parameters; see Definitions
   236)      9156.9  Rx         05AA  8  60 09 51 06 8C 67 50 BB
   
   237)      9159.4  Rx         062A  8  22 09 51 07 04 56 EE 3F #Custom discharge parameters; see Definitions
   238)      9162.0  Rx         05AA  8  60 09 51 07 04 56 EE 3F
   
   239)      9164.4  Rx         062A  8  22 09 51 08 4E 81 AB 38 #Custom discharge parameters; see Definitions
   240)      9166.9  Rx         05AA  8  60 09 51 08 4E 81 AB 38
   
   241)      9169.3  Rx         062A  8  22 09 51 09 D8 47 A7 3B #Custom discharge parameters; see Definitions
   242)      9171.9  Rx         05AA  8  60 09 51 09 D8 47 A7 3B
   
   243)      9174.3  Rx         062A  8  22 09 51 0A 26 C7 9D BB #Custom discharge parameters; see Definitions
   245)      9181.9  Rx         05AA  8  60 09 51 0A 26 C7 9D BB
   
   246)      9184.4  Rx         062A  8  22 09 51 0B E9 26 E1 3F #Custom discharge parameters; see Definitions
   247)      9186.9  Rx         05AA  8  60 09 51 0B E9 26 E1 3F
   
   248)      9189.3  Rx         062A  8  22 F1 51 00 02 62 61 75 #Change to 250kbps
   249)      9192.0  Rx         05AA  8  60 F1 51 00 02 62 61 75 
   252)      9295.0  Rx         062A  8  22 FF 51 00 53 54 4F 52 		<---STOR
   
  