;$FILEVERSION=1.1
;$STARTTIME=43979.6378433565
;
;   C:\Users\eric.baril\Documents\AcuityStandbytrace.trc
;
;   Start time: 2020-05-28 15:18:29.666.0
;   Generated by PCAN-View v4.2.5.569
;
;   Message Number
;   |         Time Offset (ms)
;   |         |        Type
;   |         |        |        ID (hex)
;   |         |        |        |     Data Length
;   |         |        |        |     |   Data Bytes (hex) ...
;   |         |        |        |     |   |
;---+--   ----+----  --+--  ----+---  +  -+ -- -- -- -- -- -- --
     1)        11.2  Rx         01AA  8  0E 20 F7 FF CD 0B 00 3E 
     2)        13.0  Rx         072A  1  05 
     3)        18.3  Rx         022C  7  01 10 06 A4 1F 00 00 
     4)        38.2  Rx         022C  7  01 10 06 A4 1F 00 00 
     5)        58.1  Rx         022C  7  01 10 06 A4 1F 00 00 
     6)        78.0  Rx         022C  7  01 10 06 A4 1F 00 00 
     7)        97.9  Rx         022C  7  01 10 06 A4 1F 00 00 
     8)       111.2  Rx         01AA  8  0E 20 F7 FF CD 0B 00 3E 
     9)       113.0  Rx         072A  1  05 
    10)       117.8  Rx         022C  7  01 10 06 A4 1F 00 00 
    11)       137.7  Rx         022C  7  01 10 06 A4 1F 00 00 
    12)       157.6  Rx         022C  7  01 10 06 A4 1F 00 00 
    13)       177.5  Rx         022C  7  01 10 06 A4 1F 00 00 
    14)       197.4  Rx         022C  7  01 10 06 A4 1F 00 00 
    15)       211.2  Rx         01AA  8  0E 20 F7 FF CD 0B 00 3E 
    16)       213.0  Rx         072A  1  05 
    17)       217.3  Rx         022C  7  01 10 06 A4 1F 00 00 
    18)       237.2  Rx         022C  7  01 10 06 A4 1F 00 00 
    19)       257.1  Rx         022C  7  01 10 06 A4 1F 00 00 
    20)       277.0  Rx         022C  7  01 10 06 A4 1F 00 00 
    21)       296.9  Rx         022C  7  01 10 06 A4 1F 00 00 
    22)       311.3  Rx         01AA  8  0E 20 F7 FF CD 0B 00 3E 
    23)       313.1  Rx         072A  1  05 
    24)       316.9  Rx         022C  7  01 10 06 A4 1F 00 00 
    25)       336.8  Rx         022C  7  01 10 06 A4 1F 00 00 
    26)       356.7  Rx         022C  7  01 10 06 A4 1F 00 00 
    27)       376.6  Rx         022C  7  01 10 06 A4 1F 00 00 
    28)       396.6  Rx         022C  7  01 10 06 A4 1F 00 00 
    29)       411.3  Rx         01AA  8  0E 20 F7 FF CD 0B 00 3E 
    30)       412.4  Rx         04AA  8  38 0A 0E 1D 05 15 00 00 
    31)       413.1  Rx         072A  1  05 
    32)       416.5  Rx         022C  7  01 10 06 A4 1F 00 00 
    33)       436.4  Rx         022C  7  01 10 06 A4 1F 00 00 
    34)       456.3  Rx         022C  7  01 10 06 A4 1F 00 00 
    35)       465.2  Rx         01AC  8  B8 24 D0 02 D0 02 00 00 
    36)       465.5  Rx         02AC  8  FF 10 10 4C 00 00 00 00 
    37)       465.7  Rx         071C  1  05 
    38)       476.2  Rx         022C  7  01 10 06 A4 1F 00 00 
    39)       496.1  Rx         022C  7  01 10 06 A4 1F 00 00 
    40)       511.4  Rx         01AA  8  0E 20 F7 FF CD 0B 00 3E 
    41)       513.1  Rx         072A  1  05 
    42)       516.0  Rx         022C  7  01 10 06 A4 1F 00 00 
    43)       535.9  Rx         022C  7  01 10 06 A4 1F 00 00 
    44)       555.8  Rx         022C  7  01 10 06 A4 1F 00 00 
    45)       574.5  Rx         072C  1  05 
    46)       575.7  Rx         022C  7  01 10 06 A4 1F 00 00 
    47)       595.6  Rx         022C  7  01 10 06 A4 1F 00 00 
    48)       611.4  Rx         01AA  8  0E 20 F7 FF CE 0B 00 3E 
    49)       613.1  Rx         072A  1  05 
    50)       615.5  Rx         022C  7  01 10 06 A4 1F 00 00 
    51)       629.2  Tx         072C  1  05 
    52)       635.4  Rx         022C  7  01 10 06 A4 1F 00 00 
    53)       655.3  Rx         022C  7  01 10 06 A4 1F 00 00 
    54)       675.2  Rx         022C  7  01 10 06 A4 1F 00 00 
    55)       695.1  Rx         022C  7  01 10 06 A4 1F 00 00 
    56)       711.4  Rx         01AA  8  0E 20 F7 FF CE 0B 00 3E 
    57)       713.1  Rx         072A  1  05 
    58)       715.0  Rx         022C  7  01 10 06 A4 1F 00 00 
    59)       734.9  Rx         022C  7  01 10 06 A4 1F 00 00 
    60)       754.8  Rx         022C  7  01 10 06 A4 1F 00 00 
    61)       774.7  Rx         022C  7  01 10 06 A4 1F 00 00 
    62)       794.7  Rx         022C  7  01 10 06 A4 1F 00 00 
    63)       811.4  Rx         01AA  8  0E 20 F7 FF CE 0B 00 3E 
    64)       813.1  Rx         072A  1  05 
    65)       814.6  Rx         022C  7  01 10 06 A4 1F 00 00 
    66)       834.5  Rx         022C  7  01 10 06 A4 1F 00 00 
    67)       854.4  Rx         022C  7  01 10 06 A4 1F 00 00 
    68)       874.3  Rx         022C  7  01 10 06 A4 1F 00 00 
    69)       894.2  Rx         022C  7  01 10 06 A4 1F 00 00 
    70)       911.4  Rx         01AA  8  0E 20 F7 FF CE 0B 00 3E 
    71)       913.1  Rx         072A  1  05 
    72)       914.1  Rx         022C  7  01 10 06 A4 1F 00 00 
    73)       934.0  Rx         022C  7  01 10 06 A4 1F 00 00 
    74)       953.9  Rx         022C  7  01 10 06 A4 1F 00 00 
    75)       973.8  Rx         022C  7  01 10 06 A4 1F 00 00 
    76)       993.7  Rx         022C  7  01 10 06 A4 1F 00 00 
    77)      1011.4  Rx         01AA  8  0E 20 F7 FF CE 0B 00 3E 
    78)      1012.4  Rx         02AA  8  DB 00 00 00 00 00 00 00 
    79)      1013.1  Rx         072A  1  05 
    80)      1013.6  Rx         022C  7  01 10 06 A4 1F 00 00 
    81)      1033.5  Rx         022C  7  01 10 06 A4 1F 00 00 
    82)      1053.4  Rx         022C  7  01 10 06 A4 1F 00 00 
    83)      1073.3  Rx         022C  7  01 10 06 A4 1F 00 00 
    84)      1093.2  Rx         022C  7  01 10 06 A4 1F 00 00 
    85)      1111.4  Rx         01AA  8  0E 20 F7 FF CE 0B 00 3E 
    86)      1113.1  Rx         022C  7  01 10 06 A4 1F 00 00 
    87)      1113.4  Rx         072A  1  05 
    88)      1133.0  Rx         022C  7  01 10 06 A4 1F 00 00 
    89)      1152.9  Rx         022C  7  01 10 06 A4 1F 00 00 
    90)      1172.8  Rx         022C  7  01 10 06 A4 1F 00 00 
    91)      1192.7  Rx         022C  7  01 10 06 A4 1F 00 00 
    92)      1211.4  Rx         01AA  8  0E 20 F7 FF CE 0B 00 3E 
    93)      1212.7  Rx         022C  7  01 10 06 A4 1F 00 00 
    94)      1213.1  Rx         072A  1  05 
    95)      1232.6  Rx         022C  7  01 10 06 A4 1F 00 00 
    96)      1252.5  Rx         022C  7  01 10 06 A4 1F 00 00 
    97)      1272.4  Rx         022C  7  01 10 06 A4 1F 00 00 
    98)      1292.3  Rx         022C  7  01 10 06 A4 1F 00 00 
    99)      1311.3  Rx         01AA  8  0E 20 F7 FF CE 0B 00 3E 
   100)      1312.1  Rx         022C  7  01 10 06 A4 1F 00 00 
   101)      1313.1  Rx         072A  1  05 
   102)      1332.0  Rx         022C  7  01 10 06 A4 1F 00 00 
   103)      1351.9  Rx         022C  7  01 10 06 A4 1F 00 00 
   104)      1371.8  Rx         022C  7  01 10 06 A4 1F 00 00 
   105)      1391.7  Rx         022C  7  01 10 06 A4 1F 00 00 
   106)      1411.3  Rx         01AA  8  0E 20 F7 FF CE 0B 00 3E 
   107)      1411.8  Rx         022C  7  01 10 06 A4 1F 00 00 
   108)      1412.4  Rx         04AA  8  39 0A 0E 1D 05 15 00 00 
   109)      1413.1  Rx         072A  1  05 
   110)      1431.6  Rx         022C  7  01 10 06 A4 1F 00 00 
   111)      1451.5  Rx         022C  7  01 10 06 A4 1F 00 00 
   112)      1465.7  Rx         01AC  8  B8 24 D0 02 D0 02 00 00 
   113)      1465.8  Rx         02AC  8  FF 10 10 4C 00 00 00 00 
   114)      1466.0  Rx         071C  1  05 
   115)      1471.4  Rx         022C  7  01 10 06 A4 1F 00 00 
   116)      1491.3  Rx         022C  7  01 10 06 A4 1F 00 00 
   117)      1511.2  Rx         022C  7  01 10 06 A4 1F 00 00 
   118)      1511.7  Rx         01AA  8  0E 20 F7 FF CE 0B 00 3E 
   119)      1513.1  Rx         072A  1  05 
   120)      1531.1  Rx         022C  7  01 10 06 A4 1F 00 00 
   121)      1551.0  Rx         022C  7  01 10 06 A4 1F 00 00 
   122)      1569.7  Rx         072C  1  05 
   123)      1570.9  Rx         022C  7  01 10 06 A4 1F 00 00 
   124)      1590.8  Rx         022C  7  01 10 06 A4 1F 00 00 
   125)      1610.7  Rx         022C  7  01 10 06 A4 1F 00 00 
   126)      1611.3  Rx         01AA  8  0E 20 F7 FF CE 0B 00 3E 
   127)      1613.1  Rx         072A  1  05 
   128)      1628.5  Tx         072C  1  05 
   129)      1630.6  Rx         022C  7  01 10 06 A4 1F 00 00 
   130)      1650.5  Rx         022C  7  01 10 06 A4 1F 00 00 
   131)      1670.4  Rx         022C  7  01 10 06 A4 1F 00 00 
   132)      1690.3  Rx         022C  7  01 10 06 A4 1F 00 00 
   133)      1710.2  Rx         022C  7  01 10 06 A4 1F 00 00 
   134)      1711.3  Rx         01AA  8  0E 20 F7 FF CE 0B 00 3E 
   135)      1713.1  Rx         072A  1  05 
   136)      1730.1  Rx         022C  7  01 10 06 A4 1F 00 00 
   137)      1750.0  Rx         022C  7  01 10 06 A4 1F 00 00 
   138)      1769.9  Rx         022C  7  01 10 06 A4 1F 00 00 
   139)      1789.8  Rx         022C  7  01 10 06 A4 1F 00 00 
   140)      1809.7  Rx         022C  7  01 10 06 A4 1F 00 00 
   141)      1811.3  Rx         01AA  8  0E 20 F7 FF CE 0B 00 3E 
   142)      1813.1  Rx         072A  1  05 
   143)      1829.7  Rx         022C  7  01 10 06 A4 1F 00 00 
   144)      1849.6  Rx         022C  7  01 10 06 A4 1F 00 00 
   145)      1869.5  Rx         022C  7  01 10 06 A4 1F 00 00 
   146)      1889.4  Rx         022C  7  01 10 06 A4 1F 00 00 
   147)      1909.3  Rx         022C  7  01 10 06 A4 1F 00 00 
   148)      1911.4  Rx         01AA  8  0E 20 F7 FF CE 0B 00 3E 
   149)      1913.1  Rx         072A  1  05 
   150)      1929.2  Rx         022C  7  01 10 06 A4 1F 00 00 
   151)      1949.1  Rx         022C  7  01 10 06 A4 1F 00 00 
   152)      1969.0  Rx         022C  7  01 10 06 A4 1F 00 00 
   153)      1988.9  Rx         022C  7  01 10 06 A4 1F 00 00 
   154)      2008.8  Rx         022C  7  01 10 06 A4 1F 00 00 
   155)      2011.4  Rx         01AA  8  0E 20 F7 FF CE 0B 00 3E 
   156)      2013.1  Rx         072A  1  05 
   157)      2028.7  Rx         022C  7  01 10 06 A4 1F 00 00 
   158)      2048.6  Rx         022C  7  01 10 06 A4 1F 00 00 
   159)      2068.5  Rx         022C  7  01 10 06 A4 1F 00 00 
   160)      2088.4  Rx         022C  7  01 10 06 A4 1F 00 00 
   161)      2108.3  Rx         022C  7  01 10 06 A4 1F 00 00 
   162)      2111.4  Rx         01AA  8  0E 20 F7 FF CF 0B 00 3E 
   163)      2113.1  Rx         072A  1  05 
   164)      2128.2  Rx         022C  7  01 10 06 A4 1F 00 00 
   165)      2148.1  Rx         022C  7  01 10 06 A4 1F 00 00 
   166)      2168.0  Rx         022C  7  01 10 06 A4 1F 00 00 
   167)      2187.9  Rx         022C  7  01 10 06 A4 1F 00 00 
   168)      2207.8  Rx         022C  7  01 10 06 A4 1F 00 00 
   169)      2211.4  Rx         01AA  8  0E 20 F7 FF CF 0B 00 3E 
   170)      2213.1  Rx         072A  1  05 
   171)      2227.8  Rx         022C  7  01 10 06 A4 1F 00 00 
   172)      2247.7  Rx         022C  7  01 10 06 A4 1F 00 00 
   173)      2267.6  Rx         022C  7  01 10 06 A4 1F 00 00 
   174)      2287.5  Rx         022C  7  01 10 06 A4 1F 00 00 
   175)      2307.4  Rx         022C  7  01 10 06 A4 1F 00 00 
   176)      2311.4  Rx         01AA  8  0E 20 F7 FF CF 0B 00 3E 
   177)      2313.1  Rx         072A  1  05 
   178)      2327.3  Rx         022C  7  01 10 06 A4 1F 00 00 
   179)      2347.2  Rx         022C  7  01 10 06 A4 1F 00 00 
   180)      2367.1  Rx         022C  7  01 10 06 A4 1F 00 00 
   181)      2387.0  Rx         022C  7  01 10 06 A4 1F 00 00 
   182)      2406.9  Rx         022C  7  01 10 06 A4 1F 00 00 
   183)      2411.4  Rx         01AA  8  0E 20 F7 FF CF 0B 00 3E 
   184)      2412.5  Rx         04AA  8  3A 0A 0E 1D 05 15 00 00 
   185)      2413.1  Rx         072A  1  05 
   186)      2426.8  Rx         022C  7  01 10 06 A4 1F 00 00 
   187)      2446.7  Rx         022C  7  01 10 06 A4 1F 00 00 
   188)      2466.6  Rx         022C  7  01 10 06 A4 1F 00 00 
   189)      2467.1  Rx         01AC  8  B8 24 D0 02 D0 02 00 00 
   190)      2467.3  Rx         02AC  8  FF 10 10 4C 00 00 00 00 
   191)      2467.4  Rx         071C  1  05 
   192)      2486.5  Rx         022C  7  01 10 06 A4 1F 00 00 
   193)      2506.4  Rx         022C  7  01 10 06 A4 1F 00 00 
   194)      2511.4  Rx         01AA  8  0E 20 F7 FF CF 0B 00 3E 
   195)      2513.1  Rx         072A  1  05 
   196)      2526.4  Rx         022C  7  01 10 06 A4 1F 00 00 
   197)      2546.2  Rx         022C  7  01 10 06 A4 1F 00 00 
   198)      2565.0  Rx         072C  1  05 
   199)      2566.2  Rx         022C  7  01 10 06 A4 1F 00 00 
   200)      2586.1  Rx         022C  7  01 10 06 A4 1F 00 00 
   201)      2606.0  Rx         022C  7  01 10 06 A4 1F 00 00 
   202)      2611.4  Rx         01AA  8  0E 20 F7 FF CF 0B 00 3E 
   203)      2613.1  Rx         072A  1  05 
   204)      2625.9  Rx         022C  7  01 10 06 A4 1F 00 00 
   205)      2629.6  Tx         072C  1  05 
   206)      2645.8  Rx         022C  7  01 10 06 A4 1F 00 00 
   207)      2665.7  Rx         022C  7  01 10 06 A4 1F 00 00 
   208)      2685.6  Rx         022C  7  01 10 06 A4 1F 00 00 
   209)      2705.5  Rx         022C  7  01 10 06 A4 1F 00 00 
   210)      2711.4  Rx         01AA  8  0E 20 F7 FF CF 0B 00 3E 
   211)      2713.1  Rx         072A  1  05 
   212)      2725.4  Rx         022C  7  01 10 06 A4 1F 00 00 
   213)      2745.3  Rx         022C  7  01 10 06 A4 1F 00 00 
   214)      2765.2  Rx         022C  7  01 10 06 A4 1F 00 00 
   215)      2785.1  Rx         022C  7  01 10 06 A4 1F 00 00 
   216)      2805.0  Rx         022C  7  01 10 06 A4 1F 00 00 
   217)      2811.4  Rx         01AA  8  0E 20 F7 FF CF 0B 00 3E 
   218)      2813.1  Rx         072A  1  05 
   219)      2824.9  Rx         022C  7  01 10 06 A4 1F 00 00 
   220)      2844.8  Rx         022C  7  01 10 06 A4 1F 00 00 
   221)      2864.7  Rx         022C  7  01 10 06 A4 1F 00 00 
   222)      2884.6  Rx         022C  7  01 10 06 A4 1F 00 00 
   223)      2904.5  Rx         022C  7  01 10 06 A4 1F 00 00 
   224)      2911.4  Rx         01AA  8  0D 20 F7 FF CF 0B 00 3E 
   225)      2913.2  Rx         072A  1  05 
   226)      2924.4  Rx         022C  7  01 10 06 A4 1F 00 00 
   227)      2944.3  Rx         022C  7  01 10 06 A4 1F 00 00 
   228)      2964.3  Rx         022C  7  01 10 06 A4 1F 00 00 
   229)      2984.2  Rx         022C  7  01 10 06 A4 1F 00 00 
   230)      3004.1  Rx         022C  7  01 10 06 A4 1F 00 00 
   231)      3011.4  Rx         01AA  8  0D 20 F7 FF CF 0B 00 3E 
   232)      3013.2  Rx         072A  1  05 
   233)      3024.0  Rx         022C  7  01 10 06 A4 1F 00 00 
   234)      3043.9  Rx         022C  7  01 10 06 A4 1F 00 00 
   235)      3063.8  Rx         022C  7  01 10 06 A4 1F 00 00 
   236)      3083.7  Rx         022C  7  01 10 06 A4 1F 00 00 
   237)      3103.6  Rx         022C  7  01 10 06 A4 1F 00 00 
   238)      3111.4  Rx         01AA  8  0D 20 F7 FF CF 0B 00 3E 
   239)      3113.2  Rx         072A  1  05 
   240)      3123.5  Rx         022C  7  01 10 06 A4 1F 00 00 
   241)      3143.4  Rx         022C  7  01 10 06 A4 1F 00 00 
   242)      3163.3  Rx         022C  7  01 10 06 A4 1F 00 00 
   243)      3183.2  Rx         022C  7  01 10 06 A4 1F 00 00 
   244)      3203.1  Rx         022C  7  01 10 06 A4 1F 00 00 
   245)      3211.4  Rx         01AA  8  0D 20 F7 FF CF 0B 00 3E 
   246)      3213.2  Rx         072A  1  05 
   247)      3223.0  Rx         022C  7  01 10 06 A4 1F 00 00 
   248)      3242.9  Rx         022C  7  01 10 06 A4 1F 00 00 
   249)      3262.8  Rx         022C  7  01 10 06 A4 1F 00 00 
   250)      3282.7  Rx         022C  7  01 10 06 A4 1F 00 00 
   251)      3302.6  Rx         022C  7  01 10 06 A4 1F 00 00 
   252)      3311.5  Rx         01AA  8  0D 20 F7 FF CF 0B 00 3E 
   253)      3313.3  Rx         072A  1  05 
   254)      3322.6  Rx         022C  7  01 10 06 A4 1F 00 00 
   255)      3342.5  Rx         022C  7  01 10 06 A4 1F 00 00 
   256)      3362.4  Rx         022C  7  01 10 06 A4 1F 00 00 
   257)      3382.4  Rx         022C  7  01 10 06 A4 1F 00 00 
   258)      3402.3  Rx         022C  7  01 10 06 A4 1F 00 00 
   259)      3411.5  Rx         01AA  8  0D 20 F7 FF CF 0B 00 3E 
   260)      3412.6  Rx         04AA  8  3B 0A 0E 1D 05 15 00 00 
   261)      3413.3  Rx         072A  1  05 
   262)      3422.2  Rx         022C  7  01 10 06 A4 1F 00 00 
   263)      3442.1  Rx         022C  7  01 10 06 A4 1F 00 00 
   264)      3462.0  Rx         022C  7  01 10 06 A4 1F 00 00 
   265)      3464.1  Rx         01AC  8  B8 24 D0 02 D0 02 00 00 
   266)      3464.2  Rx         02AC  8  FF 10 10 4C 00 00 00 00 
   267)      3464.4  Rx         071C  1  05 
   268)      3481.9  Rx         022C  7  01 10 06 A4 1F 00 00 
   269)      3501.8  Rx         022C  7  01 10 06 A4 1F 00 00 
   270)      3511.5  Rx         01AA  8  0E 20 F7 FF CF 0B 00 3E 
   271)      3513.3  Rx         072A  1  05 
   272)      3521.7  Rx         022C  7  01 10 06 A4 1F 00 00 
   273)      3541.6  Rx         022C  7  01 10 06 A4 1F 00 00 
   274)      3560.3  Rx         072C  1  05 
   275)      3561.5  Rx         022C  7  01 10 06 A4 1F 00 00 
   276)      3581.4  Rx         022C  7  01 10 06 A4 1F 00 00 
   277)      3601.3  Rx         022C  7  01 10 06 A4 1F 00 00 
   278)      3611.5  Rx         01AA  8  0E 20 F7 FF CF 0B 00 3E 
   279)      3613.3  Rx         072A  1  05 
   280)      3621.2  Rx         022C  7  01 10 06 A4 1F 00 00 
   281)      3629.2  Tx         072C  1  05 
   282)      3641.1  Rx         022C  7  01 10 06 A4 1F 00 00 
   283)      3661.0  Rx         022C  7  01 10 06 A4 1F 00 00 
   284)      3680.9  Rx         022C  7  01 10 06 A4 1F 00 00 
   285)      3700.8  Rx         022C  7  01 10 06 A4 1F 00 00 
   286)      3711.5  Rx         01AA  8  0E 20 F7 FF CF 0B 00 3E 
   287)      3713.3  Rx         072A  1  05 
   288)      3720.7  Rx         022C  7  01 10 06 A4 1F 00 00 
   289)      3740.6  Rx         022C  7  01 10 06 A4 1F 00 00 
   290)      3760.5  Rx         022C  7  01 10 06 A4 1F 00 00 
   291)      3780.5  Rx         022C  7  01 10 06 A4 1F 00 00 
   292)      3800.4  Rx         022C  7  01 10 06 A4 1F 00 00 
   293)      3811.5  Rx         01AA  8  0E 20 F7 FF CF 0B 00 3E 
   294)      3813.3  Rx         072A  1  05 
   295)      3820.3  Rx         022C  7  01 10 06 A4 1F 00 00 
   296)      3840.2  Rx         022C  7  01 10 06 A4 1F 00 00 
   297)      3860.1  Rx         022C  7  01 10 06 A4 1F 00 00 
   298)      3880.0  Rx         022C  7  01 10 06 A4 1F 00 00 
   299)      3899.9  Rx         022C  7  01 10 06 A4 1F 00 00 
   300)      3911.5  Rx         01AA  8  0E 20 F7 FF CF 0B 00 3E 
   301)      3913.3  Rx         072A  1  05 
   302)      3919.8  Rx         022C  7  01 10 06 A4 1F 00 00 
   303)      3939.7  Rx         022C  7  01 10 06 A4 1F 00 00 
   304)      3959.6  Rx         022C  7  01 10 06 A4 1F 00 00 
   305)      3979.5  Rx         022C  7  01 10 06 A4 1F 00 00 
   306)      3999.4  Rx         022C  7  01 10 06 A4 1F 00 00 
   307)      4011.5  Rx         01AA  8  0E 20 F7 FF CF 0B 00 3E 
   308)      4013.3  Rx         072A  1  05 
   309)      4019.3  Rx         022C  7  01 10 06 A4 1F 00 00 
   310)      4039.2  Rx         022C  7  01 10 06 A4 1F 00 00 
   311)      4059.1  Rx         022C  7  01 10 06 A4 1F 00 00 
   312)      4079.0  Rx         022C  7  01 10 06 A4 1F 00 00 
   313)      4098.9  Rx         022C  7  01 10 06 A4 1F 00 00 
   314)      4111.5  Rx         01AA  8  0E 20 F7 FF CF 0B 00 3E 
   315)      4113.3  Rx         072A  1  05 
   316)      4118.8  Rx         022C  7  01 10 06 A4 1F 00 00 
   317)      4138.7  Rx         022C  7  01 10 06 A4 1F 00 00 
   318)      4158.6  Rx         022C  7  01 10 06 A4 1F 00 00 
   319)      4178.6  Rx         022C  7  01 10 06 A4 1F 00 00 
   320)      4198.5  Rx         022C  7  01 10 06 A4 1F 00 00 
   321)      4211.5  Rx         01AA  8  0E 20 F7 FF CF 0B 00 3E 
   322)      4213.3  Rx         072A  1  05 
   323)      4218.4  Rx         022C  7  01 10 06 A4 1F 00 00 
   324)      4238.3  Rx         022C  7  01 10 06 A4 1F 00 00 
   325)      4258.2  Rx         022C  7  01 10 06 A4 1F 00 00 
   326)      4278.1  Rx         022C  7  01 10 06 A4 1F 00 00 
   327)      4298.0  Rx         022C  7  01 10 06 A4 1F 00 00 
   328)      4311.6  Rx         01AA  8  0E 20 F7 FF CF 0B 00 3E 
   329)      4313.4  Rx         072A  1  05 
   330)      4318.0  Rx         022C  7  01 10 06 A4 1F 00 00 
   331)      4337.9  Rx         022C  7  01 10 06 A4 1F 00 00 
   332)      4357.8  Rx         022C  7  01 10 06 A4 1F 00 00 
   333)      4377.7  Rx         022C  7  01 10 06 A4 1F 00 00 
   334)      4397.6  Rx         022C  7  01 10 06 A4 1F 00 00 
   335)      4411.6  Rx         01AA  8  0E 20 F7 FF CF 0B 00 3E 
   336)      4412.7  Rx         04AA  8  00 0B 0E 1D 05 15 00 00 
   337)      4413.4  Rx         072A  1  05 
   338)      4417.5  Rx         022C  7  01 10 06 A4 1F 00 00 
   339)      4437.4  Rx         022C  7  01 10 06 A4 1F 00 00 
   340)      4457.3  Rx         022C  7  01 10 06 A4 1F 00 00 
   341)      4467.0  Rx         01AC  8  B8 24 D0 02 D0 02 00 00 
   342)      4467.1  Rx         02AC  8  FF 10 10 4C 00 00 00 00 
   343)      4467.3  Rx         071C  1  05 
   344)      4477.2  Rx         022C  7  01 10 06 A4 1F 00 00 
   345)      4497.1  Rx         022C  7  01 10 06 A4 1F 00 00 
   346)      4511.7  Rx         01AA  8  0E 20 F7 FF CF 0B 00 3E 
   347)      4513.4  Rx         072A  1  05 
   348)      4517.0  Rx         022C  7  01 10 06 A4 1F 00 00 
   349)      4536.9  Rx         022C  7  01 10 06 A4 1F 00 00 
   350)      4555.7  Rx         072C  1  05 
   351)      4556.8  Rx         022C  7  01 10 06 A4 1F 00 00 
   352)      4576.8  Rx         022C  7  01 10 06 A4 1F 00 00 
   353)      4596.7  Rx         022C  7  01 10 06 A4 1F 00 00 
   354)      4611.7  Rx         01AA  8  0E 20 F7 FF D0 0B 00 3E 
   355)      4613.4  Rx         072A  1  05 
   356)      4616.6  Rx         022C  7  01 10 06 A4 1F 00 00 
   357)      4628.9  Tx         072C  1  05 
   358)      4636.5  Rx         022C  7  01 10 06 A4 1F 00 00 
   359)      4656.4  Rx         022C  7  01 10 06 A4 1F 00 00 
   360)      4676.3  Rx         022C  7  01 10 06 A4 1F 00 00 
   361)      4696.2  Rx         022C  7  01 10 06 A4 1F 00 00 
   362)      4711.7  Rx         01AA  8  0E 20 F7 FF D0 0B 00 3E 
   363)      4713.4  Rx         072A  1  05 
   364)      4716.1  Rx         022C  7  01 10 06 A4 1F 00 00 
   365)      4736.0  Rx         022C  7  01 10 06 A4 1F 00 00 
   366)      4755.9  Rx         022C  7  01 10 06 A4 1F 00 00 
   367)      4775.8  Rx         022C  7  01 10 06 A4 1F 00 00 
   368)      4795.7  Rx         022C  7  01 10 06 A4 1F 00 00 
   369)      4811.7  Rx         01AA  8  0E 20 F7 FF D0 0B 00 3E 
   370)      4813.4  Rx         072A  1  05 
   371)      4815.6  Rx         022C  7  01 10 06 A4 1F 00 00 
   372)      4835.5  Rx         022C  7  01 10 06 A4 1F 00 00 
   373)      4855.4  Rx         022C  7  01 10 06 A4 1F 00 00 
   374)      4875.3  Rx         022C  7  01 10 06 A4 1F 00 00 
   375)      4895.2  Rx         022C  7  01 10 06 A4 1F 00 00 
   376)      4911.7  Rx         01AA  8  0E 20 F7 FF D0 0B 00 3E 
   377)      4913.4  Rx         072A  1  05 
   378)      4915.1  Rx         022C  7  01 10 06 A4 1F 00 00 
   379)      4935.0  Rx         022C  7  01 10 06 A4 1F 00 00 
   380)      4954.9  Rx         022C  7  01 10 06 A4 1F 00 00 
   381)      4974.8  Rx         022C  7  01 10 06 A4 1F 00 00 
   382)      4994.7  Rx         022C  7  01 10 06 A4 1F 00 00 
   383)      5011.7  Rx         01AA  8  0E 20 F7 FF D0 0B 00 3E 
   384)      5013.4  Rx         072A  1  05 
   385)      5014.7  Rx         022C  7  01 10 06 A4 1F 00 00 
   386)      5034.6  Rx         022C  7  01 10 06 A4 1F 00 00 
   387)      5054.5  Rx         022C  7  01 10 06 A4 1F 00 00 
   388)      5074.4  Rx         022C  7  01 10 06 A4 1F 00 00 
   389)      5094.3  Rx         022C  7  01 10 06 A4 1F 00 00 
   390)      5111.7  Rx         01AA  8  0E 20 F7 FF D0 0B 00 3E 
   391)      5113.4  Rx         072A  1  05 
   392)      5114.2  Rx         022C  7  01 10 06 A4 1F 00 00 
   393)      5134.1  Rx         022C  7  01 10 06 A4 1F 00 00 
   394)      5154.0  Rx         022C  7  01 10 06 A4 1F 00 00 
   395)      5173.9  Rx         022C  7  01 10 06 A4 1F 00 00 
   396)      5193.8  Rx         022C  7  01 10 06 A4 1F 00 00 
   397)      5211.7  Rx         01AA  8  0E 20 F7 FF D0 0B 00 3E 
   398)      5213.4  Rx         072A  1  05 
   399)      5213.9  Rx         022C  7  01 10 06 A4 1F 00 00 
   400)      5233.6  Rx         022C  7  01 10 06 A4 1F 00 00 
   401)      5253.5  Rx         022C  7  01 10 06 A4 1F 00 00 
   402)      5273.4  Rx         022C  7  01 10 06 A4 1F 00 00 
   403)      5293.3  Rx         022C  7  01 10 06 A4 1F 00 00 
   404)      5311.7  Rx         01AA  8  0E 20 F7 FF D0 0B 00 3E 
