;$FILEVERSION=1.1
;$STARTTIME=43983.4493856713
;
;   C:\Users\eric.baril\Documents\klm_dead_fault at end.trc
;
;   Start time: 2020-06-01 10:47:06.922.0
;   Generated by PCAN-View v4.2.5.569
;
;   Message Number
;   |         Time Offset (ms)
;   |         |        Type
;   |         |        |        ID (hex)
;   |         |        |        |     Data Length
;   |         |        |        |     |   Data Bytes (hex) ...
;   |         |        |        |     |   |
;---+--   ----+----  --+--  ----+---  +  -+ -- -- -- -- -- -- --
     1)         6.1  Rx         070D  1  05 
     2)         7.6  Rx         070B  1  05 
     3)         8.9  Rx         070C  1  05 
     4)        17.7  Rx         0080  0  
     5)        36.2  Rx         020B  8  FF 7F 00 00 C4 09 FF 7F 
     6)        36.4  Rx         030B  1  00 
     7)        36.9  Rx         020C  8  FF 7F 00 00 D0 07 FF 7F 
     8)        37.1  Rx         030C  1  00 
     9)        37.6  Rx         018C  8  00 00 00 00 00 00 20 00 
    10)        38.1  Rx         020D  8  00 00 00 00 B8 0B FF 7F 
    11)        38.4  Rx         030D  1  00 
    12)        40.1  Rx         018B  8  00 00 00 00 00 00 20 00 
    13)        40.6  Rx         028B  8  00 00 F8 1E 8F 00 30 01 
    14)        41.4  Rx         028C  8  00 00 FA 1E A5 00 0D 01 
    15)        43.2  Rx         018D  8  00 00 00 00 00 00 16 00 
    16)        43.7  Rx         028D  8  00 00 FB 1E 47 00 BA 00 
    17)        49.6  Rx         01AA  8  FE 1E 4B 00 EB 04 01 00 
    18)        54.2  Error      0002  4  01 18 01 00
    19)        54.5  Rx         072A  1  05 
    20)        54.6  Error      0000  4  00 00 00 00
    21)        58.5  Rx         070D  1  05 
    22)        59.9  Rx         070B  1  05 
    23)        61.1  Rx         070C  1  05 
    24)       110.5  Rx         070D  1  05 
    25)       111.9  Rx         070B  1  05 
    26)       112.6  Rx         0080  0  
    27)       113.3  Rx         070C  1  05 
    28)       131.1  Rx         020B  8  FF 7F 00 00 C4 09 FF 7F 
    29)       131.3  Rx         030B  1  00 
    30)       131.8  Rx         020C  8  FF 7F 00 00 D0 07 FF 7F 
    31)       132.0  Rx         030C  1  00 
    32)       132.5  Rx         018B  8  00 00 00 00 00 00 28 00 
    33)       133.0  Rx         020D  8  00 00 00 00 B8 0B FF 7F 
    34)       133.5  Rx         028B  8  00 00 F8 1E 8F 00 30 01 
    35)       134.0  Rx         018C  8  00 00 00 00 00 00 23 00 
    36)       134.5  Rx         028C  8  00 00 FA 1E A5 00 0D 01 
    37)       134.7  Rx         030D  1  00 
    38)       135.2  Rx         018D  8  00 00 00 00 00 00 1E 00 
    39)       139.1  Rx         028D  8  00 00 FB 1E 47 00 BA 00 
    40)       149.7  Rx         01AA  8  FE 1E 4B 00 EB 04 01 00 
    41)       154.3  Error      0002  4  01 1A 01 00
    42)       154.6  Rx         072A  1  05 
    43)       154.6  Error      0000  4  00 00 00 00
    44)       158.9  Rx         0703  1  05 
    45)       162.8  Rx         070D  1  05 
    46)       164.1  Rx         070B  1  05 
    47)       165.6  Rx         070C  1  05 
    48)       214.6  Rx         070D  1  05 
    49)       216.0  Rx         070B  1  05 
    50)       217.4  Rx         070C  1  05 
    51)       249.7  Rx         01AA  8  21 1F 19 00 EB 04 01 00 
    52)       254.3  Rx         072A  1  05 
    53)       266.9  Rx         070D  1  05 
    54)       268.2  Rx         070B  1  05 
    55)       269.7  Rx         070C  1  05 
    56)       318.9  Rx         070D  1  05 
    57)       320.4  Rx         070B  1  05 
    58)       321.8  Rx         070C  1  05 
    59)       347.3  Rx         008D  8  00 10 01 00 00 00 00 20 
    60)       348.7  Rx         008B  8  00 10 01 00 00 00 00 20 
    61)       349.7  Rx         01AA  8  31 1F 04 00 EB 04 01 00 
    62)       354.2  Rx         008C  8  00 10 01 00 00 00 00 20 
    63)       354.4  Rx         072A  1  05 
    64)       371.1  Rx         070D  1  7F 
    65)       372.5  Rx         070B  1  7F 
    66)       374.1  Rx         070C  1  7F 
    67)       423.3  Rx         070D  1  7F 
    68)       424.7  Rx         070B  1  7F 
    69)       426.2  Rx         070C  1  7F 
    70)       449.7  Rx         01AA  8  32 1F 04 00 EB 04 01 00 
    71)       454.3  Rx         072A  1  05 
    72)       475.5  Rx         070D  1  7F 
    73)       476.9  Rx         070B  1  7F 
    74)       478.4  Rx         070C  1  7F 
    75)       527.7  Rx         070D  1  7F 
    76)       529.1  Rx         070B  1  7F 
    77)       530.6  Rx         070C  1  7F 
    78)       549.7  Rx         01AA  8  32 1F 05 00 EB 04 01 00 
    79)       554.4  Rx         072A  1  05 
    80)       579.9  Rx         070D  1  7F 
    81)       581.2  Rx         070B  1  7F 
    82)       582.8  Rx         070C  1  7F 
    83)       634.6  Rx         04AA  8  01 30 0A 01 06 14 00 00 
    84)       649.8  Rx         01AA  8  32 1F 05 00 EB 04 01 00 
    85)       654.4  Rx         072A  1  05 
    86)       749.8  Rx         01AA  8  33 1F 04 00 EB 04 01 00 
    87)       754.4  Rx         072A  1  05 
    88)       849.9  Rx         01AA  8  33 1F 05 00 EB 04 01 00 
    89)       854.5  Rx         072A  1  05 
    90)       949.9  Rx         01AA  8  33 1F 04 00 EB 04 01 00 
    91)       954.5  Rx         072A  1  05 
    92)      1049.9  Rx         01AA  8  33 1F 04 00 EB 04 01 00 
    93)      1054.5  Rx         072A  1  05 
    94)      1149.9  Rx         01AA  8  34 1F 04 00 EB 04 01 00 
    95)      1154.8  Rx         02AA  8  7F 00 00 00 A5 00 00 00 
    96)      1159.5  Rx         072A  1  05 
    97)      1250.0  Rx         01AA  8  34 1F 04 00 EB 04 01 00 
    98)      1254.6  Rx         072A  1  05 
    99)      1350.0  Rx         01AA  8  34 1F 05 00 EB 04 01 00 
   100)      1354.6  Rx         072A  1  05 
   101)      1450.0  Rx         01AA  8  34 1F 05 00 EB 04 01 00 
   102)      1454.6  Rx         072A  1  05 
   103)      1550.0  Rx         01AA  8  34 1F 05 00 EB 04 01 00 
   104)      1554.6  Rx         072A  1  05 
   105)      1634.9  Rx         04AA  8  02 30 0A 01 06 14 00 00 
   106)      1650.1  Rx         01AA  8  35 1F 05 00 EB 04 01 00 
   107)      1654.7  Rx         072A  1  05 
   108)      1750.1  Rx         01AA  8  35 1F 04 00 EB 04 01 00 
   109)      1754.7  Rx         072A  1  05 
   110)      1850.1  Rx         01AA  8  35 1F 04 00 EB 04 01 00 
   111)      1854.7  Rx         072A  1  05 
   112)      1950.1  Rx         01AA  8  2A 1F 14 00 EB 04 01 00 
   113)      1954.8  Rx         072A  1  05 
   114)      2050.2  Rx         01AA  8  2A 1F 12 00 EB 04 01 00 
   115)      2054.8  Rx         072A  1  05 
   116)      2150.2  Rx         01AA  8  2B 1F 13 00 EB 04 01 00 
   117)      2154.8  Rx         072A  1  05 
   118)      2250.2  Rx         01AA  8  2B 1F 14 00 EB 04 01 00 
   119)      2254.8  Rx         072A  1  05 
   120)      2350.2  Rx         01AA  8  2B 1F 15 00 EB 04 01 00 
   121)      2354.8  Rx         072A  1  05 
   122)      2450.3  Rx         01AA  8  2B 1F 14 00 EB 04 01 00 
   123)      2454.9  Rx         072A  1  05 
   124)      2550.3  Rx         01AA  8  2B 1F 14 00 EB 04 01 00 
   125)      2554.9  Rx         072A  1  05 
   126)      2635.2  Rx         04AA  8  03 30 0A 01 06 14 00 00 
   127)      2650.3  Rx         01AA  8  2B 1F 15 00 EB 04 01 00 
   128)      2654.9  Rx         072A  1  05 
   129)      2750.3  Rx         01AA  8  2B 1F 14 00 EC 04 01 00 
   130)      2754.9  Rx         072A  1  05 
   131)      2850.3  Rx         01AA  8  2B 1F 15 00 EC 04 01 00 
   132)      2854.9  Rx         072A  1  05 
   133)      2950.3  Rx         01AA  8  2B 1F 15 00 EC 04 01 00 
   134)      2954.9  Rx         072A  1  05 
   135)      3050.3  Rx         01AA  8  2B 1F 14 00 EC 04 01 00 
   136)      3055.0  Rx         072A  1  05 
   137)      3150.4  Rx         01AA  8  2B 1F 14 00 EC 04 01 00 
   138)      3155.0  Rx         072A  1  05 
   139)      3250.4  Rx         01AA  8  2B 1F 14 00 EC 04 01 00 
   140)      3255.0  Rx         072A  1  05 
   141)      3350.4  Rx         01AA  8  2C 1F 15 00 EC 04 01 00 
   142)      3355.0  Rx         072A  1  05 
   143)      3450.4  Rx         01AA  8  2C 1F 14 00 EC 04 01 00 
   144)      3455.0  Rx         072A  1  05 
   145)      3498.0  Rx         0703  1  00 
   146)      3498.3  Rx         0000  2  81 00 
   147)      3538.4  Rx         0000  2  01 00 
   148)      3595.5  Rx         01AA  8  2C 1F 16 00 EC 04 01 00 
   149)      3600.1  Rx         072A  1  05 
   150)      3617.1  Rx         0080  0  
   151)      3632.5  Rx         020B  8  FF 7F 00 00 C4 09 FF 7F 
   152)      3632.7  Rx         030B  1  00 
   153)      3633.2  Rx         020C  8  FF 7F 00 00 D0 07 FF 7F 
   154)      3633.4  Rx         030C  1  00 
   155)      3633.9  Rx         020D  8  00 00 00 00 B8 0B FF 7F 
   156)      3634.2  Rx         030D  1  00 
   157)      3635.3  Rx         04AA  8  04 30 0A 01 06 14 00 00 
   158)      3695.5  Rx         01AA  8  2A 1F 17 00 EC 04 01 00 
   159)      3695.7  Rx         0080  0  
   160)      3700.1  Rx         072A  1  05 
   161)      3773.2  Rx         0080  0  
   162)      3795.5  Rx         01AA  8  2A 1F 19 00 EC 04 01 00 
   163)      3800.2  Rx         072A  1  05 
   164)      3812.7  Rx         0703  1  05 
   165)      3851.0  Rx         0080  0  
   166)      3895.5  Rx         01AA  8  29 1F 19 00 EC 04 01 00 
   167)      3900.2  Rx         072A  1  05 
   168)      3931.4  Rx         0080  0  
   169)      3995.6  Rx         01AA  8  2A 1F 19 00 EC 04 01 00 
   170)      4000.2  Rx         072A  1  05 
   171)      4010.3  Rx         0080  0  
   172)      4090.9  Rx         0080  0  
   173)      4095.6  Rx         01AA  8  2A 1F 19 00 EC 04 01 00 
   174)      4100.2  Rx         072A  1  05 
   175)      4112.1  Rx         0703  1  05 
   176)      4171.8  Rx         0080  0  
   177)      4195.6  Rx         01AA  8  2A 1F 19 00 EC 04 01 00 
   178)      4200.3  Rx         072A  1  05 
   179)      4251.4  Rx         0080  0  
   180)      4295.6  Rx         01AA  8  2A 1F 1A 00 EC 04 01 00 
   181)      4300.3  Rx         072A  1  05 
   182)      4333.9  Rx         0080  0  
   183)      4395.7  Rx         01AA  8  2A 1F 19 00 EC 04 01 00 
   184)      4400.3  Rx         072A  1  05 
   185)      4413.5  Rx         0703  1  05 
   186)      4413.7  Rx         0080  0  
   187)      4493.3  Rx         0080  0  
   188)      4495.7  Rx         01AA  8  2A 1F 19 00 EC 04 01 00 
   189)      4500.3  Rx         072A  1  05 
   190)      4572.7  Rx         0080  0  
   191)      4595.7  Rx         01AA  8  2A 1F 19 00 EC 04 01 00 
   192)      4600.4  Rx         072A  1  05 
   193)      4635.6  Rx         04AA  8  05 30 0A 01 06 14 00 00 
   194)      4651.7  Rx         0080  0  
   195)      4695.8  Rx         01AA  8  2A 1F 1A 00 EC 04 01 00 
   196)      4700.4  Rx         072A  1  05 
   197)      4714.5  Rx         0703  1  05 
   198)      4734.8  Rx         0080  0  
   199)      4795.8  Rx         01AA  8  2A 1F 19 00 EC 04 01 00 
   200)      4800.4  Rx         072A  1  05 
   201)      4816.2  Rx         0080  0  
   202)      4895.8  Rx         01AA  8  2A 1F 1A 00 EC 04 01 00 
   203)      4897.2  Rx         0080  0  
   204)      4900.4  Rx         072A  1  05 
   205)      4978.5  Rx         0080  0  
   206)      4995.8  Rx         01AA  8  2B 1F 1A 00 EC 04 01 00 
   207)      5000.5  Rx         072A  1  05 
   208)      5019.9  Rx         0703  1  05 
   209)      5060.0  Rx         0080  0  
   210)      5095.8  Rx         01AA  8  2B 1F 1A 00 EC 04 01 00 
   211)      5100.5  Rx         072A  1  05 
   212)      5143.4  Rx         0080  0  
   213)      5195.9  Rx         01AA  8  2B 1F 19 00 EC 04 01 00 
   214)      5200.5  Rx         072A  1  05 
   215)      5222.0  Rx         0080  0  
   216)      5295.9  Rx         01AA  8  2C 1F 18 00 EC 04 01 00 
   217)      5300.5  Rx         072A  1  05 
   218)      5301.2  Rx         0080  0  
   219)      5321.0  Rx         0703  1  05 
   220)      5380.8  Rx         0080  0  
   221)      5395.9  Rx         01AA  8  2C 1F 18 00 EC 04 01 00 
   222)      5400.6  Rx         072A  1  05 
   223)      5459.5  Rx         0080  0  
   224)      5496.0  Rx         01AA  8  2C 1F 19 00 EC 04 01 00 
   225)      5500.6  Rx         072A  1  05 
   226)      5540.8  Rx         0080  0  
   227)      5596.0  Rx         01AA  8  2C 1F 19 00 EC 04 01 00 
   228)      5600.6  Rx         072A  1  05 
   229)      5622.0  Rx         0703  1  05 
   230)      5622.2  Rx         0080  0  
   231)      5635.9  Rx         04AA  8  06 30 0A 01 06 14 00 00 
   232)      5695.9  Rx         01AA  8  2C 1F 1A 00 EC 04 01 00 
   233)      5700.5  Rx         072A  1  05 
   234)      5703.0  Rx         0080  0  
   235)      5788.6  Rx         0080  0  
   236)      5796.0  Rx         01AA  8  2C 1F 1A 00 EC 04 01 00 
   237)      5800.6  Rx         072A  1  05 
   238)      5877.2  Rx         0080  0  
   239)      5896.0  Rx         01AA  8  2C 1F 1A 00 EC 04 01 00 
   240)      5900.6  Rx         072A  1  05 
   241)      5923.4  Rx         0703  1  05 
   242)      5968.6  Rx         0080  0  
   243)      5996.0  Rx         01AA  8  1E 1F 31 00 EC 04 01 00 
   244)      6000.6  Rx         072A  1  05 
   245)      6058.3  Rx         0080  0  
   246)      6096.0  Rx         01AA  8  0B 1F 4A 00 EC 04 01 00 
   247)      6100.6  Rx         072A  1  05 
   248)      6146.6  Rx         0080  0  
   249)      6196.0  Rx         01AA  8  19 1F 35 00 EC 04 01 00 
   250)      6200.7  Rx         072A  1  05 
   251)      6236.2  Rx         0703  1  05 
   252)      6236.4  Rx         0080  0  
   253)      6271.8  Rx         070C  1  00 
   254)      6272.5  Rx         070B  1  00 
   255)      6275.2  Rx         070D  1  00 
   256)      6296.1  Rx         01AA  8  06 1F 4F 00 EC 04 01 00 
   257)      6300.7  Rx         072A  1  05 
   258)      6323.9  Rx         070C  1  7F 
   259)      6324.7  Rx         070B  1  7F 
   260)      6325.5  Rx         0080  0  
   261)      6325.7  Rx         0000  2  01 0B 
   262)      6326.0  Rx         0000  2  01 0C 
   263)      6327.2  Rx         070D  1  7F 
   264)      6343.3  Rx         020B  8  FF 7F 32 33 C4 09 FF 7F 
   265)      6343.5  Rx         030B  1  00 
   266)      6344.0  Rx         020C  8  FF 7F 00 00 D0 07 FF 7F 
   267)      6344.3  Rx         030C  1  00 
   268)      6348.4  Rx         018C  8  00 00 00 00 00 00 20 00 
   269)      6348.9  Rx         028C  8  00 00 05 1F 00 00 0B 01 
   270)      6349.7  Rx         0000  2  01 0D 
   271)      6368.2  Rx         020D  8  00 00 00 00 B8 0B FF 7F 
   272)      6368.5  Rx         030D  1  00 
   273)      6371.8  Rx         018D  8  00 00 00 00 00 00 1C 00 
   274)      6372.3  Rx         028D  8  00 00 07 1F 00 00 B9 00 
   275)      6376.1  Rx         070C  1  05 
   276)      6376.9  Rx         070B  1  7F 
   277)      6379.5  Rx         070D  1  05 
   278)      6396.1  Rx         01AA  8  07 1F 4E 00 EC 04 01 00 
   279)      6396.9  Rx         0000  2  01 0B 
   280)      6400.7  Rx         072A  1  05 
   281)      6418.8  Rx         0080  0  
   282)      6428.3  Rx         070C  1  05 
   283)      6429.0  Rx         070B  1  05 
   284)      6431.6  Rx         070D  1  05 
   285)      6436.3  Rx         020B  8  FF 7F 32 33 C4 09 FF 7F 
   286)      6436.5  Rx         030B  1  00 
   287)      6437.0  Rx         020C  8  FF 7F 00 00 D0 07 FF 7F 
   288)      6437.5  Rx         018B  8  00 00 00 00 00 00 25 00 
   289)      6438.0  Rx         028B  8  00 00 EC 1E 00 00 2F 01 
   290)      6438.2  Rx         030C  1  00 
   291)      6438.7  Rx         020D  8  00 00 00 00 B8 0B FF 7F 
   292)      6439.0  Rx         030D  1  00 
   293)      6440.0  Rx         018D  8  00 00 00 00 00 00 1D 00 
   294)      6440.5  Rx         028D  8  00 00 EF 1E 00 00 B9 00 
   295)      6441.0  Rx         018C  8  00 00 00 00 00 00 2B 00 
   296)      6441.5  Rx         028C  8  00 00 EE 1E 00 00 0B 01 
   297)      6480.6  Rx         070C  1  05 
   298)      6481.3  Rx         070B  1  05 
   299)      6483.9  Rx         070D  1  05 
   300)      6496.1  Rx         01AA  8  02 1F 54 00 EC 04 01 00 
   301)      6500.7  Rx         072A  1  05 
   302)      6510.6  Rx         0080  0  
   303)      6528.0  Rx         020B  8  FF 7F 32 33 C4 09 FF 7F 
   304)      6528.2  Rx         030B  1  00 
   305)      6528.7  Rx         020C  8  FF 7F 00 00 D0 07 FF 7F 
   306)      6529.0  Rx         030C  1  00 
   307)      6529.5  Rx         020D  8  00 00 00 00 B8 0B FF 7F 
   308)      6530.0  Rx         018B  8  00 00 00 00 00 00 15 00 
   309)      6530.4  Rx         028B  8  00 00 F8 1E 08 00 2F 01 
   310)      6530.7  Rx         030D  1  00 
   311)      6532.4  Rx         018D  8  00 00 00 00 00 00 18 00 
   312)      6532.9  Rx         028D  8  00 00 FB 1E 04 00 B9 00 
   313)      6533.1  Rx         070C  1  05 
   314)      6533.6  Rx         018C  8  00 00 00 00 00 00 1B 00 
   315)      6534.1  Rx         028C  8  00 00 FA 1E 09 00 0B 01 
   316)      6534.3  Rx         070B  1  05 
   317)      6535.9  Rx         070D  1  05 
   318)      6557.6  Rx         0703  1  05 
   319)      6584.9  Rx         070C  1  05 
   320)      6585.6  Rx         070B  1  05 
   321)      6588.2  Rx         070D  1  05 
   322)      6596.1  Error      0002  4  01 18 01 00
   323)      6596.1  Error      0008  4  01 13 09 00
   324)      6596.6  Error      0004  4  01 08 0A 00
   325)      6596.7  Error      0004  4  01 02 0B 00
   326)      6596.8  Error      0004  4  01 06 0C 00
   327)      6597.1  Error      0002  4  01 18 0D 00
   328)      6597.6  Error      0002  4  01 18 0E 00
   329)      6597.8  Error      0004  4  01 0A 0F 00
   330)      6597.9  Error      0004  4  01 05 10 00
   331)      6598.0  Error      0004  4  01 06 11 00
   332)      6598.0  Error      0008  4  01 13 19 00
   333)      6598.5  Error      0002  4  01 18 1A 00
   334)      6598.8  Error      0004  4  01 0A 1B 00
   335)      6599.3  Error      0002  4  01 18 1C 00
   336)      6599.9  Error      0002  4  01 1B 1C 00
   337)      6600.0  Error      0004  4  01 06 1D 00
   338)      6600.2  Error      0004  4  01 0A 1E 00
   339)      6600.7  Error      0002  4  01 18 1F 00
   340)      6601.1  Error      0004  4  01 0A 20 00
   341)      6601.3  Error      0004  4  01 0A 21 00
   342)      6601.5  Rx         0080  0  
   343)      6601.6  Error      0000  4  00 00 20 00
   344)      6602.0  Error      0002  4  01 18 21 00
   345)      6602.4  Error      0004  4  01 0A 22 00
   346)      6602.6  Error      0004  4  01 0A 23 00
   347)      6603.1  Error      0002  4  01 18 24 00
   348)      6603.5  Error      0004  4  01 0A 25 00
   349)      6603.7  Error      0004  4  01 0A 26 00
   350)      6604.3  Rx         01AA  8  01 1F 55 00 EC 04 01 00 
   351)      6604.3  Error      0000  4  00 00 25 00
   352)      6604.4  Error      0004  4  01 0A 26 00
   353)      6604.7  Error      0004  4  01 08 27 00
   354)      6605.0  Error      0002  4  01 1A 27 00
   355)      6605.3  Error      0002  4  01 1A 27 00
   356)      6611.3  Error      0002  4  01 1A 27 00
   357)      6611.5  Rx         072A  1  05 
   358)      6611.5  Error      0000  4  00 00 26 00
   359)      6619.6  Rx         020B  8  FF 7F 32 33 C4 09 FF 7F 
   360)      6619.6  Error      0000  4  00 00 25 00
   361)      6619.8  Rx         030B  1  00 
   362)      6619.8  Error      0000  4  00 00 24 00
   363)      6620.3  Rx         020C  8  FF 7F 00 00 D0 07 FF 7F 
   364)      6620.3  Error      0000  4  00 00 23 00
   365)      6620.5  Rx         030C  1  00 
   366)      6620.5  Error      0000  4  00 00 22 00
   367)      6621.0  Rx         020D  8  00 00 00 00 B8 0B FF 7F 
   368)      6621.0  Error      0000  4  00 00 21 00
   369)      6621.5  Rx         018C  8  00 00 00 00 00 00 1E 00 
   370)      6621.5  Error      0000  4  00 00 20 00
   371)      6622.0  Rx         028C  8  00 00 05 1F 17 00 0B 01 
   372)      6622.0  Error      0000  4  00 00 1F 00
   373)      6622.5  Rx         018B  8  00 00 00 00 00 00 2F 00 
   374)      6622.5  Error      0000  4  00 00 1E 00
   375)      6623.0  Rx         028B  8  00 00 04 1F 14 00 2F 01 
   376)      6623.0  Error      0000  4  00 00 1D 00
   377)      6623.2  Rx         030D  1  00 
   378)      6623.2  Error      0000  4  00 00 1C 00
   379)      6624.6  Rx         018D  8  00 00 00 00 00 00 15 00 
   380)      6624.6  Error      0000  4  00 00 1B 00
   381)      6625.1  Rx         028D  8  00 00 07 1F 0A 00 B9 00 
   382)      6625.1  Error      0000  4  00 00 1A 00
   383)      6636.0  Error      0002  4  01 1B 1A 00
   384)      6636.1  Error      0004  4  01 04 1B 00
   385)      6636.2  Error      0004  4  01 06 1C 00
   386)      6636.6  Error      0004  4  01 08 1D 00
   387)      6637.1  Error      0002  4  01 1B 1D 00
   388)      6637.2  Error      0004  4  01 0B 1E 00
   389)      6637.7  Error      0002  4  01 1A 1E 00
   390)      6638.2  Error      0002  4  01 18 1F 00
   391)      6638.3  Error      0004  4  01 02 20 00
   392)      6638.4  Error      0004  4  01 06 21 00
   393)      6638.9  Error      0002  4  01 1A 21 00
   394)      6639.4  Error      0002  4  01 18 22 00
   395)      6639.7  Rx         070B  1  05 
   396)      6639.7  Error      0000  4  00 00 21 00
   397)      6639.8  Error      0004  4  01 0A 22 00
   398)      6640.1  Rx         070C  1  05 
   399)      6640.1  Error      0000  4  00 00 21 00
   400)      6640.2  Error      0004  4  01 0A 22 00
   401)      6640.3  Error      0008  4  01 13 2A 00
   402)      6640.5  Rx         070D  1  05 
   403)      6640.5  Error      0000  4  00 00 29 00
   404)      6641.0  Error      0002  4  01 1B 2A 00
   405)      6641.0  Error      0008  4  01 13 32 00
   406)      6641.2  Error      0004  4  01 0A 33 00
   407)      6641.8  Error      0002  4  01 1B 34 00
   408)      6642.2  Error      0004  4  01 0A 35 00
   409)      6642.7  Error      0002  4  01 1B 36 00
   410)      6643.1  Error      0004  4  01 0A 37 00
   411)      6643.6  Error      0002  4  01 1B 38 00
   412)      6644.0  Error      0004  4  01 0A 39 00
   413)      6644.1  Error      0004  4  01 0A 3A 00
   414)      6644.7  Rx         04AA  8  07 30 0A 01 06 14 00 00 
   415)      6644.7  Error      0000  4  00 00 39 00
   416)      6689.3  Rx         070C  1  05 
   417)      6689.3  Error      0000  4  00 00 38 00
   418)      6690.0  Rx         070B  1  05 
   419)      6690.0  Error      0000  4  00 00 37 00
   420)      6692.6  Rx         070D  1  05 
   421)      6692.6  Error      0000  4  00 00 36 00
   422)      6692.9  Rx         0080  0  
   423)      6692.9  Error      0000  4  00 00 35 00
   424)      6696.2  Rx         01AA  8  06 1F 4E 00 EC 04 01 00 
   425)      6696.2  Error      0000  4  00 00 34 00
   426)      6700.8  Rx         072A  1  05 
   427)      6700.8  Error      0000  4  00 00 33 00
   428)      6710.3  Rx         020B  8  FF 7F 32 33 C4 09 FF 7F 
   429)      6710.3  Error      0000  4  00 00 32 00
   430)      6710.5  Rx         030B  1  00 
   431)      6710.6  Error      0000  4  00 00 31 00
   432)      6711.0  Rx         020C  8  FF 7F 00 00 D0 07 FF 7F 
   433)      6711.1  Error      0000  4  00 00 30 00
   434)      6711.3  Rx         030C  1  00 
   435)      6711.3  Error      0000  4  00 00 2F 00
   436)      6711.8  Rx         020D  8  00 00 00 00 B8 0B FF 7F 
   437)      6711.8  Error      0000  4  00 00 2E 00
   438)      6712.0  Rx         030D  1  00 
   439)      6712.0  Error      0000  4  00 00 2D 00
   440)      6713.0  Rx         018D  8  00 00 00 00 00 00 17 00 
   441)      6713.0  Error      0000  4  00 00 2C 00
   442)      6713.4  Rx         028D  8  00 00 FB 1E 0D 00 B9 00 
   443)      6713.4  Error      0000  4  00 00 2B 00
   444)      6713.9  Rx         018C  8  00 00 00 00 00 00 1F 00 
   445)      6713.9  Error      0000  4  00 00 2A 00
   446)      6714.4  Rx         018B  8  00 00 00 00 00 00 2E 00 
   447)      6714.4  Error      0000  4  00 00 29 00
   448)      6714.9  Rx         028B  8  00 00 F8 1E 1F 00 2F 01 
   449)      6714.9  Error      0000  4  00 00 28 00
   450)      6715.4  Rx         028C  8  00 00 FA 1E 24 00 0B 01 
   451)      6715.4  Error      0000  4  00 00 27 00
   452)      6741.5  Rx         070C  1  05 
   453)      6741.5  Error      0000  4  00 00 26 00
   454)      6742.1  Rx         070B  1  05 
   455)      6742.1  Error      0000  4  00 00 25 00
   456)      6744.7  Rx         070D  1  05 
   457)      6744.7  Error      0000  4  00 00 24 00
   458)      6786.1  Rx         0080  0  
   459)      6786.2  Error      0000  4  00 00 23 00
   460)      6793.6  Rx         070C  1  05 
   461)      6793.6  Error      0000  4  00 00 22 00
   462)      6794.3  Rx         070B  1  05 
   463)      6794.3  Error      0000  4  00 00 21 00
   464)      6796.2  Rx         01AA  8  FB 1E 5E 00 EC 04 01 00 
   465)      6796.2  Error      0000  4  00 00 20 00
   466)      6796.9  Rx         070D  1  05 
   467)      6796.9  Error      0000  4  00 00 1F 00
   468)      6800.8  Rx         072A  1  05 
   469)      6800.9  Error      0000  4  00 00 1E 00
   470)      6803.9  Rx         020B  8  FF 7F 32 33 C4 09 FF 7F 
   471)      6803.9  Error      0000  4  00 00 1D 00
   472)      6804.1  Rx         030B  1  00 
   473)      6804.1  Error      0000  4  00 00 1C 00
   474)      6804.6  Rx         020C  8  FF 7F 00 00 D0 07 FF 7F 
   475)      6804.6  Error      0000  4  00 00 1B 00
   476)      6804.9  Rx         030C  1  00 
   477)      6804.9  Error      0000  4  00 00 1A 00
   478)      6805.3  Rx         020D  8  00 00 00 00 B8 0B FF 7F 
   479)      6805.4  Error      0000  4  00 00 19 00
   480)      6805.6  Rx         030D  1  00 
   481)      6805.6  Error      0000  4  00 00 18 00
   482)      6806.1  Rx         018C  8  00 00 00 00 00 00 1B 00 
   483)      6806.1  Error      0000  4  00 00 17 00
   484)      6806.6  Rx         028C  8  00 00 FA 1E 2C 00 0B 01 
   485)      6806.6  Error      0000  4  00 00 16 00
   486)      6807.1  Rx         018B  8  00 00 00 00 00 00 25 00 
   487)      6807.1  Error      0000  4  00 00 15 00
   488)      6807.6  Rx         028B  8  00 00 F8 1E 26 00 2F 01 
   489)      6807.6  Error      0000  4  00 00 14 00
   490)      6809.3  Rx         018D  8  00 00 00 00 00 00 18 00 
   491)      6809.3  Error      0000  4  00 00 13 00
   492)      6809.7  Rx         028D  8  00 00 FB 1E 13 00 B9 00 
   493)      6809.8  Error      0000  4  00 00 12 00
   494)      6845.9  Rx         070C  1  05 
   495)      6846.0  Error      0000  4  00 00 11 00
   496)      6846.6  Rx         070B  1  05 
   497)      6846.6  Error      0000  4  00 00 10 00
   498)      6849.1  Rx         070D  1  05 
   499)      6849.1  Error      0000  4  00 00 0F 00
   500)      6878.0  Rx         0703  1  05 
   501)      6878.0  Error      0000  4  00 00 0E 00
   502)      6878.2  Rx         0080  0  
   503)      6878.2  Error      0000  4  00 00 0D 00
   504)      6895.6  Rx         020B  8  FF 7F 32 33 C4 09 FF 7F 
   505)      6895.7  Error      0000  4  00 00 0C 00
   506)      6895.9  Rx         030B  1  00 
   507)      6895.9  Error      0000  4  00 00 0B 00
   508)      6896.4  Rx         01AA  8  04 1F 4F 00 EC 04 01 00 
   509)      6896.4  Error      0000  4  00 00 0A 00
   510)      6896.8  Rx         020C  8  FF 7F 00 00 D0 07 FF 7F 
   511)      6896.9  Error      0000  4  00 00 09 00
   512)      6897.1  Rx         030C  1  00 
   513)      6897.1  Error      0000  4  00 00 08 00
   514)      6897.6  Rx         020D  8  00 00 00 00 B8 0B FF 7F 
   515)      6897.6  Error      0000  4  00 00 07 00
   516)      6897.8  Rx         030D  1  00 
   517)      6897.8  Error      0000  4  00 00 06 00
   518)      6898.1  Rx         070C  1  05 
   519)      6898.1  Error      0000  4  00 00 05 00
   520)      6898.6  Rx         018C  8  3D 00 00 00 00 00 B2 01 
   521)      6898.6  Error      0000  4  00 00 04 00
   522)      6899.1  Rx         028C  8  00 00 EE 1E 36 00 0B 01 
   523)      6899.1  Error      0000  4  00 00 03 00
   524)      6899.3  Rx         070B  1  05 
   525)      6899.3  Error      0000  4  00 00 02 00
   526)      6899.8  Rx         018B  8  28 00 00 00 00 00 4D 01 
   527)      6899.8  Error      0000  4  00 00 01 00
   528)      6900.3  Rx         028B  8  00 00 EC 1E 2F 00 2F 01 
   529)      6900.3  Error      0000  4  00 00 00 00
   530)      6900.9  Rx         072A  1  05 
   531)      6901.3  Rx         070D  1  05 
   532)      6901.8  Rx         018D  8  2B 00 00 00 00 00 5B 01 
   533)      6902.3  Rx         028D  8  00 00 EF 1E 17 00 B9 00 
   534)      6950.6  Rx         070C  1  05 
   535)      6951.2  Rx         070B  1  05 
   536)      6953.7  Rx         070D  1  05 
   537)      6968.7  Rx         0080  0  
   538)      6986.3  Rx         020B  8  FF 7F 32 33 C4 09 FF 7F 
   539)      6986.5  Rx         030B  1  00 
   540)      6987.0  Rx         020C  8  FF 7F 00 00 D0 07 FF 7F 
   541)      6987.2  Rx         030C  1  00 
   542)      6987.7  Rx         018B  8  FF FF 00 00 00 00 03 01 
   543)      6988.2  Rx         020D  8  00 00 00 00 B8 0B FF 7F 
   544)      6988.7  Rx         028B  8  00 00 F8 1E 38 00 2F 01 
   545)      6988.9  Rx         030D  1  00 
   546)      6990.3  Rx         018D  8  00 00 00 00 00 00 10 01 
   547)      6990.8  Rx         028D  8  00 00 07 1F 1B 00 B9 00 
   548)      6991.2  Rx         018C  8  00 00 00 00 00 00 4B 01 
   549)      6991.7  Rx         028C  8  00 00 FA 1E 40 00 0B 01 
   550)      6995.9  Error      0004  4  01 06 01 00
   551)      6996.4  Rx         01AA  8  F2 1E 69 00 EC 04 01 00 
   552)      6996.4  Error      0000  4  00 00 00 00
   553)      7000.9  Rx         072A  1  05 
   554)      7002.7  Rx         070C  1  05 
   555)      7003.3  Rx         070B  1  05 
   556)      7005.9  Rx         070D  1  05 
   557)      7054.9  Rx         070C  1  05 
   558)      7055.6  Rx         070B  1  05 
   559)      7058.1  Rx         070D  1  05 
   560)      7060.3  Rx         0080  0  
   561)      7077.8  Rx         020B  8  FF 7F 32 33 C4 09 FF 7F 
   562)      7078.0  Rx         030B  1  00 
   563)      7078.5  Rx         020C  8  FF 7F 00 00 D0 07 FF 7F 
   564)      7078.7  Rx         030C  1  00 
   565)      7079.2  Rx         020D  8  00 00 00 00 B8 0B FF 7F 
   566)      7079.5  Rx         030D  1  00 
   567)      7080.0  Rx         018C  8  00 00 00 00 00 00 9F 00 
   568)      7080.5  Rx         018B  8  00 00 00 00 00 00 81 00 
   569)      7081.0  Rx         028B  8  00 00 F8 1E 3F 00 2F 01 
   570)      7081.4  Rx         028C  8  00 00 FA 1E 49 00 0B 01 
   571)      7082.6  Rx         018D  8  00 00 00 00 00 00 89 00 
   572)      7083.1  Rx         028D  8  00 00 07 1F 1F 00 B9 00 
   573)      7096.0  Error      0004  4  01 0A 01 00
   574)      7096.4  Error      0004  4  01 0A 02 00
   575)      7096.8  Error      0004  4  01 0A 03 00
   576)      7096.8  Error      0008  4  01 13 0B 00
   577)      7097.4  Error      0002  4  01 1B 0C 00
   578)      7097.5  Error      0004  4  01 05 0D 00
   579)      7103.6  Error      0004  4  01 08 0E 00
   580)      7103.8  Error      0004  4  01 0A 0F 00
   581)      7104.3  Error      0002  4  01 1B 10 00
   582)      7104.8  Rx         01AA  8  02 1F 53 00 EC 04 01 00 
   583)      7104.9  Error      0000  4  00 00 0F 00
   584)      7105.1  Error      0004  4  01 0A 10 00
   585)      7105.3  Rx         072A  1  05 
   586)      7105.4  Error      0000  4  00 00 0F 00
   587)      7107.1  Rx         070C  1  05 
   588)      7107.1  Error      0000  4  00 00 0E 00
   589)      7107.6  Rx         070B  1  05 
   590)      7107.6  Error      0000  4  00 00 0D 00
   591)      7110.2  Rx         070D  1  05 
   592)      7110.2  Error      0000  4  00 00 0C 00
   593)      7151.7  Rx         0080  0  
   594)      7151.8  Error      0000  4  00 00 0B 00
   595)      7159.4  Rx         070C  1  05 
   596)      7159.4  Error      0000  4  00 00 0A 00
   597)      7159.9  Rx         070B  1  05 
   598)      7159.9  Error      0000  4  00 00 09 00
   599)      7162.4  Rx         070D  1  05 
   600)      7162.4  Error      0000  4  00 00 08 00
   601)      7169.2  Rx         020B  8  FF 7F 32 33 C4 09 FF 7F 
   602)      7169.2  Error      0000  4  00 00 07 00
   603)      7169.4  Rx         030B  1  00 
   604)      7169.4  Error      0000  4  00 00 06 00
   605)      7169.9  Rx         020C  8  FF 7F 00 00 D0 07 FF 7F 
   606)      7169.9  Error      0000  4  00 00 05 00
   607)      7170.2  Rx         030C  1  00 
   608)      7170.2  Error      0000  4  00 00 04 00
   609)      7170.6  Rx         020D  8  00 00 00 00 B8 0B FF 7F 
   610)      7170.7  Error      0000  4  00 00 03 00
   611)      7170.9  Rx         030D  1  00 
   612)      7170.9  Error      0000  4  00 00 02 00
   613)      7171.8  Rx         018C  8  00 00 00 00 00 00 55 00 
   614)      7171.8  Error      0000  4  00 00 01 00
   615)      7172.2  Rx         028C  8  00 00 FA 1E 51 00 0B 01 
   616)      7172.3  Error      0000  4  00 00 00 00
   617)      7172.7  Rx         018B  8  00 00 00 00 00 00 48 00 
   618)      7173.2  Rx         028B  8  00 00 F8 1E 46 00 2F 01 
   619)      7174.9  Rx         018D  8  FF FF 00 00 00 00 4E 00 
   620)      7175.4  Rx         028D  8  00 00 FB 1E 23 00 B9 00 
   621)      7196.1  Error      0004  4  01 0A 01 00
   622)      7196.5  Error      0004  4  01 0A 02 00
   623)      7197.0  Error      0002  4  01 1B 02 00
   624)      7197.5  Rx         01AA  8  02 1F 53 00 EC 04 01 00 
   625)      7197.6  Error      0000  4  00 00 01 00
   626)      7200.8  Rx         0703  1  05 
   627)      7200.8  Error      0000  4  00 00 00 00
   628)      7201.1  Rx         072A  1  05 
   629)      7211.5  Rx         070C  1  05 
   630)      7212.0  Rx         070B  1  05 
   631)      7214.6  Rx         070D  1  05 
   632)      7244.9  Rx         0080  0  
   633)      7262.7  Rx         020B  8  FF 7F 32 33 C4 09 FF 7F 
   634)      7262.9  Rx         030B  1  00 
   635)      7263.4  Rx         020C  8  FF 7F 00 00 D0 07 FF 7F 
   636)      7263.6  Rx         030C  1  00 
   637)      7264.1  Rx         020D  8  00 00 00 00 B8 0B FF 7F 
   638)      7264.3  Rx         030D  1  00 
   639)      7264.6  Rx         070B  1  05 
   640)      7264.8  Rx         070C  1  05 
   641)      7265.3  Rx         018B  8  01 00 00 00 00 00 43 00 
   642)      7265.8  Rx         018C  8  00 00 00 00 00 00 2D 00 
   643)      7266.3  Rx         028B  8  00 00 04 1F 4D 00 2F 01 
   644)      7266.7  Rx         028C  8  00 00 FA 1E 59 00 0B 01 
   645)      7267.0  Rx         070D  1  05 
   646)      7267.5  Rx         018D  8  00 00 00 00 00 00 32 00 
   647)      7267.9  Rx         028D  8  00 00 FB 1E 26 00 B9 00 
   648)      7296.3  Rx         01AA  8  02 1F 53 00 EC 04 01 00 
   649)      7301.0  Error      0002  4  01 1A 01 00
   650)      7301.2  Rx         072A  1  05 
   651)      7301.2  Error      0000  4  00 00 00 00
   652)      7315.8  Rx         070C  1  05 
   653)      7316.4  Rx         070B  1  05 
   654)      7318.9  Rx         070D  1  05 
   655)      7336.3  Rx         0080  0  
   656)      7353.8  Rx         020B  8  FF 7F 32 33 C4 09 FF 7F 
   657)      7354.1  Rx         030B  1  00 
   658)      7354.6  Rx         020C  8  FF 7F 00 00 D0 07 FF 7F 
   659)      7354.8  Rx         030C  1  00 
   660)      7355.3  Rx         020D  8  00 00 00 00 B8 0B FF 7F 
   661)      7355.5  Rx         030D  1  00 
   662)      7356.4  Rx         018C  8  00 00 00 00 00 00 25 00 
   663)      7356.9  Rx         028C  8  00 00 FA 1E 60 00 0B 01 
   664)      7357.4  Rx         018B  8  16 00 00 00 00 00 00 01 
   665)      7357.9  Rx         028B  8  00 00 F8 1E 53 00 2F 01 
   666)      7359.5  Rx         018D  8  FF FF 00 00 00 00 20 00 
   667)      7360.0  Rx         028D  8  00 00 FB 1E 29 00 B9 00 
   668)      7368.0  Rx         070C  1  05 
   669)      7368.6  Rx         070B  1  05 
   670)      7371.0  Rx         070D  1  05 
   671)      7396.4  Rx         01AA  8  02 1F 52 00 EC 04 01 00 
   672)      7400.8  Error      0004  4  01 06 01 00
   673)      7401.1  Rx         072A  1  05 
   674)      7401.1  Error      0000  4  00 00 00 00
   675)      7420.2  Rx         070C  1  05 
   676)      7420.8  Rx         070B  1  05 
   677)      7423.3  Rx         070D  1  05 
   678)      7427.4  Rx         0080  0  
   679)      7444.7  Rx         020B  8  FF 7F 32 33 C4 09 FF 7F 
   680)      7444.9  Rx         030B  1  00 
   681)      7445.4  Rx         020C  8  FF 7F 00 00 D0 07 FF 7F 
   682)      7445.7  Rx         030C  1  00 
   683)      7446.1  Rx         020D  8  00 00 00 00 B8 0B FF 7F 
   684)      7446.4  Rx         030D  1  00 
   685)      7447.8  Rx         018D  8  00 00 00 00 00 00 1A 00 
   686)      7448.3  Rx         028D  8  00 00 FB 1E 2B 00 B9 00 
   687)      7448.8  Rx         018C  8  00 00 00 00 00 00 1F 00 
   688)      7449.3  Rx         018B  8  2E 00 00 00 00 00 D7 01 
   689)      7449.8  Rx         028B  8  00 00 04 1F 56 00 2F 01 
   690)      7450.2  Rx         028C  8  00 00 EE 1E 64 00 0B 01 
   691)      7472.4  Rx         070C  1  05 
   692)      7473.0  Rx         070B  1  05 
   693)      7475.4  Rx         070D  1  05 
   694)      7496.4  Rx         01AA  8  FF 1E 56 00 EC 04 01 00 
   695)      7501.0  Rx         072A  1  05 
   696)      7518.3  Rx         0703  1  05 
   697)      7518.5  Rx         0080  0  
   698)      7524.6  Rx         070C  1  05 
   699)      7525.1  Rx         070B  1  05 
   700)      7527.6  Rx         070D  1  05 
   701)      7536.0  Rx         020B  8  FF 7F 32 33 C4 09 FF 7F 
   702)      7536.3  Rx         030B  1  00 
   703)      7536.8  Rx         020C  8  FF 7F 00 00 D0 07 FF 7F 
   704)      7537.0  Rx         030C  1  00 
   705)      7537.5  Rx         020D  8  00 00 00 00 B8 0B FF 7F 
   706)      7538.0  Rx         018B  8  4C 00 00 00 00 00 5F 03 
   707)      7538.4  Rx         028B  8  00 00 EC 1E 5B 00 2F 01 
   708)      7538.7  Rx         030D  1  00 
   709)      7540.1  Rx         018D  8  FF FF 00 00 00 00 21 00 
   710)      7540.5  Rx         028D  8  00 00 EF 1E 2D 00 B9 00 
   711)      7541.1  Rx         018C  8  00 00 00 00 00 00 1E 00 
   712)      7541.6  Rx         028C  8  00 00 EE 1E 69 00 0B 01 
   713)      7576.8  Rx         070C  1  05 
   714)      7577.3  Rx         070B  1  05 
   715)      7579.7  Rx         070D  1  05 
   716)      7596.4  Rx         01AA  8  F9 1E 5E 00 EC 04 01 00 
   717)      7601.0  Rx         072A  1  05 
   718)      7611.4  Rx         0080  0  
   719)      7629.0  Rx         070C  1  05 
   720)      7629.5  Rx         020B  8  FF 7F 32 33 C4 09 FF 7F 
   721)      7629.7  Rx         030B  1  00 
   722)      7630.2  Rx         020C  8  FF 7F 00 00 D0 07 FF 7F 
   723)      7630.4  Rx         030C  1  00 
   724)      7630.9  Rx         020D  8  00 00 00 00 B8 0B FF 7F 
   725)      7631.1  Rx         030D  1  00 
   726)      7631.4  Rx         070B  1  05 
   727)      7632.0  Rx         070D  1  05 
   728)      7632.5  Rx         018D  8  00 00 00 00 00 00 1F 00 
   729)      7633.0  Rx         028D  8  00 00 E3 1E 30 00 B9 00 
   730)      7633.5  Rx         018C  8  00 00 00 00 00 00 22 00 
   731)      7634.0  Rx         018B  8  72 00 00 00 00 00 EF 04 
   732)      7634.4  Rx         028B  8  00 00 D5 1E 60 00 2F 01 
   733)      7634.9  Rx         028C  8  00 00 E2 1E 6F 00 0B 01 
   734)      7636.3  Error      0002  4  01 1A 01 00
   735)      7636.8  Rx         04AA  8  08 30 0A 01 06 14 00 00 
   736)      7636.8  Error      0000  4  00 00 00 00
   737)      7681.2  Rx         070C  1  05 
   738)      7681.7  Rx         070B  1  05 
   739)      7684.1  Rx         070D  1  05 
   740)      7696.4  Error      0002  4  01 1B 01 00
   741)      7696.9  Rx         01AA  8  EE 1E 6E 00 EC 04 01 00 
   742)      7696.9  Error      0000  4  00 00 00 00
   743)      7701.1  Rx         072A  1  05 
   744)      7703.8  Rx         0080  0  
   745)      7721.3  Rx         020B  8  FF 7F 32 33 C4 09 FF 7F 
   746)      7721.5  Rx         030B  1  00 
   747)      7722.0  Rx         020C  8  FF 7F 00 00 D0 07 FF 7F 
   748)      7722.2  Rx         030C  1  00 
   749)      7722.7  Rx         018B  8  90 00 00 00 43 00 0F 06 
   750)      7723.2  Rx         020D  8  00 00 00 00 B8 0B FF 7F 
   751)      7723.7  Rx         028B  8  00 00 D5 1E 64 00 2F 01 
   752)      7723.9  Rx         030D  1  00 
   753)      7724.7  Rx         018D  8  00 00 00 00 00 00 23 00 
   754)      7725.2  Rx         028D  8  00 00 D8 1E 32 00 B9 00 
   755)      7725.8  Rx         018C  8  00 00 00 00 00 00 1D 00 
   756)      7726.3  Rx         028C  8  00 00 D6 1E 74 00 0C 01 
   757)      7733.5  Rx         070C  1  05 
   758)      7733.9  Rx         070B  1  05 
   759)      7736.5  Rx         070D  1  05 
   760)      7785.6  Rx         070C  1  05 
   761)      7786.1  Rx         070B  1  05 
   762)      7788.5  Rx         070D  1  05 
   763)      7794.5  Rx         0080  0  
   764)      7796.5  Rx         01AA  8  D9 1E 8B 00 EC 04 01 00 
   765)      7801.1  Rx         072A  1  05 
   766)      7811.8  Rx         020B  8  FF 7F 32 33 C4 09 FF 7F 
   767)      7812.0  Rx         030B  1  00 
   768)      7812.5  Rx         020C  8  FF 7F 00 00 D0 07 FF 7F 
   769)      7812.7  Rx         030C  1  00 
   770)      7813.2  Rx         020D  8  00 00 00 00 B8 0B FF 7F 
   771)      7813.5  Rx         030D  1  00 
   772)      7814.7  Rx         018C  8  00 00 00 00 00 00 23 00 
   773)      7815.2  Rx         018B  8  7E 00 00 00 8C 00 C8 05 
   774)      7815.6  Rx         028B  8  00 00 E1 1E 68 00 2F 01 
   775)      7816.1  Rx         028C  8  00 00 E2 1E 78 00 0B 01 
   776)      7817.6  Rx         018D  8  00 00 00 00 00 00 25 00 
   777)      7818.1  Rx         028D  8  00 00 E3 1E 34 00 B9 00 
   778)      7837.9  Rx         070C  1  05 
   779)      7838.3  Rx         070B  1  05 
   780)      7840.8  Rx         070D  1  05 
   781)      7842.7  Rx         0703  1  05 
   782)      7885.7  Rx         0080  0  
   783)      7890.0  Rx         070C  1  05 
   784)      7890.4  Rx         070B  1  05 
   785)      7892.8  Rx         070D  1  05 
   786)      7896.5  Rx         01AA  8  DF 1E 80 00 EC 04 01 00 
   787)      7901.1  Rx         072A  1  05 
   788)      7903.7  Rx         020B  8  FF 7F 32 33 C4 09 FF 7F 
   789)      7903.9  Rx         030B  1  00 
   790)      7904.4  Rx         020C  8  FF 7F 00 00 D0 07 FF 7F 
   791)      7904.6  Rx         030C  1  00 
   792)      7905.1  Rx         020D  8  00 00 00 00 B8 0B FF 7F 
   793)      7905.3  Rx         030D  1  00 
   794)      7906.5  Rx         018C  8  00 00 00 00 00 00 21 00 
   795)      7907.0  Rx         028C  8  00 00 CA 1E 7C 00 0B 01 
   796)      7907.5  Rx         018B  8  7C 00 00 00 AF 00 6C 05 
   797)      7907.9  Rx         028B  8  00 00 C9 1E 6B 00 2F 01 
   798)      7909.3  Rx         018D  8  00 00 00 00 00 00 21 00 
   799)      7909.8  Rx         028D  8  00 00 D8 1E 35 00 B9 00 
   800)      7942.4  Rx         070C  1  05 
   801)      7942.6  Rx         070B  1  05 
   802)      7945.3  Rx         070D  1  05 
   803)      7977.5  Rx         0080  0  
   804)      7994.4  Rx         070C  1  05 
   805)      7994.8  Rx         020B  8  FF 7F 32 33 C4 09 FF 7F 
   806)      7995.1  Rx         030B  1  00 
   807)      7995.6  Rx         020C  8  FF 7F 00 00 D0 07 FF 7F 
   808)      7995.8  Rx         030C  1  00 
   809)      7996.3  Rx         020D  8  00 00 00 00 B8 0B FF 7F 
   810)      7996.7  Rx         01AA  8  D6 1E 8D 00 EC 04 01 00 
   811)      7997.0  Rx         030D  1  00 
   812)      7997.2  Rx         070B  1  05 
   813)      7997.4  Rx         070D  1  05 
   814)      7997.9  Rx         018D  8  FF FF 00 00 00 00 1D 00 
   815)      7998.4  Rx         028D  8  00 00 CC 1E 36 00 B9 00 
   816)      7998.9  Rx         018C  8  00 00 00 00 00 00 23 00 
   817)      7999.4  Rx         028C  8  00 00 BF 1E 80 00 0C 01 
   818)      7999.9  Rx         018B  8  8D 00 00 00 CD 00 57 05 
   819)      8000.3  Rx         028B  8  00 00 BD 1E 6F 00 2F 01 
   820)      8001.1  Error      0004  4  01 08 01 00
   821)      8001.2  Error      0008  4  01 13 09 00
   822)      8001.4  Rx         072A  1  05 
   823)      8001.4  Error      0000  4  00 00 08 00
   824)      8046.7  Rx         070C  1  05 
   825)      8046.7  Error      0000  4  00 00 07 00
   826)      8047.1  Rx         070B  1  05 
   827)      8047.1  Error      0000  4  00 00 06 00
   828)      8049.6  Rx         070D  1  05 
   829)      8049.6  Error      0000  4  00 00 05 00
   830)      8070.7  Rx         0080  0  
   831)      8070.7  Error      0000  4  00 00 04 00
   832)      8088.3  Rx         020B  8  FF 7F 32 33 C4 09 FF 7F 
   833)      8088.3  Error      0000  4  00 00 03 00
   834)      8088.5  Rx         030B  1  00 
   835)      8088.5  Error      0000  4  00 00 02 00
   836)      8089.0  Rx         020C  8  FF 7F 00 00 D0 07 FF 7F 
   837)      8089.0  Error      0000  4  00 00 01 00
   838)      8089.2  Rx         030C  1  00 
   839)      8089.2  Error      0000  4  00 00 00 00
   840)      8089.7  Rx         020D  8  00 00 00 00 B8 0B FF 7F 
   841)      8090.0  Rx         030D  1  00 
   842)      8091.2  Rx         018C  8  00 00 00 00 00 00 21 00 
   843)      8091.7  Rx         028C  8  00 00 B3 1E 82 00 0C 01 
   844)      8092.1  Rx         018B  8  BD 00 00 00 EB 00 71 05 
   845)      8092.6  Rx         028B  8  00 00 B2 1E 71 00 2F 01 
   846)      8094.0  Rx         018D  8  00 00 00 00 00 00 1D 00 
   847)      8094.4  Rx         028D  8  00 00 B4 1E 38 00 B9 00 
   848)      8096.5  Error      0002  4  01 1A 01 00
   849)      8097.0  Rx         01AA  8  C8 1E A0 00 EC 04 01 00 
   850)      8097.1  Error      0000  4  00 00 00 00
   851)      8098.7  Rx         070C  1  05 
   852)      8099.1  Rx         070B  1  05 
   853)      8101.2  Rx         072A  1  05 
   854)      8101.5  Rx         070D  1  05 
   855)      8150.9  Rx         070C  1  05 
   856)      8151.3  Rx         070B  1  05 
   857)      8153.8  Rx         070D  1  05 
   858)      8162.4  Rx         0703  1  05 
   859)      8162.6  Rx         0080  0  
   860)      8180.1  Rx         020B  8  FF 7F 32 33 C4 09 FF 7F 
   861)      8180.3  Rx         030B  1  00 
   862)      8180.8  Rx         020C  8  FF 7F 00 00 D0 07 FF 7F 
   863)      8181.0  Rx         030C  1  00 
   864)      8181.5  Rx         020D  8  00 00 00 00 B8 0B FF 7F 
   865)      8181.7  Rx         030D  1  00 
   866)      8182.3  Rx         018D  8  00 00 00 00 00 00 20 00 
   867)      8182.7  Rx         028D  8  00 00 91 1E 39 00 B9 00 
   868)      8183.5  Rx         018C  8  00 00 00 00 00 00 27 00 
   869)      8184.0  Rx         018B  8  E8 00 00 00 08 01 B4 05 
   870)      8184.5  Rx         028B  8  00 00 9A 1E 73 00 2F 01 
   871)      8184.9  Rx         028C  8  00 00 8F 1E 85 00 0B 01 
   872)      8196.5  Error      0002  4  01 1B 01 00
   873)      8196.6  Error      0008  4  01 13 09 00
   874)      8197.0  Rx         01AA  8  B2 1E BD 00 EC 04 01 00 
   875)      8197.1  Error      0000  4  00 00 08 00
   876)      8201.0  Error      0004  4  01 0B 09 00
   877)      8201.1  Error      0008  4  01 13 11 00
   878)      8201.3  Rx         072A  1  05 
   879)      8201.3  Error      0000  4  00 00 10 00
   880)      8203.1  Rx         070C  1  05 
   881)      8203.2  Error      0000  4  00 00 0F 00
   882)      8203.5  Rx         070B  1  05 
   883)      8203.5  Error      0000  4  00 00 0E 00
   884)      8205.9  Rx         070D  1  05 
   885)      8205.9  Error      0000  4  00 00 0D 00
   886)      8253.6  Rx         0080  0  
   887)      8253.6  Error      0000  4  00 00 0C 00
   888)      8255.3  Rx         070C  1  05 
   889)      8255.3  Error      0000  4  00 00 0B 00
   890)      8255.7  Rx         070B  1  05 
   891)      8255.7  Error      0000  4  00 00 0A 00
   892)      8258.2  Rx         070D  1  05 
   893)      8258.2  Error      0000  4  00 00 09 00
   894)      8270.9  Rx         020B  8  FF 7F 32 33 C4 09 FF 7F 
   895)      8271.0  Error      0000  4  00 00 08 00
   896)      8271.2  Rx         030B  1  00 
   897)      8271.2  Error      0000  4  00 00 07 00
   898)      8271.7  Rx         020C  8  FF 7F 00 00 D0 07 FF 7F 
   899)      8271.7  Error      0000  4  00 00 06 00
   900)      8272.1  Rx         018B  8  0B 01 00 00 20 01 FD 05 
   901)      8272.2  Error      0000  4  00 00 05 00
   902)      8272.6  Rx         028B  8  00 00 83 1E 76 00 2F 01 
   903)      8272.6  Error      0000  4  00 00 04 00
   904)      8272.8  Rx         030C  1  00 
   905)      8272.9  Error      0000  4  00 00 03 00
   906)      8273.3  Rx         020D  8  00 00 00 00 B8 0B FF 7F 
   907)      8273.4  Error      0000  4  00 00 02 00
   908)      8273.6  Rx         030D  1  00 
   909)      8273.6  Error      0000  4  00 00 01 00
   910)      8274.7  Rx         018D  8  FF FF 00 00 00 00 1F 00 
   911)      8274.7  Error      0000  4  00 00 00 00
   912)      8275.1  Rx         028D  8  00 00 85 1E 3A 00 B9 00 
   913)      8275.9  Rx         018C  8  FF FF 00 00 00 00 29 00 
   914)      8276.3  Rx         028C  8  00 00 78 1E 88 00 0C 01 
   915)      8296.6  Rx         01AA  8  97 1E E0 00 EC 04 01 00 
   916)      8301.2  Error      0002  4  01 1B 01 00
   917)      8301.5  Rx         072A  1  05 
   918)      8301.5  Error      0000  4  00 00 00 00
   919)      8307.5  Rx         070C  1  05 
   920)      8307.9  Rx         070B  1  05 
   921)      8310.2  Rx         070D  1  05 
   922)      8344.4  Rx         0080  0  
   923)      8359.7  Rx         070C  1  05 
   924)      8360.0  Rx         070B  1  05 
   925)      8362.1  Rx         020B  8  FF 7F 32 33 C4 09 FF 7F 
   926)      8362.3  Rx         030B  1  00 
   927)      8362.8  Rx         020C  8  FF 7F 00 00 D0 07 FF 7F 
   928)      8363.0  Rx         030C  1  00 
   929)      8363.5  Rx         020D  8  00 00 00 00 B8 0B FF 7F 
   930)      8363.8  Rx         030D  1  00 
   931)      8364.3  Rx         018C  8  00 00 00 00 00 00 1B 00 
   932)      8364.7  Rx         028C  8  00 00 6C 1E 8A 00 0C 01 
   933)      8365.2  Rx         018B  8  3E 01 00 00 37 01 60 06 
   934)      8365.7  Rx         028B  8  00 00 6B 1E 78 00 30 01 
   935)      8365.9  Rx         070D  1  05 
   936)      8366.9  Rx         018D  8  00 00 00 00 00 00 23 00 
   937)      8367.4  Rx         028D  8  00 00 79 1E 3B 00 B9 00 
   938)      8396.6  Rx         01AA  8  84 1E F4 00 EC 04 01 00 
   939)      8401.2  Rx         072A  1  05 
   940)      8412.0  Rx         070C  1  05 
   941)      8412.3  Rx         070B  1  05 
   942)      8414.7  Rx         070D  1  05 
   943)      8438.5  Rx         0080  0  
   944)      8456.4  Rx         020B  8  FF 7F 32 33 C4 09 FF 7F 
   945)      8456.6  Rx         030B  1  00 
   946)      8457.1  Rx         020C  8  FF 7F 00 00 D0 07 FF 7F 
   947)      8457.3  Rx         030C  1  00 
   948)      8457.8  Rx         020D  8  00 00 00 00 B8 0B FF 7F 
   949)      8458.0  Rx         030D  1  00 
   950)      8459.3  Rx         018D  8  00 00 00 00 00 00 25 00 
   951)      8459.7  Rx         028D  8  00 00 79 1E 3D 00 B9 00 
   952)      8460.6  Rx         018C  8  00 00 00 00 00 00 18 00 
   953)      8461.1  Rx         028C  8  00 00 6C 1E 8D 00 0C 01 
   954)      8461.5  Rx         018B  8  49 01 00 00 74 01 B2 06 
   955)      8462.0  Rx         028B  8  00 00 6B 1E 7A 00 30 01 
   956)      8464.1  Rx         070C  1  05 
   957)      8464.4  Rx         070B  1  05 
   958)      8466.9  Rx         070D  1  05 
   959)      8486.0  Rx         0703  1  05 
   960)      8496.6  Rx         01AA  8  75 1E 01 01 EC 04 01 00 
   961)      8501.5  Rx         02AA  8  7F 00 00 00 A5 00 00 00 
   962)      8506.3  Rx         072A  1  05 
   963)      8516.5  Rx         070C  1  05 
   964)      8517.2  Rx         070B  1  05 
   965)      8519.2  Rx         070D  1  05 
   966)      8530.9  Rx         0080  0  
   967)      8548.6  Rx         020B  8  FF 7F 32 33 C4 09 FF 7F 
   968)      8548.8  Rx         030B  1  00 
   969)      8549.3  Rx         020C  8  FF 7F 00 00 D0 07 FF 7F 
   970)      8549.8  Rx         018B  8  15 01 00 00 C0 01 43 06 
   971)      8550.3  Rx         028B  8  00 00 83 1E 7C 00 30 01 
   972)      8550.5  Rx         030C  1  00 
   973)      8551.0  Rx         020D  8  00 00 00 00 B8 0B FF 7F 
   974)      8551.2  Rx         030D  1  00 
   975)      8551.7  Rx         018D  8  00 00 00 00 00 00 1F 00 
   976)      8552.9  Rx         018C  8  00 00 00 00 00 00 14 00 
   977)      8553.4  Rx         028C  8  00 00 78 1E 8F 00 0C 01 
   978)      8555.5  Rx         028D  8  00 00 79 1E 3D 00 B9 00 
   979)      8568.5  Rx         070C  1  05 
   980)      8568.8  Rx         070B  1  05 
   981)      8571.2  Rx         070D  1  05 
   982)      8596.4  Error      0004  4  01 0A 01 00
   983)      8596.9  Rx         01AA  8  75 1E FD 00 EC 04 01 00 
   984)      8596.9  Error      0000  4  00 00 00 00
   985)      8601.3  Rx         072A  1  05 
   986)      8620.8  Rx         070C  1  05 
   987)      8621.5  Rx         070B  1  05 
   988)      8622.8  Rx         0080  0  
   989)      8623.5  Rx         070D  1  05 
   990)      8636.6  Rx         04AA  8  09 30 0A 01 06 14 00 00 
   991)      8640.9  Rx         020B  8  FF 7F 32 33 C4 09 FF 7F 
   992)      8641.1  Rx         030B  1  00 
   993)      8641.6  Rx         020C  8  FF 7F 00 00 D0 07 FF 7F 
   994)      8641.9  Rx         030C  1  00 
   995)      8642.4  Rx         020D  8  00 00 00 00 B8 0B FF 7F 
   996)      8642.6  Rx         030D  1  00 
   997)      8643.9  Rx         018D  8  FF FF 00 00 00 00 22 00 
   998)      8644.4  Rx         028D  8  00 00 79 1E 3E 00 B9 00 
   999)      8645.7  Rx         018C  8  00 00 00 00 00 00 1D 00 
  1000)      8646.2  Rx         018B  8  E8 00 00 00 F2 01 7D 05 
  1001)      8646.7  Rx         028B  8  00 00 77 1E 7E 00 30 01 
  1002)      8647.2  Rx         028C  8  00 00 78 1E 91 00 0C 01 
  1003)      8672.8  Rx         070C  1  05 
  1004)      8673.1  Rx         070B  1  05 
  1005)      8675.6  Rx         070D  1  05 
  1006)      8696.7  Error      0002  4  01 1B 01 00
  1007)      8696.7  Error      0008  4  01 13 09 00
  1008)      8697.1  Error      0004  4  01 08 0A 00
  1009)      8697.6  Error      0002  4  01 18 0B 00
  1010)      8697.7  Error      0008  4  01 13 13 00
  1011)      8698.2  Rx         01AA  8  80 1E EA 00 ED 04 01 00 
  1012)      8698.2  Error      0000  4  00 00 12 00
  1013)      8701.3  Rx         072A  1  05 
  1014)      8701.3  Error      0000  4  00 00 11 00
  1015)      8714.9  Rx         0080  0  
  1016)      8714.9  Error      0000  4  00 00 10 00
  1017)      8725.1  Rx         070C  1  05 
  1018)      8725.1  Error      0000  4  00 00 0F 00
  1019)      8725.4  Rx         070B  1  05 
  1020)      8725.4  Error      0000  4  00 00 0E 00
  1021)      8727.7  Rx         070D  1  05 
  1022)      8727.7  Error      0000  4  00 00 0D 00
  1023)      8732.6  Rx         020B  8  FF 7F 32 33 C4 09 FF 7F 
  1024)      8732.6  Error      0000  4  00 00 0C 00
  1025)      8732.8  Rx         030B  1  00 
  1026)      8732.8  Error      0000  4  00 00 0B 00
  1027)      8733.3  Rx         020C  8  FF 7F 00 00 D0 07 FF 7F 
  1028)      8733.3  Error      0000  4  00 00 0A 00
  1029)      8733.5  Rx         030C  1  00 
  1030)      8733.5  Error      0000  4  00 00 09 00
  1031)      8734.0  Rx         020D  8  00 00 00 00 B8 0B FF 7F 
  1032)      8734.0  Error      0000  4  00 00 08 00
  1033)      8734.5  Rx         018B  8  0F 01 00 00 10 02 36 05 
  1034)      8734.5  Error      0000  4  00 00 07 00
  1035)      8735.0  Rx         028B  8  00 00 77 1E 7F 00 30 01 
  1036)      8735.0  Error      0000  4  00 00 06 00
  1037)      8735.2  Rx         030D  1  00 
  1038)      8735.2  Error      0000  4  00 00 05 00
  1039)      8736.2  Rx         018D  8  00 00 00 00 00 00 22 00 
  1040)      8736.2  Error      0000  4  00 00 04 00
  1041)      8736.7  Rx         028D  8  00 00 85 1E 3F 00 B9 00 
  1042)      8736.7  Error      0000  4  00 00 03 00
  1043)      8737.5  Rx         018C  8  00 00 00 00 00 00 19 00 
  1044)      8737.5  Error      0000  4  00 00 02 00
  1045)      8738.0  Rx         028C  8  00 00 6C 1E 93 00 0C 01 
  1046)      8738.0  Error      0000  4  00 00 01 00
  1047)      8777.2  Rx         070C  1  05 
  1048)      8777.2  Error      0000  4  00 00 00 00
  1049)      8777.5  Rx         070B  1  05 
  1050)      8779.9  Rx         070D  1  05 
  1051)      8785.7  Rx         0703  1  05 
  1052)      8796.4  Error      0004  4  01 0A 01 00
  1053)      8796.4  Error      0008  4  01 13 09 00
  1054)      8797.0  Rx         01AA  8  7E 1E EC 00 ED 04 01 00 
  1055)      8797.0  Error      0000  4  00 00 08 00
  1056)      8801.3  Rx         072A  1  05 
  1057)      8801.4  Error      0000  4  00 00 07 00
  1058)      8807.7  Rx         0080  0  
  1059)      8807.7  Error      0000  4  00 00 06 00
  1060)      8825.5  Rx         020B  8  FF 7F 32 33 C4 09 FF 7F 
  1061)      8825.5  Error      0000  4  00 00 05 00
  1062)      8825.7  Rx         030B  1  00 
  1063)      8825.7  Error      0000  4  00 00 04 00
  1064)      8826.2  Rx         020C  8  FF 7F 00 00 D0 07 FF 7F 
  1065)      8826.2  Error      0000  4  00 00 03 00
  1066)      8826.7  Rx         018B  8  09 01 00 00 39 02 04 05 
  1067)      8826.7  Error      0000  4  00 00 02 00
  1068)      8827.1  Rx         028B  8  00 00 6B 1E 80 00 30 01 
  1069)      8827.2  Error      0000  4  00 00 01 00
  1070)      8827.4  Rx         030C  1  00 
  1071)      8827.4  Error      0000  4  00 00 00 00
  1072)      8827.9  Rx         020D  8  00 00 00 00 B8 0B FF 7F 
  1073)      8828.1  Rx         030D  1  00 
  1074)      8828.6  Rx         018D  8  00 00 00 00 00 00 19 00 
  1075)      8829.5  Rx         070C  1  05 
  1076)      8829.8  Rx         070B  1  05 
  1077)      8830.3  Rx         018C  8  00 00 00 00 00 00 1B 00 
  1078)      8830.8  Rx         028C  8  00 00 78 1E 94 00 0C 01 
  1079)      8832.1  Rx         070D  1  05 
  1080)      8832.6  Rx         028D  8  00 00 85 1E 40 00 B9 00 
  1081)      8881.6  Rx         070C  1  05 
  1082)      8881.8  Rx         070B  1  05 
  1083)      8884.3  Rx         070D  1  05 
  1084)      8896.7  Rx         01AA  8  7B 1E EF 00 ED 04 01 00 
  1085)      8901.4  Rx         072A  1  05 
  1086)      8902.2  Rx         0080  0  
  1087)      8919.8  Rx         020B  8  FF 7F 32 33 C4 09 FF 7F 
  1088)      8920.1  Rx         030B  1  00 
  1089)      8920.5  Rx         020C  8  FF 7F 00 00 D0 07 FF 7F 
  1090)      8920.8  Rx         030C  1  00 
  1091)      8921.3  Rx         020D  8  00 00 00 00 B8 0B FF 7F 
  1092)      8921.5  Rx         030D  1  00 
  1093)      8922.2  Rx         018C  8  00 00 00 00 00 00 1B 00 
  1094)      8922.7  Rx         028C  8  00 00 78 1E 95 00 0C 01 
  1095)      8923.2  Rx         018B  8  FF 00 00 00 5E 02 D6 04 
  1096)      8923.7  Rx         028B  8  00 00 77 1E 81 00 31 01 
  1097)      8924.8  Rx         018D  8  00 00 00 00 00 00 1D 00 
  1098)      8925.3  Rx         028D  8  00 00 79 1E 40 00 B9 00 
  1099)      8933.8  Rx         070C  1  05 
  1100)      8934.0  Rx         070B  1  05 
  1101)      8936.4  Rx         070D  1  05 
  1102)      8986.0  Rx         070C  1  05 
  1103)      8986.2  Rx         070B  1  05 
  1104)      8988.6  Rx         070D  1  05 
  1105)      8994.2  Rx         0080  0  
  1106)      8996.7  Rx         01AA  8  79 1E EF 00 ED 04 01 00 
  1107)      9001.4  Rx         072A  1  05 
  1108)      9012.2  Rx         020B  8  FF 7F 32 33 C4 09 FF 7F 
  1109)      9012.4  Rx         030B  1  00 
  1110)      9012.9  Rx         020C  8  FF 7F 00 00 D0 07 FF 7F 
  1111)      9013.1  Rx         030C  1  00 
  1112)      9013.6  Rx         020D  8  00 00 00 00 B8 0B FF 7F 
  1113)      9013.9  Rx         030D  1  00 
  1114)      9014.6  Rx         018C  8  00 00 00 00 00 00 21 00 
  1115)      9015.1  Rx         028C  8  00 00 78 1E 97 00 0C 01 
  1116)      9015.5  Rx         018B  8  13 01 00 00 7F 02 C4 04 
  1117)      9016.0  Rx         028B  8  00 00 77 1E 83 00 31 01 
  1118)      9017.1  Rx         018D  8  FF FF 00 00 00 00 18 00 
  1119)      9017.6  Rx         028D  8  00 00 79 1E 41 00 B9 00 
  1120)      9038.2  Rx         070C  1  05 
  1121)      9038.4  Rx         070B  1  05 
  1122)      9040.7  Rx         070D  1  05 
  1123)      9086.8  Rx         0703  1  05 
  1124)      9087.0  Rx         0080  0  
  1125)      9090.4  Rx         070C  1  05 
  1126)      9091.1  Rx         070B  1  05 
  1127)      9093.0  Rx         070D  1  05 
  1128)      9096.8  Rx         01AA  8  75 1E F4 00 ED 04 01 00 
  1129)      9101.4  Rx         072A  1  05 
  1130)      9104.4  Rx         020B  8  FF 7F 32 33 C4 09 FF 7F 
  1131)      9104.7  Rx         030B  1  00 
  1132)      9105.2  Rx         020C  8  FF 7F 00 00 D0 07 FF 7F 
  1133)      9105.4  Rx         030C  1  00 
  1134)      9105.9  Rx         020D  8  00 00 00 00 B8 0B FF 7F 
  1135)      9106.1  Rx         030D  1  00 
  1136)      9106.9  Rx         018C  8  00 00 00 00 00 00 1B 00 
  1137)      9107.4  Rx         028C  8  00 00 6C 1E 98 00 0C 01 
  1138)      9107.9  Rx         018B  8  1C 01 00 00 A0 02 D5 04 
  1139)      9108.4  Rx         028B  8  00 00 5F 1E 84 00 31 01 
  1140)      9109.9  Rx         018D  8  00 00 00 00 00 00 18 00 
  1141)      9110.4  Rx         028D  8  00 00 6E 1E 41 00 B9 00 
  1142)      9142.6  Rx         070C  1  05 
  1143)      9142.8  Rx         070B  1  05 
  1144)      9145.1  Rx         070D  1  05 
  1145)      9178.7  Rx         0080  0  
  1146)      9194.8  Rx         070C  1  05 
  1147)      9195.0  Rx         070B  1  05 
  1148)      9196.4  Rx         020B  8  FF 7F 32 33 C4 09 FF 7F 
  1149)      9196.9  Rx         01AA  8  70 1E FA 00 ED 04 01 00 
  1150)      9197.1  Rx         030B  1  00 
  1151)      9197.6  Rx         020C  8  FF 7F 00 00 D0 07 FF 7F 
  1152)      9197.8  Rx         030C  1  00 
  1153)      9198.0  Rx         070D  1  05 
  1154)      9198.5  Rx         020D  8  00 00 00 00 B8 0B FF 7F 
  1155)      9198.8  Rx         030D  1  00 
  1156)      9199.3  Rx         018C  8  00 00 00 00 00 00 18 00 
  1157)      9199.7  Rx         018B  8  9B 01 00 00 8C 02 4B 05 
  1158)      9200.2  Rx         028B  8  00 00 48 1E 85 00 31 01 
  1159)      9200.7  Rx         028C  8  00 00 54 1E 99 00 0C 01 
  1160)      9201.4  Error      0002  4  01 1B 01 00
  1161)      9201.9  Rx         018D  8  00 00 00 00 00 00 1B 00 
  1162)      9202.0  Error      0000  4  00 00 00 00
  1163)      9202.4  Rx         028D  8  00 00 56 1E 42 00 B9 00 
  1164)      9202.6  Rx         072A  1  05 
  1165)      9247.0  Rx         070C  1  05 
  1166)      9247.2  Rx         070B  1  05 
  1167)      9249.4  Rx         070D  1  05 
  1168)      9273.5  Rx         0080  0  
  1169)      9291.2  Rx         020B  8  FF 7F 32 33 C4 09 FF 7F 
  1170)      9291.4  Rx         030B  1  00 
  1171)      9291.9  Rx         020C  8  FF 7F 00 00 D0 07 FF 7F 
  1172)      9292.4  Rx         018B  8  1E 02 00 00 BB 02 65 06 
  1173)      9292.9  Rx         028B  8  00 00 3C 1E 86 00 31 01 
  1174)      9293.1  Rx         030C  1  00 
  1175)      9293.6  Rx         020D  8  00 00 00 00 B8 0B FF 7F 
  1176)      9293.8  Rx         030D  1  00 
  1177)      9294.5  Rx         018D  8  FF FF 00 00 00 00 1C 00 
  1178)      9295.0  Rx         028D  8  00 00 4A 1E 42 00 B9 00 
  1179)      9295.6  Rx         018C  8  00 00 00 00 00 00 14 00 
  1180)      9296.1  Rx         028C  8  00 00 3D 1E 9A 00 0C 01 
  1181)      9296.8  Rx         01AA  8  57 1E 19 01 ED 04 01 00 
  1182)      9299.2  Rx         070C  1  05 
  1183)      9299.4  Rx         070B  1  05 
  1184)      9301.4  Rx         072A  1  05 
  1185)      9301.8  Rx         070D  1  05 
  1186)      9351.4  Rx         070C  1  05 
  1187)      9351.6  Rx         070B  1  05 
  1188)      9353.8  Rx         070D  1  05 
  1189)      9365.8  Rx         0080  0  
  1190)      9383.6  Rx         020B  8  FF 7F 32 33 C4 09 FF 7F 
  1191)      9383.8  Rx         030B  1  00 
  1192)      9384.3  Rx         020C  8  FF 7F 00 00 D0 07 FF 7F 
  1193)      9384.5  Rx         030C  1  00 
  1194)      9385.0  Rx         020D  8  00 00 00 00 B8 0B FF 7F 
  1195)      9385.3  Rx         030D  1  00 
  1196)      9386.3  Rx         018D  8  00 00 00 00 00 00 1A 00 
  1197)      9386.8  Rx         028D  8  00 00 62 1E 43 00 B9 00 
  1198)      9388.4  Rx         018C  8  00 00 00 00 00 00 1C 00 
  1199)      9388.9  Rx         018B  8  54 01 00 00 1B 03 C9 05 
  1200)      9389.3  Rx         028B  8  00 00 5F 1E 86 00 31 01 
  1201)      9389.8  Rx         028C  8  00 00 60 1E 9B 00 0C 01 
  1202)      9390.0  Rx         0703  1  05 
  1203)      9396.8  Rx         01AA  8  47 1E 2C 01 ED 04 01 00 
  1204)      9401.5  Rx         072A  1  05 
  1205)      9403.6  Rx         070C  1  05 
  1206)      9403.9  Rx         070B  1  05 
  1207)      9406.1  Rx         070D  1  05 
  1208)      9455.7  Rx         070C  1  05 
  1209)      9456.0  Rx         070B  1  05 
  1210)      9457.6  Rx         0080  0  
  1211)      9458.1  Rx         070D  1  05 
  1212)      9475.2  Rx         020B  8  FF 7F 32 33 C4 09 FF 7F 
  1213)      9475.4  Rx         030B  1  00 
  1214)      9475.9  Rx         020C  8  FF 7F 00 00 D0 07 FF 7F 
  1215)      9476.1  Rx         030C  1  00 
  1216)      9476.6  Rx         018B  8  71 01 00 00 35 03 4A 05 
  1217)      9477.1  Rx         020D  8  00 00 00 00 B8 0B FF 7F 
  1218)      9477.6  Rx         028B  8  00 00 48 1E 87 00 31 01 
  1219)      9477.8  Rx         030D  1  00 
  1220)      9478.7  Rx         018D  8  00 00 00 00 00 00 1A 00 
  1221)      9479.2  Rx         028D  8  00 00 56 1E 43 00 B9 00 
  1222)      9480.3  Rx         018C  8  00 00 00 00 00 00 1E 00 
  1223)      9480.8  Rx         028C  8  00 00 54 1E 9C 00 0C 01 
  1224)      9496.9  Rx         01AA  8  5F 1E 0A 01 ED 04 01 00 
  1225)      9501.5  Rx         072A  1  05 
  1226)      9507.9  Rx         070C  1  05 
  1227)      9508.1  Rx         070B  1  05 
  1228)      9510.5  Rx         070D  1  05 
  1229)      9549.2  Rx         0080  0  
  1230)      9560.1  Rx         070C  1  05 
  1231)      9560.3  Rx         070B  1  05 
  1232)      9562.5  Rx         070D  1  05 
  1233)      9566.8  Rx         020B  8  FF 7F 32 33 C4 09 FF 7F 
  1234)      9567.1  Rx         030B  1  00 
  1235)      9567.6  Rx         020C  8  FF 7F 00 00 D0 07 FF 7F 
  1236)      9567.8  Rx         030C  1  00 
  1237)      9568.3  Rx         020D  8  00 00 00 00 B8 0B FF 7F 
  1238)      9568.8  Rx         018C  8  00 00 00 00 00 00 1A 00 
  1239)      9569.3  Rx         018B  8  70 01 00 00 57 03 33 05 
  1240)      9569.7  Rx         028B  8  00 00 54 1E 88 00 31 01 
  1241)      9570.2  Rx         028C  8  00 00 54 1E 9D 00 0C 01 
  1242)      9570.5  Rx         030D  1  00 
  1243)      9571.0  Rx         018D  8  00 00 00 00 00 00 1F 00 
  1244)      9571.4  Rx         028D  8  00 00 56 1E 43 00 B9 00 
  1245)      9596.9  Error      0002  4  01 1B 01 00
  1246)      9597.4  Rx         01AA  8  59 1E 11 01 ED 04 01 00 
  1247)      9597.4  Error      0000  4  00 00 00 00
  1248)      9601.5  Rx         072A  1  05 
  1249)      9612.3  Rx         070C  1  05 
  1250)      9612.5  Rx         070B  1  05 
  1251)      9614.7  Rx         070D  1  05 
  1252)      9636.8  Error      0002  4  01 1A 01 00
  1253)      9637.3  Rx         04AA  8  0A 30 0A 01 06 14 00 00 
  1254)      9637.3  Error      0000  4  00 00 00 00
  1255)      9641.6  Rx         0080  0  
  1256)      9659.5  Rx         020B  8  FF 7F 32 33 C4 09 FF 7F 
  1257)      9659.7  Rx         030B  1  00 
  1258)      9660.2  Rx         020C  8  FF 7F 00 00 D0 07 FF 7F 
  1259)      9660.4  Rx         030C  1  00 
  1260)      9660.9  Rx         020D  8  00 00 00 00 B8 0B FF 7F 
  1261)      9661.4  Rx         018B  8  6F 01 00 00 7A 03 1B 05 
  1262)      9661.9  Rx         018C  8  00 00 00 00 00 00 18 00 
  1263)      9662.4  Rx         028B  8  00 00 48 1E 88 00 31 01 
  1264)      9662.9  Rx         028C  8  00 00 49 1E 9D 00 0C 01 
  1265)      9663.4  Rx         018D  8  00 00 00 00 00 00 23 00 
  1266)      9663.6  Rx         030D  1  00 
  1267)      9664.5  Rx         070C  1  05 
  1268)      9665.2  Rx         070B  1  05 
  1269)      9666.9  Rx         070D  1  05 
  1270)      9667.4  Rx         028D  8  00 00 56 1E 44 00 B9 00 
  1271)      9691.9  Rx         0703  1  05 
  1272)      9697.0  Rx         01AA  8  56 1E 15 01 ED 04 01 00 
  1273)      9701.6  Rx         072A  1  05 
  1274)      9716.8  Rx         070B  1  05 
  1275)      9717.0  Rx         070C  1  05 
  1276)      9719.2  Rx         070D  1  05 
  1277)      9736.1  Rx         0080  0  
  1278)      9753.5  Rx         020B  8  FF 7F 32 33 C4 09 FF 7F 
  1279)      9753.7  Rx         030B  1  00 
  1280)      9754.2  Rx         020C  8  FF 7F 00 00 D0 07 FF 7F 
  1281)      9754.4  Rx         030C  1  00 
  1282)      9754.9  Rx         020D  8  00 00 00 00 B8 0B FF 7F 
  1283)      9755.1  Rx         030D  1  00 
  1284)      9755.7  Rx         018D  8  00 00 00 00 00 00 27 00 
  1285)      9756.2  Rx         028D  8  00 00 56 1E 44 00 B9 00 
  1286)      9757.4  Rx         018C  8  FF FF 00 00 00 00 1F 00 
  1287)      9757.9  Rx         018B  8  99 01 00 00 9D 03 12 05 
  1288)      9758.4  Rx         028B  8  00 00 48 1E 89 00 31 01 
  1289)      9758.8  Rx         028C  8  00 00 49 1E 9E 00 0C 01 
  1290)      9769.0  Rx         070C  1  05 
  1291)      9769.2  Rx         070B  1  05 
  1292)      9771.4  Rx         070D  1  05 
  1293)      9797.0  Error      0002  4  01 1B 01 00
  1294)      9797.2  Error      0004  4  01 0A 02 00
  1295)      9797.7  Rx         01AA  8  52 1E 18 01 ED 04 01 00 
  1296)      9797.8  Error      0000  4  00 00 01 00
  1297)      9801.7  Rx         072A  1  05 
  1298)      9801.7  Error      0000  4  00 00 00 00
  1299)      9821.1  Rx         070B  1  05 
  1300)      9821.4  Rx         070C  1  05 
  1301)      9823.5  Rx         070D  1  05 
  1302)      9827.9  Rx         0080  0  
  1303)      9845.8  Rx         020B  8  FF 7F 32 33 C4 09 FF 7F 
  1304)      9846.0  Rx         030B  1  00 
  1305)      9846.5  Rx         020C  8  FF 7F 00 00 D0 07 FF 7F 
  1306)      9846.8  Rx         030C  1  00 
  1307)      9847.3  Rx         020D  8  00 00 00 00 B8 0B FF 7F 
  1308)      9847.5  Rx         030D  1  00 
  1309)      9848.1  Rx         018D  8  00 00 00 00 00 00 26 00 
  1310)      9848.5  Rx         028D  8  00 00 56 1E 44 00 B9 00 
  1311)      9849.8  Rx         018C  8  00 00 00 00 00 00 25 00 
  1312)      9850.2  Rx         018B  8  BB 01 00 00 C0 03 0F 05 
  1313)      9850.7  Rx         028B  8  00 00 48 1E 89 00 32 01 
  1314)      9851.2  Rx         028C  8  00 00 49 1E 9F 00 0C 01 
  1315)      9873.4  Rx         070B  1  05 
  1316)      9873.6  Rx         070C  1  05 
  1317)      9875.7  Rx         070D  1  05 
  1318)      9897.1  Rx         01AA  8  4D 1E 1D 01 ED 04 01 00 
  1319)      9901.7  Rx         072A  1  05 
  1320)      9920.0  Rx         0080  0  
  1321)      9925.5  Rx         070B  1  05 
  1322)      9925.7  Rx         070C  1  05 
  1323)      9927.9  Rx         070D  1  05 
  1324)      9937.5  Rx         020B  8  FF 7F 32 33 C4 09 FF 7F 
  1325)      9937.7  Rx         030B  1  00 
  1326)      9938.2  Rx         020C  8  FF 7F 00 00 D0 07 FF 7F 
  1327)      9938.7  Rx         018B  8  D6 01 00 00 B3 03 33 05 
  1328)      9939.2  Rx         028B  8  00 00 25 1E 8A 00 32 01 
  1329)      9939.4  Rx         030C  1  00 
  1330)      9939.9  Rx         020D  8  00 00 00 00 B8 0B FF 7F 
  1331)      9940.1  Rx         030D  1  00 
  1332)      9942.1  Rx         018C  8  00 00 00 00 00 00 22 00 
  1333)      9942.6  Rx         028C  8  00 00 31 1E 9F 00 0C 01 
  1334)      9944.4  Rx         018D  8  00 00 00 00 00 00 26 00 
  1335)      9944.9  Rx         028D  8  00 00 33 1E 44 00 B9 00 
  1336)      9977.8  Rx         070B  1  05 
  1337)      9978.0  Rx         070C  1  05 
  1338)      9980.1  Rx         070D  1  05 
  1339)      9997.1  Rx         01AA  8  47 1E 24 01 ED 04 01 00 
  1340)     10001.7  Rx         072A  1  05 
  1341)     10011.2  Rx         0703  1  05 
  1342)     10011.4  Rx         0080  0  
  1343)     10028.7  Rx         020B  8  FF 7F 32 33 C4 09 FF 7F 
  1344)     10029.0  Rx         030B  1  00 
  1345)     10029.4  Rx         020C  8  FF 7F 00 00 D0 07 FF 7F 
  1346)     10029.7  Rx         030C  1  00 
  1347)     10030.2  Rx         020D  8  00 00 00 00 B8 0B FF 7F 
  1348)     10030.4  Rx         030D  1  00 
  1349)     10030.6  Rx         070B  1  05 
  1350)     10031.1  Rx         018B  8  AB 04 00 00 AC 02 1D 08 
  1351)     10031.6  Rx         028B  8  00 00 A3 1D 8A 00 32 01 
  1352)     10031.8  Rx         070C  1  05 
  1353)     10032.3  Rx         018C  8  00 00 00 00 00 00 21 00 
  1354)     10032.8  Rx         028C  8  00 00 AF 1D A0 00 0C 01 
  1355)     10033.0  Rx         070D  1  05 
  1356)     10033.5  Rx         018D  8  00 00 00 00 00 00 21 00 
  1357)     10034.0  Rx         028D  8  00 00 C9 1D 45 00 B9 00 
  1358)     10082.0  Rx         070B  1  05 
  1359)     10082.3  Rx         070C  1  05 
  1360)     10084.4  Rx         070D  1  05 
  1361)     10097.1  Error      0002  4  01 1A 01 00
  1362)     10097.4  Error      0002  4  01 18 02 00
  1363)     10097.4  Error      0008  4  01 13 0A 00
  1364)     10098.0  Rx         01AA  8  FB 1D 8D 01 ED 04 01 00 
  1365)     10098.0  Error      0000  4  00 00 09 00
  1366)     10101.7  Rx         072A  1  05 
  1367)     10101.8  Error      0000  4  00 00 08 00
  1368)     10105.3  Rx         0080  0  
  1369)     10105.3  Error      0000  4  00 00 07 00
  1370)     10123.1  Rx         020B  8  FF 7F 32 33 C4 09 FF 7F 
  1371)     10123.1  Error      0000  4  00 00 06 00
  1372)     10123.3  Rx         030B  1  00 
  1373)     10123.3  Error      0000  4  00 00 05 00
  1374)     10123.8  Rx         020C  8  FF 7F 00 00 D0 07 FF 7F 
  1375)     10123.8  Error      0000  4  00 00 04 00
  1376)     10124.0  Rx         030C  1  00 
  1377)     10124.0  Error      0000  4  00 00 03 00
  1378)     10124.5  Rx         020D  8  00 00 00 00 B8 0B FF 7F 
  1379)     10124.5  Error      0000  4  00 00 02 00
  1380)     10124.7  Rx         030D  1  00 
  1381)     10124.7  Error      0000  4  00 00 01 00
  1382)     10125.4  Rx         018D  8  00 00 00 00 00 00 21 00 
  1383)     10125.4  Error      0000  4  00 00 00 00
  1384)     10125.9  Rx         028D  8  00 00 D5 1D 45 00 B9 00 
  1385)     10126.8  Rx         018C  8  00 00 00 00 00 00 1B 00 
  1386)     10127.2  Rx         018B  8  22 05 00 00 8D 03 1F 0B 
  1387)     10127.7  Rx         028B  8  00 00 C7 1D 8B 00 32 01 
  1388)     10128.2  Rx         028C  8  00 00 BB 1D A0 00 0C 01 
  1389)     10134.2  Rx         070B  1  05 
  1390)     10134.4  Rx         070C  1  05 
  1391)     10136.6  Rx         070D  1  05 
  1392)     10186.4  Rx         070B  1  05 
  1393)     10186.7  Rx         070C  1  05 
  1394)     10188.9  Rx         070D  1  05 
  1395)     10196.5  Rx         0080  0  
  1396)     10197.1  Rx         01AA  8  97 1D 0D 02 ED 04 01 00 
  1397)     10201.8  Rx         072A  1  05 
  1398)     10214.1  Rx         020B  8  FF 7F 32 33 C4 09 FF 7F 
  1399)     10214.3  Rx         030B  1  00 
  1400)     10214.8  Rx         020C  8  FF 7F 00 00 D0 07 FF 7F 
  1401)     10215.3  Rx         018B  8  FF 00 00 00 14 04 95 07 
  1402)     10215.7  Rx         028B  8  00 00 3C 1E 8B 00 32 01 
  1403)     10216.0  Rx         030C  1  00 
  1404)     10216.5  Rx         020D  8  00 00 00 00 B8 0B FF 7F 
  1405)     10216.7  Rx         030D  1  00 
  1406)     10217.3  Rx         018D  8  00 00 00 00 00 00 1E 00 
  1407)     10217.8  Rx         028D  8  00 00 4A 1E 45 00 B9 00 
  1408)     10219.5  Rx         018C  8  00 00 00 00 00 00 1A 00 
  1409)     10220.0  Rx         028C  8  00 00 3D 1E A1 00 0C 01 
  1410)     10238.5  Rx         070B  1  05 
  1411)     10238.8  Rx         070C  1  05 
  1412)     10241.0  Rx         070D  1  05 
  1413)     10288.1  Rx         0080  0  
  1414)     10290.8  Rx         070B  1  05 
  1415)     10291.0  Rx         070C  1  05 
  1416)     10293.1  Rx         070D  1  05 
  1417)     10297.1  Rx         01AA  8  40 1E 23 01 ED 04 01 00 
  1418)     10301.8  Rx         072A  1  05 
  1419)     10305.8  Rx         020B  8  FF 7F 32 33 C4 09 FF 7F 
  1420)     10306.0  Rx         030B  1  00 
  1421)     10306.5  Rx         020C  8  FF 7F 00 00 D0 07 FF 7F 
  1422)     10306.8  Rx         030C  1  00 
  1423)     10307.3  Rx         020D  8  00 00 00 00 B8 0B FF 7F 
  1424)     10307.7  Rx         018B  8  CF 01 00 00 DA 03 34 06 
  1425)     10308.2  Rx         018C  8  00 00 00 00 00 00 1E 00 
  1426)     10308.7  Rx         028B  8  00 00 25 1E 8B 00 32 01 
  1427)     10309.2  Rx         028C  8  00 00 25 1E A1 00 0C 01 
  1428)     10309.7  Rx         018D  8  00 00 00 00 00 00 21 00 
  1429)     10309.9  Rx         030D  1  00 
  1430)     10311.1  Rx         0703  1  05 
  1431)     10313.6  Rx         028D  8  00 00 27 1E 45 00 B9 00 
  1432)     10342.9  Rx         070B  1  05 
  1433)     10343.2  Rx         070C  1  05 
  1434)     10345.3  Rx         070D  1  05 
  1435)     10379.3  Rx         0080  0  
  1436)     10395.1  Rx         070B  1  05 
  1437)     10395.3  Rx         070C  1  05 
  1438)     10396.9  Rx         020B  8  FF 7F 32 33 C4 09 FF 7F 
  1439)     10397.3  Rx         01AA  8  2F 1E 3C 01 ED 04 01 00 
  1440)     10397.6  Rx         030B  1  00 
  1441)     10398.1  Rx         020C  8  FF 7F 00 00 D0 07 FF 7F 
  1442)     10398.3  Rx         030C  1  00 
  1443)     10398.8  Rx         020D  8  00 00 00 00 B8 0B FF 7F 
  1444)     10399.0  Rx         030D  1  00 
  1445)     10399.2  Rx         070D  1  05 
  1446)     10399.8  Rx         018C  8  00 00 00 00 00 00 1E 00 
  1447)     10400.2  Rx         018B  8  F3 01 00 00 DE 03 AE 05 
  1448)     10400.7  Rx         028B  8  00 00 25 1E 8C 00 32 01 
  1449)     10401.2  Rx         028C  8  00 00 25 1E A1 00 0C 01 
  1450)     10401.9  Rx         018D  8  00 00 00 00 00 00 23 00 
  1451)     10402.4  Rx         028D  8  00 00 27 1E 45 00 B9 00 
  1452)     10402.6  Error      0002  4  01 1A 01 00
  1453)     10402.9  Rx         072A  1  05 
  1454)     10402.9  Error      0000  4  00 00 00 00
  1455)     10447.3  Rx         070B  1  05 
  1456)     10447.6  Rx         070C  1  05 
  1457)     10449.7  Rx         070D  1  05 
  1458)     10471.2  Rx         0080  0  
  1459)     10489.4  Rx         020B  8  FF 7F 32 33 C4 09 FF 7F 
  1460)     10489.6  Rx         030B  1  00 
  1461)     10490.1  Rx         020C  8  FF 7F 00 00 D0 07 FF 7F 
  1462)     10490.3  Rx         030C  1  00 
  1463)     10490.8  Rx         020D  8  00 00 00 00 B8 0B FF 7F 
  1464)     10491.0  Rx         030D  1  00 
  1465)     10492.1  Rx         018C  8  00 00 00 00 00 00 22 00 
  1466)     10492.6  Rx         018B  8  C1 01 00 00 D9 03 78 05 
  1467)     10493.1  Rx         028B  8  00 00 25 1E 8C 00 32 01 
  1468)     10493.5  Rx         028C  8  00 00 25 1E A2 00 0C 01 
  1469)     10494.2  Rx         018D  8  00 00 00 00 00 00 22 00 
  1470)     10494.7  Rx         028D  8  00 00 27 1E 46 00 B9 00 
  1471)     10497.2  Rx         01AA  8  2C 1E 3F 01 ED 04 01 00 
  1472)     10499.5  Rx         070B  1  05 
  1473)     10499.7  Rx         070C  1  05 
  1474)     10501.8  Rx         070D  1  05 
  1475)     10502.0  Rx         072A  1  05 
  1476)     10551.7  Rx         070B  1  05 
  1477)     10551.9  Rx         070C  1  05 
  1478)     10554.1  Rx         070D  1  05 
  1479)     10564.8  Rx         0080  0  
  1480)     10582.2  Rx         020B  8  FF 7F 32 33 C4 09 FF 7F 
  1481)     10582.4  Rx         030B  1  00 
  1482)     10582.9  Rx         020C  8  FF 7F 00 00 D0 07 FF 7F 
  1483)     10583.1  Rx         030C  1  00 
  1484)     10583.6  Rx         020D  8  00 00 00 00 B8 0B FF 7F 
  1485)     10583.8  Rx         030D  1  00 
  1486)     10584.5  Rx         018C  8  00 00 00 00 00 00 25 00 
  1487)     10584.9  Rx         018B  8  CF 01 00 00 D7 03 6C 05 
  1488)     10585.4  Rx         028B  8  00 00 25 1E 8C 00 32 01 
  1489)     10585.9  Rx         028C  8  00 00 25 1E A2 00 0C 01 
  1490)     10586.6  Rx         018D  8  00 00 00 00 00 00 23 00 
  1491)     10587.1  Rx         028D  8  00 00 27 1E 46 00 B9 00 
  1492)     10597.2  Rx         01AA  8  2C 1E 3E 01 ED 04 01 00 
  1493)     10601.8  Rx         072A  1  05 
  1494)     10603.8  Rx         070B  1  05 
  1495)     10604.1  Rx         070C  1  05 
  1496)     10606.1  Rx         070D  1  05 
  1497)     10611.9  Rx         0703  1  05 
  1498)     10637.1  Rx         04AA  8  0B 30 0A 01 06 14 00 00 
  1499)     10655.6  Rx         0080  0  
  1500)     10656.1  Rx         070B  1  05 
  1501)     10656.3  Rx         070C  1  05 
  1502)     10658.5  Rx         070D  1  05 
  1503)     10673.2  Rx         020B  8  FF 7F 32 33 C4 09 FF 7F 
  1504)     10673.5  Rx         030B  1  00 
  1505)     10674.0  Rx         020C  8  FF 7F 00 00 D0 07 FF 7F 
  1506)     10674.2  Rx         030C  1  00 
  1507)     10674.7  Rx         020D  8  00 00 00 00 B8 0B FF 7F 
  1508)     10674.9  Rx         030D  1  00 
  1509)     10676.7  Rx         018C  8  00 00 00 00 00 00 1F 00 
  1510)     10677.2  Rx         018B  8  EF 01 00 00 D3 03 7E 05 
  1511)     10677.7  Rx         028B  8  00 00 19 1E 8D 00 33 01 
  1512)     10678.1  Rx         028C  8  00 00 19 1E A2 00 0C 01 
  1513)     10678.7  Rx         018D  8  00 00 00 00 00 00 22 00 
  1514)     10679.2  Rx         028D  8  00 00 27 1E 46 00 B9 00 
  1515)     10696.9  Error      0004  4  01 0A 01 00
  1516)     10697.4  Rx         01AA  8  29 1E 42 01 ED 04 01 00 
  1517)     10697.4  Error      0000  4  00 00 00 00
  1518)     10701.8  Rx         072A  1  05 
  1519)     10708.1  Rx         070B  1  05 
  1520)     10708.4  Rx         070C  1  05 
  1521)     10710.4  Rx         070D  1  05 
  1522)     10747.0  Rx         0080  0  
  1523)     10760.3  Rx         070B  1  05 
  1524)     10760.6  Rx         070C  1  05 
  1525)     10762.7  Rx         070D  1  05 
  1526)     10764.6  Rx         020B  8  FF 7F 32 33 C4 09 FF 7F 
  1527)     10764.9  Rx         030B  1  00 
  1528)     10765.4  Rx         020C  8  FF 7F 00 00 D0 07 FF 7F 
  1529)     10765.6  Rx         030C  1  00 
  1530)     10766.1  Rx         020D  8  00 00 00 00 B8 0B FF 7F 
  1531)     10766.3  Rx         030D  1  00 
  1532)     10767.0  Rx         018D  8  00 00 00 00 00 00 23 00 
  1533)     10767.5  Rx         028D  8  00 00 27 1E 46 00 B9 00 
  1534)     10769.0  Rx         018C  8  00 00 00 00 00 00 1D 00 
  1535)     10769.5  Rx         018B  8  C3 01 00 00 DB 03 7D 05 
  1536)     10770.0  Rx         028B  8  00 00 25 1E 8D 00 33 01 
  1537)     10770.5  Rx         028C  8  00 00 25 1E A2 00 0C 01 
  1538)     10797.2  Rx         01AA  8  24 1E 48 01 ED 04 01 00 
  1539)     10801.8  Rx         072A  1  05 
  1540)     10812.4  Rx         070B  1  05 
  1541)     10812.7  Rx         070C  1  05 
  1542)     10814.7  Rx         070D  1  05 
  1543)     10839.0  Rx         0080  0  
  1544)     10856.8  Rx         020B  8  FF 7F 32 33 C4 09 FF 7F 
  1545)     10857.0  Rx         030B  1  00 
  1546)     10857.5  Rx         020C  8  FF 7F 00 00 D0 07 FF 7F 
  1547)     10857.7  Rx         030C  1  00 
  1548)     10858.2  Rx         020D  8  00 00 00 00 B8 0B FF 7F 
  1549)     10858.4  Rx         030D  1  00 
  1550)     10859.8  Rx         018D  8  00 00 00 00 00 00 20 00 
  1551)     10860.3  Rx         028D  8  00 00 1B 1E 46 00 B9 00 
  1552)     10861.4  Rx         018C  8  00 00 00 00 00 00 1E 00 
  1553)     10861.9  Rx         018B  8  1F 02 00 00 C2 03 8B 05 
  1554)     10862.3  Rx         028B  8  00 00 0D 1E 8D 00 33 01 
  1555)     10862.8  Rx         028C  8  00 00 0E 1E A3 00 0C 01 
  1556)     10864.6  Rx         070B  1  05 
  1557)     10864.9  Rx         070C  1  05 
  1558)     10867.0  Rx         070D  1  05 
  1559)     10897.2  Rx         01AA  8  24 1E 46 01 ED 04 01 00 
  1560)     10901.8  Rx         072A  1  05 
  1561)     10916.8  Rx         070B  1  05 
  1562)     10917.1  Rx         070C  1  05 
  1563)     10919.1  Rx         070D  1  05 
  1564)     10932.9  Rx         0703  1  05 
  1565)     10933.1  Rx         0080  0  
  1566)     10950.5  Rx         020B  8  FF 7F 32 33 C4 09 FF 7F 
  1567)     10950.8  Rx         030B  1  00 
  1568)     10951.3  Rx         020C  8  FF 7F 00 00 D0 07 FF 7F 
  1569)     10951.5  Rx         030C  1  00 
  1570)     10952.0  Rx         020D  8  00 00 00 00 B8 0B FF 7F 
  1571)     10952.2  Rx         030D  1  00 
  1572)     10953.7  Rx         018B  8  C7 05 00 00 52 02 09 0A 
  1573)     10954.2  Rx         018C  8  00 00 00 00 00 00 19 00 
  1574)     10954.7  Rx         028B  8  00 00 5D 1D 8D 00 33 01 
  1575)     10955.2  Rx         028C  8  00 00 68 1D A3 00 0C 01 
  1576)     10956.1  Rx         018D  8  FF FF 00 00 00 00 25 00 
  1577)     10956.6  Rx         028D  8  00 00 6B 1D 46 00 B9 00 
  1578)     10968.9  Rx         070B  1  05 
  1579)     10969.4  Rx         070C  1  05 
  1580)     10971.4  Rx         070D  1  05 
  1581)     10997.0  Error      0004  4  01 0A 01 00
  1582)     10997.5  Error      0002  4  01 1B 02 00
  1583)     10998.0  Rx         01AA  8  EA 1D 94 01 ED 04 01 00 
  1584)     10998.0  Error      0000  4  00 00 01 00
  1585)     11001.8  Rx         072A  1  05 
  1586)     11001.8  Error      0000  4  00 00 00 00
  1587)     11021.2  Rx         070B  1  05 
  1588)     11021.5  Rx         070C  1  05 
  1589)     11023.4  Rx         070D  1  05 
  1590)     11024.2  Rx         0080  0  
  1591)     11041.5  Rx         020B  8  FF 7F 32 33 C4 09 FF 7F 
  1592)     11041.7  Rx         030B  1  00 
  1593)     11042.2  Rx         020C  8  FF 7F 00 00 D0 07 FF 7F 
  1594)     11042.4  Rx         030C  1  00 
  1595)     11042.9  Rx         020D  8  00 00 00 00 B8 0B FF 7F 
  1596)     11043.2  Rx         030D  1  00 
  1597)     11044.0  Rx         018D  8  FF FF 00 00 00 00 1D 00 
  1598)     11044.5  Rx         028D  8  00 00 18 1D 46 00 B9 00 
  1599)     11046.0  Rx         018C  8  00 00 00 00 00 00 17 00 
  1600)     11046.5  Rx         018B  8  EF 08 00 00 6D 02 B0 0E 
  1601)     11047.0  Rx         028B  8  00 00 F3 1C 8D 00 33 01 
  1602)     11047.5  Rx         028C  8  00 00 0A 1D A3 00 0C 01 
  1603)     11073.3  Rx         070B  1  05 
  1604)     11073.7  Rx         070C  1  05 
  1605)     11075.7  Rx         070D  1  05 
  1606)     11097.2  Rx         01AA  8  38 1D 84 02 ED 04 01 00 
  1607)     11101.9  Rx         072A  1  05 
  1608)     11115.0  Rx         0080  0  
  1609)     11125.6  Rx         070B  1  05 
  1610)     11125.9  Rx         070C  1  05 
  1611)     11127.8  Rx         070D  1  05 
  1612)     11132.7  Rx         020B  8  FF 7F 32 33 C4 09 FF 7F 
  1613)     11132.9  Rx         030B  1  00 
  1614)     11133.4  Rx         020C  8  FF 7F 00 00 D0 07 FF 7F 
  1615)     11133.6  Rx         030C  1  00 
  1616)     11134.1  Rx         020D  8  00 00 00 00 B8 0B FF 7F 
  1617)     11134.6  Rx         018B  8  80 04 00 00 87 03 F1 0D 
  1618)     11135.1  Rx         018C  8  00 00 00 00 00 00 1D 00 
  1619)     11135.6  Rx         028B  8  00 00 80 1D 8D 00 33 01 
  1620)     11136.1  Rx         028C  8  00 00 8C 1D A3 00 0C 01 
  1621)     11136.5  Rx         018D  8  00 00 00 00 00 00 1D 00 
  1622)     11136.8  Rx         030D  1  00 
  1623)     11140.3  Rx         028D  8  00 00 A6 1D 46 00 B9 00 
  1624)     11177.7  Rx         070B  1  05 
  1625)     11178.1  Rx         070C  1  05 
  1626)     11180.1  Rx         070D  1  05 
  1627)     11197.2  Rx         01AA  8  55 1D 4A 02 ED 04 01 00 
  1628)     11201.9  Rx         072A  1  05 
  1629)     11206.5  Rx         0080  0  
  1630)     11224.2  Rx         020B  8  FF 7F 32 33 C4 09 FF 7F 
  1631)     11224.4  Rx         030B  1  00 
  1632)     11224.9  Rx         020C  8  FF 7F 00 00 D0 07 FF 7F 
  1633)     11225.1  Rx         030C  1  00 
  1634)     11225.6  Rx         020D  8  00 00 00 00 B8 0B FF 7F 
  1635)     11225.9  Rx         030D  1  00 
  1636)     11226.6  Rx         018B  8  18 03 00 00 DC 03 A7 0A 
  1637)     11227.1  Rx         018C  8  00 00 00 00 00 00 15 00 
  1638)     11227.6  Rx         028B  8  00 00 C7 1D 8E 00 33 01 
  1639)     11228.0  Rx         028C  8  00 00 D3 1D A3 00 0C 01 
  1640)     11228.7  Rx         018D  8  00 00 00 00 00 00 1A 00 
  1641)     11229.1  Rx         028D  8  00 00 EC 1D 46 00 B9 00 
  1642)     11229.9  Rx         070B  1  05 
  1643)     11230.3  Rx         070C  1  05 
  1644)     11232.2  Rx         070D  1  05 
  1645)     11254.3  Rx         0703  1  05 
  1646)     11282.0  Rx         070B  1  05 
  1647)     11282.4  Rx         070C  1  05 
  1648)     11284.4  Rx         070D  1  05 
  1649)     11297.3  Rx         01AA  8  B8 1D C2 01 ED 04 01 00 
  1650)     11298.5  Rx         0080  0  
  1651)     11301.9  Rx         072A  1  05 
  1652)     11316.4  Rx         020B  8  FF 7F 32 33 C4 09 FF 7F 
  1653)     11316.6  Rx         030B  1  00 
  1654)     11317.1  Rx         020C  8  FF 7F 00 00 D0 07 FF 7F 
  1655)     11317.3  Rx         030C  1  00 
  1656)     11317.8  Rx         020D  8  00 00 00 00 B8 0B FF 7F 
  1657)     11318.1  Rx         030D  1  00 
  1658)     11319.1  Rx         018C  8  00 00 00 00 00 00 16 00 
  1659)     11319.6  Rx         018B  8  93 01 00 00 02 04 5B 07 
  1660)     11320.0  Rx         028B  8  00 00 01 1E 8E 00 33 01 
  1661)     11320.5  Rx         028C  8  00 00 02 1E A3 00 0C 01 
  1662)     11321.0  Rx         018D  8  00 00 00 00 00 00 19 00 
  1663)     11321.5  Rx         028D  8  00 00 0F 1E 46 00 B9 00 
  1664)     11334.7  Rx         070B  1  05 
  1665)     11334.9  Rx         070C  1  05 
  1666)     11336.6  Rx         070D  1  05 
  1667)     11386.4  Rx         070B  1  05 
  1668)     11386.8  Rx         070C  1  05 
  1669)     11388.8  Rx         070D  1  05 
  1670)     11392.0  Rx         0080  0  
  1671)     11397.3  Error      0002  4  01 18 01 00
  1672)     11397.8  Rx         01AA  8  07 1E 5D 01 ED 04 01 00 
  1673)     11397.8  Error      0000  4  00 00 00 00
  1674)     11401.9  Error      0002  4  01 1A 01 00
  1675)     11402.2  Rx         072A  1  05 
  1676)     11402.3  Error      0000  4  00 00 00 00
  1677)     11409.6  Rx         020B  8  FF 7F 32 33 C4 09 FF 7F 
  1678)     11409.8  Rx         030B  1  00 
  1679)     11410.3  Rx         020C  8  FF 7F 00 00 D0 07 FF 7F 
  1680)     11410.6  Rx         030C  1  00 
  1681)     11411.0  Rx         020D  8  00 00 00 00 B8 0B FF 7F 
  1682)     11411.5  Rx         018B  8  12 02 00 00 CE 03 15 06 
  1683)     11412.0  Rx         018C  8  00 00 00 00 00 00 1F 00 
  1684)     11412.5  Rx         028B  8  00 00 EA 1D 8E 00 33 01 
  1685)     11413.0  Rx         028C  8  00 00 EA 1D A4 00 0C 01 
  1686)     11413.5  Rx         018D  8  00 00 00 00 00 00 1C 00 
  1687)     11413.7  Rx         030D  1  00 
  1688)     11417.3  Rx         028D  8  00 00 EC 1D 46 00 B9 00 
  1689)     11438.6  Rx         070B  1  05 
  1690)     11439.1  Rx         070C  1  05 
  1691)     11440.9  Rx         070D  1  05 
  1692)     11483.6  Rx         0080  0  
  1693)     11490.7  Rx         070B  1  05 
  1694)     11491.2  Rx         070C  1  05 
  1695)     11493.1  Rx         070D  1  05 
  1696)     11497.3  Rx         01AA  8  F6 1D 75 01 ED 04 01 00 
  1697)     11501.9  Error      0002  4  01 1A 01 00
  1698)     11502.4  Rx         020B  8  FF 7F 32 33 C4 09 FF 7F 
  1699)     11502.5  Error      0000  4  00 00 00 00
  1700)     11502.7  Rx         030B  1  00 
  1701)     11503.2  Rx         020C  8  FF 7F 00 00 D0 07 FF 7F 
  1702)     11503.6  Rx         018B  8  7D 02 00 00 B8 03 3A 06 
  1703)     11504.1  Rx         018C  8  00 00 00 00 00 00 1A 00 
  1704)     11504.6  Rx         028B  8  00 00 DE 1D 8E 00 34 01 
  1705)     11504.8  Rx         030C  1  00 
  1706)     11505.3  Rx         020D  8  00 00 00 00 B8 0B FF 7F 
  1707)     11505.6  Rx         030D  1  00 
  1708)     11505.8  Rx         072A  1  05 
  1709)     11507.7  Rx         028C  8  00 00 DE 1D A4 00 0C 01 
  1710)     11509.6  Rx         018D  8  00 00 00 00 00 00 1B 00 
  1711)     11510.1  Rx         028D  8  00 00 E0 1D 47 00 B9 00 
  1712)     11543.0  Rx         070B  1  05 
  1713)     11543.5  Rx         070C  1  05 
  1714)     11545.4  Rx         070D  1  05 
  1715)     11555.8  Rx         0703  1  05 
  1716)     11577.9  Rx         0080  0  
  1717)     11595.1  Rx         070B  1  05 
  1718)     11595.6  Rx         070C  1  05 
  1719)     11596.1  Rx         020B  8  FF 7F 32 33 C4 09 FF 7F 
  1720)     11596.3  Rx         030B  1  00 
  1721)     11596.8  Rx         020C  8  FF 7F 00 00 D0 07 FF 7F 
  1722)     11597.0  Rx         030C  1  00 
  1723)     11597.5  Rx         01AA  8  E2 1D 8E 01 EE 04 01 00 
  1724)     11598.0  Rx         020D  8  00 00 00 00 B8 0B FF 7F 
  1725)     11598.2  Rx         030D  1  00 
  1726)     11598.4  Rx         070D  1  05 
  1727)     11599.9  Rx         018B  8  41 02 00 00 CD 03 55 06 
  1728)     11600.4  Rx         018C  8  00 00 00 00 00 00 1A 00 
  1729)     11600.9  Rx         028B  8  00 00 DE 1D 8E 00 34 01 
  1730)     11601.4  Rx         028C  8  00 00 EA 1D A4 00 0C 01 
  1731)     11601.9  Rx         018D  8  FF FF 00 00 00 00 16 00 
  1732)     11602.3  Rx         028D  8  00 00 EC 1D 47 00 B9 00 
  1733)     11602.6  Rx         072A  1  05 
  1734)     11637.2  Rx         04AA  8  0C 30 0A 01 06 14 00 00 
  1735)     11647.3  Rx         070B  1  05 
  1736)     11647.8  Rx         070C  1  05 
  1737)     11649.6  Rx         070D  1  05 
  1738)     11672.2  Rx         0080  0  
  1739)     11690.7  Rx         020B  8  FF 7F 32 33 C4 09 FF 7F 
  1740)     11690.9  Rx         030B  1  00 
  1741)     11691.4  Rx         020C  8  FF 7F 00 00 D0 07 FF 7F 
  1742)     11691.6  Rx         030C  1  00 
  1743)     11692.1  Rx         020D  8  00 00 00 00 B8 0B FF 7F 
  1744)     11692.6  Rx         018B  8  2A 02 00 00 D5 03 1E 06 
  1745)     11693.1  Rx         018C  8  00 00 00 00 00 00 17 00 
  1746)     11693.5  Rx         028B  8  00 00 EA 1D 8E 00 34 01 
  1747)     11694.0  Rx         028C  8  00 00 EA 1D A4 00 0C 01 
  1748)     11694.5  Rx         018D  8  FF FF 00 00 00 00 1B 00 
  1749)     11694.7  Rx         030D  1  00 
  1750)     11697.3  Error      0002  4  01 1B 01 00
  1751)     11697.8  Rx         01AA  8  E6 1D 8A 01 EE 04 01 00 
  1752)     11697.8  Error      0000  4  00 00 00 00
  1753)     11698.3  Rx         028D  8  00 00 EC 1D 47 00 B9 00 
  1754)     11699.4  Rx         070B  1  05 
  1755)     11699.9  Rx         070C  1  05 
  1756)     11701.8  Rx         070D  1  05 
  1757)     11702.0  Rx         072A  1  05 
  1758)     11746.7  Rx         0080  0  
  1759)     11751.6  Rx         070B  1  05 
  1760)     11752.1  Rx         070C  1  05 
  1761)     11753.9  Rx         070D  1  05 
  1762)     11765.0  Rx         020B  8  FF 7F 32 33 C4 09 FF 7F 
  1763)     11765.2  Rx         030B  1  00 
  1764)     11765.7  Rx         020C  8  FF 7F 00 00 D0 07 FF 7F 
  1765)     11765.9  Rx         030C  1  00 
  1766)     11766.4  Rx         020D  8  00 00 00 00 B8 0B FF 7F 
  1767)     11766.7  Rx         030D  1  00 
  1768)     11768.4  Rx         018B  8  57 02 00 00 CB 03 14 06 
  1769)     11768.9  Rx         018C  8  00 00 00 00 00 00 1C 00 
  1770)     11769.4  Rx         028B  8  00 00 DE 1D 8E 00 35 01 
  1771)     11769.9  Rx         028C  8  00 00 DE 1D A4 00 0C 01 
  1772)     11770.4  Rx         018D  8  00 00 00 00 00 00 1B 00 
  1773)     11770.9  Rx         028D  8  00 00 E0 1D 47 00 B9 00 
  1774)     11797.3  Rx         01AA  8  EB 1D 83 01 EE 04 01 00 
  1775)     11802.0  Rx         072A  1  05 
  1776)     11803.8  Rx         070B  1  05 
  1777)     11804.3  Rx         070C  1  05 
  1778)     11806.1  Rx         070D  1  05 
  1779)     11841.9  Rx         0080  0  
  1780)     11856.0  Rx         070B  1  05 
  1781)     11856.5  Rx         070C  1  05 
  1782)     11858.2  Rx         070D  1  05 
  1783)     11860.1  Rx         020B  8  FF 7F 32 33 C4 09 FF 7F 
  1784)     11860.4  Rx         030B  1  00 
  1785)     11860.8  Rx         018B  8  4C 02 00 00 DF 03 1A 06 
  1786)     11861.3  Rx         020C  8  FF 7F 00 00 D0 07 FF 7F 
  1787)     11861.8  Rx         028B  8  00 00 DE 1D 8E 00 35 01 
  1788)     11862.0  Rx         030C  1  00 
  1789)     11862.5  Rx         020D  8  00 00 00 00 B8 0B FF 7F 
  1790)     11862.8  Rx         030D  1  00 
  1791)     11864.6  Rx         0703  1  05 
  1792)     11865.1  Rx         018C  8  00 00 00 00 00 00 21 00 
  1793)     11865.6  Rx         028C  8  00 00 EA 1D A4 00 0C 01 
  1794)     11866.7  Rx         018D  8  00 00 00 00 00 00 1F 00 
  1795)     11867.2  Rx         028D  8  00 00 F8 1D 47 00 B9 00 
  1796)     11897.3  Error      0002  4  01 18 01 00
  1797)     11897.9  Error      0002  4  01 18 02 00
  1798)     11898.4  Rx         01AA  8  E4 1D 8B 01 EE 04 01 00 
  1799)     11898.4  Error      0000  4  00 00 01 00
  1800)     11902.0  Rx         072A  1  05 
  1801)     11902.0  Error      0000  4  00 00 00 00
  1802)     11908.6  Rx         070B  1  05 
  1803)     11908.8  Rx         070C  1  05 
  1804)     11910.5  Rx         070D  1  05 
  1805)     11936.4  Rx         0080  0  
  1806)     11955.3  Rx         020B  8  FF 7F 32 33 C4 09 FF 7F 
  1807)     11955.5  Rx         030B  1  00 
  1808)     11956.0  Rx         020C  8  FF 7F 00 00 D0 07 FF 7F 
  1809)     11956.3  Rx         030C  1  00 
  1810)     11956.8  Rx         020D  8  00 00 00 00 B8 0B FF 7F 
  1811)     11957.2  Rx         018B  8  6B 01 00 00 01 04 68 05 
  1812)     11957.7  Rx         018C  8  00 00 00 00 00 00 25 00 
  1813)     11958.2  Rx         028B  8  00 00 01 1E 8E 00 35 01 
  1814)     11958.7  Rx         028C  8  00 00 0E 1E A4 00 0C 01 
  1815)     11959.2  Rx         018D  8  FF FF 00 00 00 00 23 00 
  1816)     11959.4  Rx         030D  1  00 
  1817)     11960.3  Rx         070B  1  05 
  1818)     11960.9  Rx         070C  1  05 
  1819)     11962.6  Rx         070D  1  05 
  1820)     11963.0  Rx         028D  8  00 00 0F 1E 47 00 B9 00 
  1821)     11997.4  Error      0002  4  01 1B 01 00
  1822)     11997.9  Rx         01AA  8  F8 1D 6F 01 EE 04 01 00 
  1823)     11997.9  Error      0000  4  00 00 00 00
  1824)     12002.0  Rx         072A  1  05 
  1825)     12012.5  Rx         070B  1  05 
  1826)     12013.2  Rx         070C  1  05 
  1827)     12014.9  Rx         070D  1  05 
  1828)     12031.9  Rx         0080  0  
  1829)     12050.4  Rx         020B  8  FF 7F 32 33 C4 09 FF 7F 
  1830)     12050.6  Rx         030B  1  00 
