;$FILEVERSION=1.1
;$STARTTIME=43983.4701296644
;
;   C:\Users\eric.baril\Documents\klm_dead_fault at end_start_stop.trc
;
;   Start time: 2020-06-01 11:16:59.203.0
;   Generated by PCAN-View v4.2.5.569
;
;   Message Number
;   |         Time Offset (ms)
;   |         |        Type
;   |         |        |        ID (hex)
;   |         |        |        |     Data Length
;   |         |        |        |     |   Data Bytes (hex) ...
;   |         |        |        |     |   |
;---+--   ----+----  --+--  ----+---  +  -+ -- -- -- -- -- -- --
     1)         1.0  Rx         0080  0  
     2)         8.2  Rx         070B  1  05 
     3)         9.2  Rx         070D  1  05 
     4)        13.5  Rx         070C  1  05 
     5)        19.6  Rx         020B  8  FF 7F 00 00 C4 09 FF 7F 
     6)        19.8  Rx         030B  1  00 
     7)        20.3  Rx         020C  8  FF 7F 00 00 D0 07 FF 7F 
     8)        20.8  Rx         018B  8  00 00 00 00 00 00 1A 00 
     9)        21.3  Rx         028B  8  00 00 27 1F 9A 00 34 01 
    10)        21.5  Rx         030C  1  00 
    11)        22.0  Rx         018C  8  00 00 00 00 00 00 21 00 
    12)        23.0  Rx         020D  8  00 00 00 00 B8 0B FF 7F 
    13)        23.5  Rx         028C  8  00 00 1D 1F 9A 00 16 01 
    14)        23.7  Rx         030D  1  00 
    15)        25.7  Rx         018D  8  00 00 00 00 00 00 1A 00 
    16)        26.2  Rx         028D  8  00 00 2A 1F 55 00 CA 00 
    17)        34.0  Error      0004  4  01 0A 00 00
    18)        34.6  Rx         01AA  8  24 1F 4D 00 14 05 01 00 
    19)        38.8  Rx         072A  1  05 
    20)        48.5  Rx         0703  1  05 
    21)        60.4  Rx         070B  1  05 
    22)        61.3  Rx         070D  1  05 
    23)        65.8  Rx         070C  1  05 
    24)        96.2  Rx         0080  0  
    25)       112.6  Rx         070B  1  05 
    26)       113.5  Rx         070D  1  05 
    27)       114.6  Rx         020B  8  FF 7F 00 00 C4 09 FF 7F 
    28)       114.8  Rx         030B  1  00 
    29)       115.3  Rx         020C  8  FF 7F 00 00 D0 07 FF 7F 
    30)       115.5  Rx         030C  1  00 
    31)       116.0  Rx         020D  8  00 00 00 00 B8 0B FF 7F 
    32)       116.3  Rx         030D  1  00 
    33)       117.1  Rx         018B  8  00 00 00 00 00 00 1C 00 
    34)       117.6  Rx         028B  8  00 00 27 1F 9A 00 34 01 
    35)       118.1  Rx         018D  8  00 00 00 00 00 00 1A 00 
    36)       118.5  Rx         028D  8  00 00 2A 1F 55 00 CA 00 
    37)       118.8  Rx         070C  1  05 
    38)       119.3  Rx         018C  8  00 00 00 00 00 00 1F 00 
    39)       119.8  Rx         028C  8  00 00 1D 1F 9A 00 16 01 
    40)       134.2  Error      0002  4  01 1B 00 00
    41)       134.6  Error      0004  4  01 0A 00 00
    42)       135.1  Error      0002  4  01 1B 00 00
    43)       135.6  Error      0002  4  01 1A 00 00
    44)       136.2  Error      0002  4  01 1B 00 00
    45)       136.7  Error      0004  4  01 08 00 00
    46)       137.2  Rx         01AA  8  25 1F 4C 00 14 05 01 00 
    47)       138.9  Rx         072A  1  05 
    48)       164.9  Rx         070B  1  05 
    49)       165.6  Rx         070D  1  05 
    50)       170.2  Rx         070C  1  05 
    51)       191.6  Rx         0080  0  
    52)       210.3  Rx         020B  8  FF 7F 00 00 C4 09 FF 7F 
    53)       210.6  Rx         030B  1  00 
    54)       211.1  Rx         020C  8  FF 7F 00 00 D0 07 FF 7F 
    55)       211.3  Rx         030C  1  00 
    56)       211.8  Rx         020D  8  00 00 00 00 B8 0B FF 7F 
    57)       212.0  Rx         030D  1  00 
    58)       213.8  Rx         018B  8  00 00 00 00 00 00 1C 00 
    59)       214.3  Rx         018D  8  00 00 00 00 00 00 1F 00 
    60)       214.8  Rx         018C  8  00 00 00 00 00 00 1A 00 
    61)       215.3  Rx         028B  8  00 00 1B 1F 9A 00 34 01 
    62)       215.8  Rx         028C  8  00 00 1D 1F 9A 00 16 01 
    63)       216.2  Rx         028D  8  00 00 2A 1F 55 00 CA 00 
    64)       216.9  Rx         070B  1  05 
    65)       218.0  Rx         070D  1  05 
    66)       222.2  Rx         070C  1  05 
    67)       234.3  Rx         01AA  8  25 1F 4D 00 14 05 01 00 
    68)       238.9  Rx         072A  1  05 
    69)       269.2  Rx         070B  1  05 
    70)       270.0  Rx         070D  1  05 
    71)       274.5  Rx         070C  1  05 
    72)       286.9  Rx         0080  0  
    73)       305.5  Rx         020B  8  FF 7F 00 00 C4 09 FF 7F 
    74)       305.7  Rx         030B  1  00 
    75)       306.2  Rx         020C  8  FF 7F 00 00 D0 07 FF 7F 
    76)       306.5  Rx         030C  1  00 
    77)       306.9  Rx         020D  8  00 00 00 00 B8 0B FF 7F 
    78)       307.4  Rx         018C  8  00 00 00 00 00 00 1B 00 
    79)       307.9  Rx         028C  8  00 00 1D 1F 9A 00 16 01 
    80)       308.2  Rx         030D  1  00 
    81)       309.8  Rx         018B  8  00 00 00 00 00 00 1F 00 
    82)       310.2  Rx         028B  8  00 00 27 1F 9A 00 34 01 
    83)       310.7  Rx         018D  8  FF FF 00 00 00 00 1B 00 
    84)       311.2  Rx         028D  8  00 00 2A 1F 55 00 CA 00 
    85)       321.3  Rx         070B  1  05 
    86)       322.2  Rx         070D  1  05 
    87)       326.6  Rx         070C  1  05 
    88)       334.3  Rx         01AA  8  25 1F 4D 00 14 05 01 00 
    89)       338.9  Rx         072A  1  05 
    90)       359.4  Rx         0703  1  05 
    91)       373.6  Rx         070B  1  05 
    92)       374.3  Rx         070D  1  05 
    93)       378.8  Rx         070C  1  05 
    94)       381.6  Rx         0080  0  
    95)       400.0  Rx         020B  8  FF 7F 00 00 C4 09 FF 7F 
    96)       400.2  Rx         030B  1  00 
    97)       400.7  Rx         020C  8  FF 7F 00 00 D0 07 FF 7F 
    98)       401.0  Rx         030C  1  00 
    99)       401.5  Rx         020D  8  00 00 00 00 B8 0B FF 7F 
   100)       401.9  Rx         018B  8  00 00 00 00 00 00 22 00 
   101)       402.4  Rx         028B  8  00 00 27 1F 9A 00 34 01 
   102)       402.7  Rx         030D  1  00 
   103)       403.3  Rx         018C  8  00 00 00 00 00 00 1A 00 
   104)       403.8  Rx         018D  8  00 00 00 00 00 00 25 00 
   105)       404.3  Rx         028C  8  00 00 1D 1F 9A 00 16 01 
   106)       404.7  Rx         028D  8  00 00 1E 1F 55 00 CA 00 
   107)       425.5  Rx         070B  1  05 
   108)       426.6  Rx         070D  1  05 
   109)       430.9  Rx         070C  1  05 
   110)       433.9  Error      0004  4  01 0A 00 00
   111)       434.0  Error      0008  4  01 13 00 00
   112)       434.5  Rx         01AA  8  25 1F 4D 00 14 05 01 00 
   113)       438.8  Rx         072A  1  05 
   114)       456.0  Rx         0080  0  
   115)       475.0  Rx         020B  8  FF 7F 00 00 C4 09 FF 7F 
   116)       475.2  Rx         030B  1  00 
   117)       475.7  Rx         020C  8  FF 7F 00 00 D0 07 FF 7F 
   118)       475.9  Rx         030C  1  00 
   119)       476.4  Rx         020D  8  00 00 00 00 B8 0B FF 7F 
   120)       476.7  Rx         030D  1  00 
   121)       477.8  Rx         070B  1  05 
   122)       478.6  Rx         018B  8  00 00 00 00 00 00 22 00 
   123)       479.1  Rx         028B  8  00 00 1B 1F 9B 00 34 01 
   124)       479.6  Rx         018C  8  00 00 00 00 00 00 1C 00 
   125)       480.1  Rx         028C  8  00 00 1D 1F 9A 00 16 01 
   126)       480.3  Rx         070D  1  05 
   127)       480.8  Rx         018D  8  00 00 00 00 00 00 23 00 
   128)       481.3  Rx         028D  8  00 00 1E 1F 55 00 CA 00 
   129)       483.1  Rx         070C  1  05 
   130)       529.9  Rx         070B  1  05 
   131)       531.0  Rx         070D  1  05 
   132)       534.2  Error      0002  4  01 1B 00 00
   133)       534.7  Rx         01AA  8  25 1F 4D 00 14 05 01 00 
   134)       535.3  Rx         070C  1  05 
   135)       538.8  Rx         072A  1  05 
   136)       551.6  Rx         0080  0  
   137)       570.0  Rx         020B  8  FF 7F 00 00 C4 09 FF 7F 
   138)       570.2  Rx         030B  1  00 
   139)       570.7  Rx         020C  8  FF 7F 00 00 D0 07 FF 7F 
   140)       570.9  Rx         030C  1  00 
   141)       571.4  Rx         020D  8  00 00 00 00 B8 0B FF 7F 
   142)       571.9  Rx         018C  8  00 00 00 00 00 00 1C 00 
   143)       572.4  Rx         028C  8  00 00 1D 1F 9A 00 16 01 
   144)       572.6  Rx         030D  1  00 
   145)       574.6  Rx         018B  8  00 00 00 00 00 00 20 00 
   146)       575.0  Rx         028B  8  00 00 27 1F 9B 00 34 01 
   147)       575.5  Rx         018D  8  00 00 00 00 00 00 26 00 
   148)       576.0  Rx         028D  8  00 00 1E 1F 55 00 CA 00 
   149)       582.1  Rx         070B  1  05 
   150)       582.9  Rx         070D  1  05 
   151)       587.5  Rx         070C  1  05 
   152)       634.2  Rx         01AA  8  25 1F 4C 00 14 05 01 00 
   153)       634.5  Rx         070B  1  05 
   154)       635.2  Rx         070D  1  05 
   155)       638.9  Rx         072A  1  05 
   156)       639.7  Rx         070C  1  05 
   157)       646.5  Rx         0080  0  
   158)       665.2  Rx         020B  8  FF 7F 00 00 C4 09 FF 7F 
   159)       665.5  Rx         030B  1  00 
   160)       666.0  Rx         020C  8  FF 7F 00 00 D0 07 FF 7F 
   161)       666.2  Rx         030C  1  00 
   162)       666.7  Rx         020D  8  00 00 00 00 B8 0B FF 7F 
   163)       667.2  Rx         018B  8  00 00 00 00 00 00 18 00 
   164)       667.7  Rx         028B  8  00 00 27 1F 9B 00 34 01 
   165)       668.1  Rx         018D  8  00 00 00 00 00 00 22 00 
   166)       668.6  Rx         018C  8  00 00 00 00 00 00 20 00 
   167)       669.1  Rx         028C  8  00 00 1D 1F 9A 00 16 01 
   168)       669.4  Rx         030D  1  00 
   169)       670.0  Rx         0703  1  05 
   170)       671.7  Rx         028D  8  00 00 2A 1F 55 00 CA 00 
   171)       686.4  Rx         070B  1  05 
   172)       687.3  Rx         070D  1  05 
   173)       691.9  Rx         070C  1  05 
   174)       734.3  Rx         01AA  8  26 1F 4C 00 14 05 01 00 
   175)       738.6  Rx         070B  1  05 
   176)       738.9  Rx         072A  1  05 
   177)       739.5  Rx         070D  1  05 
   178)       741.8  Rx         0080  0  
   179)       744.2  Rx         070C  1  05 
   180)       760.4  Rx         020B  8  FF 7F 00 00 C4 09 FF 7F 
   181)       760.7  Rx         030B  1  00 
   182)       761.2  Rx         020C  8  FF 7F 00 00 D0 07 FF 7F 
   183)       761.4  Rx         030C  1  00 
   184)       761.9  Rx         020D  8  00 00 00 00 B8 0B FF 7F 
   185)       762.1  Rx         030D  1  00 
   186)       763.1  Rx         018B  8  00 00 00 00 00 00 1F 00 
   187)       763.6  Rx         028B  8  00 00 27 1F 9B 00 34 01 
   188)       764.1  Rx         018D  8  00 00 00 00 00 00 1A 00 
   189)       764.6  Rx         018C  8  00 00 00 00 00 00 20 00 
   190)       765.1  Rx         028C  8  00 00 1D 1F 9A 00 16 01 
   191)       765.6  Rx         028D  8  00 00 1E 1F 55 00 CA 00 
   192)       769.1  Rx         04AA  8  35 11 0B 01 06 14 00 00 
   193)       790.8  Rx         070B  1  05 
   194)       791.6  Rx         070D  1  05 
   195)       796.3  Rx         070C  1  05 
   196)       816.1  Rx         0080  0  
   197)       834.3  Rx         01AA  8  26 1F 4C 00 14 05 01 00 
   198)       835.0  Rx         020B  8  FF 7F 00 00 C4 09 FF 7F 
   199)       835.2  Rx         030B  1  00 
   200)       835.7  Rx         020C  8  FF 7F 00 00 D0 07 FF 7F 
   201)       835.9  Rx         030C  1  00 
   202)       836.4  Rx         020D  8  00 00 00 00 B8 0B FF 7F 
   203)       836.9  Rx         018C  8  00 00 00 00 00 00 24 00 
   204)       837.4  Rx         028C  8  00 00 1D 1F 9A 00 16 01 
   205)       837.7  Rx         030D  1  00 
   206)       838.9  Rx         072A  1  05 
   207)       839.4  Rx         018B  8  00 00 00 00 00 00 20 00 
   208)       839.9  Rx         028B  8  00 00 27 1F 9A 00 34 01 
   209)       840.4  Rx         018D  8  00 00 00 00 00 00 1A 00 
   210)       840.9  Rx         028D  8  00 00 2A 1F 55 00 CA 00 
   211)       843.0  Rx         070B  1  05 
   212)       843.9  Rx         070D  1  05 
   213)       848.4  Rx         070C  1  05 
   214)       895.1  Rx         070B  1  05 
   215)       896.1  Rx         070D  1  05 
   216)       900.6  Rx         070C  1  05 
   217)       911.2  Rx         0080  0  
   218)       929.7  Rx         020B  8  FF 7F 00 00 C4 09 FF 7F 
   219)       929.9  Rx         030B  1  00 
   220)       930.4  Rx         020C  8  FF 7F 00 00 D0 07 FF 7F 
   221)       930.7  Rx         030C  1  00 
   222)       931.2  Rx         020D  8  00 00 00 00 B8 0B FF 7F 
   223)       931.4  Rx         030D  1  00 
   224)       931.9  Rx         018B  8  00 00 00 00 00 00 1C 00 
   225)       932.4  Rx         028B  8  00 00 27 1F 9A 00 34 01 
   226)       932.9  Rx         018D  8  00 00 00 00 00 00 17 00 
   227)       933.4  Rx         018C  8  00 00 00 00 00 00 1F 00 
   228)       933.8  Rx         028C  8  00 00 1D 1F 9A 00 16 01 
   229)       934.3  Rx         01AA  8  26 1F 4B 00 14 05 01 00 
   230)       934.8  Rx         028D  8  00 00 2A 1F 55 00 CA 00 
   231)       938.9  Rx         072A  1  05 
   232)       947.4  Rx         070B  1  05 
   233)       948.2  Rx         070D  1  05 
   234)       953.0  Rx         070C  1  05 
   235)       980.4  Rx         0703  1  05 
   236)       999.5  Rx         070B  1  05 
   237)      1000.5  Rx         070D  1  05 
   238)      1005.0  Rx         070C  1  05 
   239)      1006.0  Rx         0080  0  
   240)      1025.0  Rx         020B  8  FF 7F 00 00 C4 09 FF 7F 
   241)      1025.2  Rx         030B  1  00 
   242)      1025.7  Rx         020C  8  FF 7F 00 00 D0 07 FF 7F 
   243)      1025.9  Rx         030C  1  00 
   244)      1026.4  Rx         020D  8  00 00 00 00 B8 0B FF 7F 
   245)      1026.6  Rx         030D  1  00 
   246)      1028.6  Rx         018B  8  00 00 00 00 00 00 21 00 
   247)      1029.1  Rx         018D  8  00 00 00 00 00 00 1A 00 
   248)      1029.5  Rx         028B  8  00 00 27 1F 9A 00 34 01 
   249)      1030.0  Rx         018C  8  00 00 00 00 00 00 22 00 
   250)      1030.5  Rx         028C  8  00 00 1D 1F 9A 00 16 01 
   251)      1031.0  Rx         028D  8  00 00 2A 1F 55 00 CA 00 
   252)      1034.3  Rx         01AA  8  26 1F 4B 00 14 05 01 00 
   253)      1038.9  Rx         072A  1  05 
   254)      1051.8  Rx         070B  1  05 
   255)      1052.6  Rx         070D  1  05 
   256)      1057.2  Rx         070C  1  05 
   257)      1101.8  Rx         0080  0  
   258)      1103.9  Rx         070B  1  05 
   259)      1104.9  Rx         070D  1  05 
   260)      1109.4  Rx         070C  1  05 
   261)      1120.4  Rx         020B  8  FF 7F 00 00 C4 09 FF 7F 
   262)      1120.6  Rx         030B  1  00 
   263)      1121.1  Rx         020C  8  FF 7F 00 00 D0 07 FF 7F 
   264)      1121.4  Rx         030C  1  00 
   265)      1121.8  Rx         020D  8  00 00 00 00 B8 0B FF 7F 
   266)      1122.3  Rx         018C  8  00 00 00 00 00 00 1E 00 
   267)      1122.8  Rx         028C  8  00 00 1D 1F 9A 00 16 01 
   268)      1123.1  Rx         030D  1  00 
   269)      1124.4  Rx         018B  8  00 00 00 00 00 00 23 00 
   270)      1124.9  Rx         028B  8  00 00 27 1F 9A 00 34 01 
   271)      1125.4  Rx         018D  8  00 00 00 00 00 00 20 00 
   272)      1125.9  Rx         028D  8  00 00 2A 1F 55 00 CA 00 
   273)      1134.3  Rx         01AA  8  27 1F 4B 00 14 05 01 00 
   274)      1139.0  Rx         072A  1  05 
   275)      1156.2  Rx         070B  1  05 
   276)      1156.9  Rx         070D  1  05 
   277)      1161.6  Rx         070C  1  05 
   278)      1196.2  Rx         0080  0  
   279)      1208.2  Rx         070B  1  05 
   280)      1209.1  Rx         070D  1  05 
   281)      1213.9  Rx         070C  1  05 
   282)      1214.7  Rx         020B  8  FF 7F 00 00 C4 09 FF 7F 
   283)      1214.9  Rx         030B  1  00 
   284)      1215.4  Rx         020C  8  FF 7F 00 00 D0 07 FF 7F 
   285)      1215.6  Rx         030C  1  00 
   286)      1216.1  Rx         020D  8  00 00 00 00 B8 0B FF 7F 
   287)      1216.3  Rx         030D  1  00 
   288)      1216.8  Rx         018B  8  00 00 00 00 00 00 22 00 
   289)      1217.3  Rx         028B  8  00 00 27 1F 9A 00 34 01 
   290)      1217.8  Rx         018D  8  00 00 00 00 00 00 1C 00 
   291)      1218.3  Rx         018C  8  00 00 00 00 00 00 1E 00 
   292)      1218.8  Rx         028C  8  00 00 1D 1F 9A 00 16 01 
   293)      1219.3  Rx         028D  8  00 00 2A 1F 55 00 CA 00 
   294)      1234.4  Rx         01AA  8  27 1F 4B 00 14 05 01 00 
   295)      1239.0  Error      0002  4  01 1A 00 00
   296)      1239.3  Rx         072A  1  05 
   297)      1260.5  Rx         070B  1  05 
   298)      1261.3  Rx         070D  1  05 
   299)      1266.0  Rx         070C  1  05 
   300)      1271.4  Rx         0080  0  
   301)      1290.1  Rx         020B  8  FF 7F 00 00 C4 09 FF 7F 
   302)      1290.3  Rx         030B  1  00 
   303)      1290.8  Rx         020C  8  FF 7F 00 00 D0 07 FF 7F 
   304)      1291.0  Rx         030C  1  00 
   305)      1291.5  Rx         020D  8  00 00 00 00 B8 0B FF 7F 
   306)      1291.8  Rx         030D  1  00 
   307)      1293.4  Rx         018B  8  00 00 00 00 00 00 1B 00 
   308)      1293.9  Rx         018D  8  00 00 00 00 00 00 19 00 
   309)      1294.4  Rx         028B  8  00 00 27 1F 9A 00 34 01 
   310)      1294.8  Rx         028D  8  00 00 2A 1F 55 00 CA 00 
   311)      1295.3  Rx         018C  8  00 00 00 00 00 00 1E 00 
   312)      1295.8  Rx         028C  8  00 00 1D 1F 9A 00 16 01 
   313)      1296.0  Rx         0703  1  05 
   314)      1312.6  Rx         070B  1  05 
   315)      1313.5  Rx         070D  1  05 
   316)      1318.3  Rx         070C  1  05 
   317)      1334.4  Rx         01AA  8  27 1F 4B 00 14 05 01 00 
   318)      1339.0  Rx         072A  1  05 
   319)      1364.7  Rx         070B  1  05 
   320)      1365.7  Rx         070D  1  05 
   321)      1366.2  Rx         0080  0  
   322)      1370.4  Rx         070C  1  05 
   323)      1385.2  Rx         020B  8  FF 7F 00 00 C4 09 FF 7F 
   324)      1385.4  Rx         030B  1  00 
   325)      1385.9  Rx         020C  8  FF 7F 00 00 D0 07 FF 7F 
   326)      1386.1  Rx         030C  1  00 
   327)      1386.6  Rx         020D  8  00 00 00 00 B8 0B FF 7F 
   328)      1387.1  Rx         018C  8  00 00 00 00 00 00 25 00 
   329)      1387.6  Rx         028C  8  00 00 1D 1F 9A 00 16 01 
   330)      1387.8  Rx         030D  1  00 
   331)      1389.4  Rx         018B  8  00 00 00 00 00 00 18 00 
   332)      1389.9  Rx         028B  8  00 00 27 1F 9A 00 34 01 
   333)      1390.4  Rx         018D  8  FF FF 00 00 00 00 1E 00 
   334)      1390.8  Rx         028D  8  00 00 2A 1F 55 00 CA 00 
   335)      1417.0  Rx         070B  1  05 
   336)      1417.8  Rx         070D  1  05 
   337)      1422.9  Rx         070C  1  05 
   338)      1434.5  Rx         01AA  8  27 1F 4A 00 14 05 01 00 
   339)      1439.1  Rx         072A  1  05 
   340)      1461.9  Rx         0080  0  
   341)      1469.2  Rx         070B  1  05 
   342)      1470.1  Rx         070D  1  05 
   343)      1474.8  Rx         070C  1  05 
   344)      1480.6  Rx         020B  8  FF 7F 00 00 C4 09 FF 7F 
   345)      1480.9  Rx         030B  1  00 
   346)      1481.4  Rx         020C  8  FF 7F 00 00 D0 07 FF 7F 
   347)      1481.9  Rx         018B  8  00 00 00 00 00 00 19 00 
   348)      1482.3  Rx         028B  8  00 00 27 1F 9A 00 34 01 
   349)      1482.6  Rx         030C  1  00 
   350)      1483.1  Rx         020D  8  00 00 00 00 B8 0B FF 7F 
   351)      1483.6  Rx         018C  8  00 00 00 00 00 00 22 00 
   352)      1484.0  Rx         028C  8  00 00 1D 1F 9A 00 16 01 
   353)      1484.3  Rx         030D  1  00 
   354)      1486.6  Rx         018D  8  00 00 00 00 00 00 1F 00 
   355)      1487.1  Rx         028D  8  00 00 2A 1F 55 00 CA 00 
   356)      1521.4  Rx         070B  1  05 
   357)      1522.2  Rx         070D  1  05 
   358)      1527.2  Rx         070C  1  05 
   359)      1534.5  Error      0002  4  01 1B 00 00
   360)      1534.6  Error      0008  4  01 13 00 00
   361)      1535.1  Rx         01AA  8  27 1F 49 00 14 05 01 00 
   362)      1539.2  Rx         072A  1  05 
   363)      1557.2  Rx         0080  0  
   364)      1573.5  Rx         070B  1  05 
   365)      1574.5  Rx         070D  1  05 
   366)      1575.7  Rx         020B  8  FF 7F 00 00 C4 09 FF 7F 
   367)      1575.9  Rx         030B  1  00 
   368)      1576.4  Rx         020C  8  FF 7F 00 00 D0 07 FF 7F 
   369)      1576.7  Rx         030C  1  00 
   370)      1577.2  Rx         020D  8  00 00 00 00 B8 0B FF 7F 
   371)      1577.4  Rx         030D  1  00 
   372)      1578.1  Rx         018B  8  00 00 00 00 00 00 1D 00 
   373)      1578.5  Rx         028B  8  00 00 1B 1F 9A 00 34 01 
   374)      1579.0  Rx         018D  8  00 00 00 00 00 00 20 00 
   375)      1579.5  Rx         028D  8  00 00 2A 1F 55 00 CA 00 
   376)      1579.7  Rx         070C  1  05 
   377)      1580.2  Rx         018C  8  00 00 00 00 00 00 1F 00 
   378)      1580.7  Rx         028C  8  00 00 29 1F 9A 00 16 01 
   379)      1603.7  Rx         0703  1  05 
   380)      1625.8  Rx         070B  1  05 
   381)      1626.6  Rx         070D  1  05 
   382)      1631.4  Rx         070C  1  05 
   383)      1634.4  Error      0004  4  01 0A 00 00
   384)      1634.5  Error      0002  4  01 17 00 00
   385)      1634.7  Error      0004  4  01 0A 00 00
   386)      1635.3  Rx         01AA  8  28 1F 49 00 14 05 01 00 
   387)      1639.2  Rx         072A  1  05 
   388)      1653.3  Rx         0080  0  
   389)      1671.9  Rx         020B  8  FF 7F 00 00 C4 09 FF 7F 
   390)      1672.1  Rx         030B  1  00 
   391)      1672.6  Rx         020C  8  FF 7F 00 00 D0 07 FF 7F 
   392)      1672.8  Rx         030C  1  00 
   393)      1673.3  Rx         020D  8  00 00 00 00 B8 0B FF 7F 
   394)      1673.6  Rx         030D  1  00 
   395)      1674.9  Rx         018B  8  00 00 00 00 00 00 1F 00 
   396)      1675.3  Rx         018D  8  00 00 00 00 00 00 1F 00 
   397)      1675.8  Rx         028B  8  00 00 27 1F 9A 00 34 01 
   398)      1676.3  Rx         018C  8  00 00 00 00 00 00 1A 00 
   399)      1676.8  Rx         028C  8  00 00 1D 1F 9A 00 16 01 
   400)      1677.3  Rx         028D  8  00 00 2A 1F 55 00 CA 00 
   401)      1677.9  Rx         070B  1  05 
   402)      1678.9  Rx         070D  1  05 
   403)      1683.6  Rx         070C  1  05 
   404)      1730.3  Rx         070B  1  05 
   405)      1730.9  Rx         070D  1  05 
   406)      1734.6  Rx         01AA  8  28 1F 49 00 14 05 01 00 
   407)      1735.8  Rx         070C  1  05 
   408)      1739.2  Rx         072A  1  05 
   409)      1748.6  Rx         0080  0  
   410)      1767.2  Rx         020B  8  FF 7F 00 00 C4 09 FF 7F 
   411)      1767.4  Rx         030B  1  00 
   412)      1767.9  Rx         020C  8  FF 7F 00 00 D0 07 FF 7F 
   413)      1768.2  Rx         030C  1  00 
   414)      1768.7  Rx         020D  8  00 00 00 00 B8 0B FF 7F 
   415)      1768.9  Rx         030D  1  00 
   416)      1769.4  Error      0002  4  01 1B 00 00
   417)      1769.6  Error      0004  4  01 06 00 00
   418)      1771.1  Rx         018B  8  00 00 00 00 00 00 21 00 
   419)      1771.6  Rx         018D  8  FF FF 00 00 00 00 1E 00 
   420)      1772.1  Rx         028B  8  00 00 27 1F 9A 00 34 01 
   421)      1772.6  Rx         018C  8  00 00 00 00 00 00 16 00 
   422)      1773.1  Rx         028C  8  00 00 1D 1F 9A 00 16 01 
   423)      1773.6  Rx         028D  8  00 00 2A 1F 55 00 CA 00 
   424)      1778.5  Error      0002  4  01 1B 00 00
   425)      1779.0  Rx         04AA  8  36 11 0B 01 06 14 00 00 
   426)      1782.3  Rx         070B  1  05 
   427)      1783.2  Rx         070D  1  05 
   428)      1788.0  Rx         070C  1  05 
   429)      1834.6  Rx         01AA  8  28 1F 49 00 14 05 01 00 
   430)      1834.8  Rx         070B  1  05 
   431)      1835.3  Rx         070D  1  05 
   432)      1839.5  Error      0002  4  01 1B 00 00
   433)      1840.0  Rx         02AA  8  87 00 00 00 A5 00 00 00 
   434)      1840.2  Rx         070C  1  05 
   435)      1844.2  Rx         072A  1  05 
   436)      1845.6  Rx         0080  0  
   437)      1864.1  Rx         020B  8  FF 7F 00 00 C4 09 FF 7F 
   438)      1864.4  Rx         030B  1  00 
   439)      1864.8  Rx         020C  8  FF 7F 00 00 D0 07 FF 7F 
   440)      1865.1  Rx         030C  1  00 
   441)      1865.6  Rx         020D  8  00 00 00 00 B8 0B FF 7F 
   442)      1865.8  Rx         030D  1  00 
   443)      1867.4  Rx         018B  8  00 00 00 00 00 00 20 00 
   444)      1867.9  Rx         018D  8  00 00 00 00 00 00 1F 00 
   445)      1868.4  Rx         028B  8  00 00 27 1F 9A 00 34 01 
   446)      1868.9  Rx         018C  8  00 00 00 00 00 00 16 00 
   447)      1869.4  Rx         028C  8  00 00 29 1F 9A 00 16 01 
   448)      1869.9  Rx         028D  8  00 00 2A 1F 55 00 CA 00 
   449)      1886.6  Rx         070B  1  05 
   450)      1887.6  Rx         070D  1  05 
   451)      1892.4  Rx         070C  1  05 
   452)      1915.3  Rx         0703  1  05 
   453)      1934.6  Rx         01AA  8  28 1F 4A 00 14 05 01 00 
   454)      1938.8  Rx         070B  1  05 
   455)      1939.3  Rx         072A  1  05 
   456)      1939.6  Rx         070D  1  05 
   457)      1940.9  Rx         0080  0  
   458)      1944.6  Rx         070C  1  05 
   459)      1959.2  Rx         020B  8  FF 7F 00 00 C4 09 FF 7F 
   460)      1959.5  Rx         030B  1  00 
   461)      1960.0  Rx         020C  8  FF 7F 00 00 D0 07 FF 7F 
   462)      1960.2  Rx         030C  1  00 
   463)      1960.7  Rx         020D  8  00 00 00 00 B8 0B FF 7F 
   464)      1961.2  Rx         018C  8  00 00 00 00 00 00 19 00 
   465)      1961.7  Rx         028C  8  00 00 29 1F 9A 00 16 01 
   466)      1961.9  Rx         030D  1  00 
   467)      1963.8  Rx         018B  8  00 00 00 00 00 00 1F 00 
   468)      1964.3  Rx         018D  8  FF FF 00 00 00 00 1B 00 
   469)      1964.8  Rx         028B  8  00 00 27 1F 9A 00 34 01 
   470)      1965.2  Rx         028D  8  00 00 2A 1F 55 00 CA 00 
   471)      1991.0  Rx         070B  1  05 
   472)      1992.1  Rx         070D  1  05 
   473)      1997.0  Rx         070C  1  05 
   474)      2034.7  Rx         01AA  8  28 1F 49 00 14 05 01 00 
   475)      2037.4  Rx         0080  0  
   476)      2039.3  Rx         072A  1  05 
   477)      2043.2  Rx         070B  1  05 
   478)      2044.0  Rx         070D  1  05 
   479)      2049.0  Rx         070C  1  05 
   480)      2056.0  Rx         020B  8  FF 7F 00 00 C4 09 FF 7F 
   481)      2056.3  Rx         030B  1  00 
   482)      2056.8  Rx         020C  8  FF 7F 00 00 D0 07 FF 7F 
   483)      2057.0  Rx         030C  1  00 
   484)      2057.5  Rx         018C  8  00 00 00 00 00 00 1C 00 
   485)      2058.0  Rx         020D  8  00 00 00 00 B8 0B FF 7F 
   486)      2058.2  Rx         030D  1  00 
   487)      2059.7  Rx         018B  8  00 00 00 00 00 00 1C 00 
   488)      2060.2  Rx         028B  8  00 00 27 1F 9A 00 34 01 
   489)      2060.6  Rx         018D  8  00 00 00 00 00 00 1E 00 
   490)      2061.1  Rx         028D  8  00 00 2A 1F 55 00 CA 00 
   491)      2062.0  Rx         028C  8  00 00 29 1F 9A 00 16 01 
   492)      2095.3  Rx         070B  1  05 
   493)      2096.3  Rx         070D  1  05 
   494)      2101.3  Rx         070C  1  05 
   495)      2133.4  Rx         0080  0  
   496)      2134.7  Rx         01AA  8  28 1F 49 00 14 05 01 00 
   497)      2139.3  Rx         072A  1  05 
   498)      2147.5  Rx         070B  1  05 
   499)      2148.3  Rx         070D  1  05 
   500)      2151.6  Rx         020B  8  FF 7F 00 00 C4 09 FF 7F 
   501)      2151.8  Rx         030B  1  00 
   502)      2152.3  Rx         020C  8  FF 7F 00 00 D0 07 FF 7F 
   503)      2152.6  Rx         030C  1  00 
   504)      2153.1  Rx         020D  8  00 00 00 00 B8 0B FF 7F 
   505)      2153.3  Rx         030D  1  00 
   506)      2153.5  Rx         070C  1  05 
   507)      2154.0  Rx         018C  8  00 00 00 00 00 00 1E 00 
   508)      2154.5  Rx         028C  8  00 00 29 1F 9A 00 16 01 
   509)      2156.0  Rx         018B  8  FF FF 00 00 00 00 1F 00 
   510)      2156.5  Rx         028B  8  00 00 27 1F 9A 00 34 01 
   511)      2157.0  Rx         018D  8  FF FF 00 00 00 00 20 00 
   512)      2157.4  Rx         028D  8  00 00 2A 1F 55 00 CA 00 
   513)      2199.7  Rx         070B  1  05 
   514)      2200.6  Rx         070D  1  05 
   515)      2205.6  Rx         070C  1  05 
   516)      2228.1  Rx         0703  1  05 
   517)      2228.3  Rx         0080  0  
   518)      2234.7  Rx         01AA  8  28 1F 48 00 14 05 01 00 
   519)      2239.2  Error      0004  4  01 0B 00 00
   520)      2239.2  Error      0008  4  01 13 00 00
   521)      2239.5  Rx         072A  1  05 
   522)      2247.0  Rx         020B  8  FF 7F 00 00 C4 09 FF 7F 
   523)      2247.2  Rx         030B  1  00 
   524)      2247.7  Rx         020C  8  FF 7F 00 00 D0 07 FF 7F 
   525)      2248.0  Rx         030C  1  00 
   526)      2248.4  Rx         018B  8  00 00 00 00 00 00 20 00 
   527)      2248.9  Rx         020D  8  00 00 00 00 B8 0B FF 7F 
   528)      2249.4  Rx         028B  8  00 00 27 1F 9A 00 34 01 
   529)      2249.7  Rx         030D  1  00 
   530)      2250.2  Rx         018C  8  00 00 00 00 00 00 1F 00 
   531)      2250.7  Rx         028C  8  00 00 29 1F 9A 00 16 01 
   532)      2251.9  Rx         070B  1  05 
   533)      2252.7  Rx         070D  1  05 
   534)      2253.2  Rx         018D  8  00 00 00 00 00 00 21 00 
   535)      2253.6  Rx         028D  8  00 00 2A 1F 55 00 CA 00 
   536)      2257.7  Rx         070C  1  05 
   537)      2304.2  Rx         070B  1  05 
   538)      2304.9  Rx         070D  1  05 
   539)      2310.0  Rx         070C  1  05 
   540)      2323.3  Rx         0080  0  
   541)      2334.4  Error      0004  4  01 0A 00 00
   542)      2334.9  Rx         01AA  8  29 1F 47 00 14 05 01 00 
   543)      2339.4  Rx         072A  1  05 
   544)      2341.8  Rx         020B  8  FF 7F 00 00 C4 09 FF 7F 
   545)      2342.1  Rx         030B  1  00 
   546)      2342.5  Rx         020C  8  FF 7F 00 00 D0 07 FF 7F 
   547)      2342.8  Rx         030C  1  00 
   548)      2343.3  Rx         020D  8  00 00 00 00 B8 0B FF 7F 
   549)      2343.5  Rx         030D  1  00 
   550)      2344.6  Rx         018B  8  00 00 00 00 00 00 1E 00 
   551)      2345.1  Rx         028B  8  00 00 27 1F 9A 00 34 01 
   552)      2345.6  Rx         018D  8  00 00 00 00 00 00 25 00 
   553)      2346.1  Rx         028D  8  00 00 2A 1F 55 00 CA 00 
   554)      2346.6  Rx         018C  8  00 00 00 00 00 00 14 00 
   555)      2347.1  Rx         028C  8  00 00 29 1F 9A 00 16 01 
   556)      2356.2  Rx         070B  1  05 
   557)      2357.1  Rx         070D  1  05 
   558)      2362.1  Rx         070C  1  05 
   559)      2408.6  Rx         070B  1  05 
   560)      2409.4  Rx         070D  1  05 
   561)      2414.4  Rx         070C  1  05 
   562)      2418.1  Rx         0080  0  
   563)      2434.7  Error      0004  4  01 0A 00 00
   564)      2435.3  Rx         01AA  8  29 1F 48 00 14 05 01 00 
   565)      2436.9  Rx         020B  8  FF 7F 00 00 C4 09 FF 7F 
   566)      2437.1  Rx         030B  1  00 
   567)      2437.6  Rx         020C  8  FF 7F 00 00 D0 07 FF 7F 
   568)      2437.9  Rx         030C  1  00 
   569)      2438.4  Rx         020D  8  00 00 00 00 B8 0B FF 7F 
   570)      2438.6  Rx         030D  1  00 
   571)      2439.1  Rx         018C  8  00 00 00 00 00 00 15 00 
   572)      2439.6  Rx         028C  8  00 00 29 1F 9A 00 16 01 
   573)      2439.8  Rx         072A  1  05 
   574)      2441.5  Rx         018B  8  00 00 00 00 00 00 1D 00 
   575)      2442.0  Rx         018D  8  00 00 00 00 00 00 28 00 
   576)      2442.5  Rx         028B  8  00 00 27 1F 9A 00 34 01 
   577)      2442.9  Rx         028D  8  00 00 2A 1F 55 00 CA 00 
   578)      2460.7  Rx         070B  1  05 
   579)      2461.5  Rx         070D  1  05 
   580)      2466.6  Rx         070C  1  05 
   581)      2493.1  Rx         0080  0  
   582)      2511.7  Rx         020B  8  FF 7F 00 00 C4 09 FF 7F 
   583)      2511.9  Rx         030B  1  00 
   584)      2512.4  Rx         020C  8  FF 7F 00 00 D0 07 FF 7F 
   585)      2512.6  Rx         030C  1  00 
   586)      2513.1  Rx         020D  8  00 00 00 00 B8 0B FF 7F 
   587)      2513.4  Rx         030D  1  00 
   588)      2513.6  Rx         070B  1  05 
   589)      2514.1  Rx         018B  8  00 00 00 00 00 00 19 00 
   590)      2514.6  Rx         028B  8  00 00 27 1F 9A 00 34 01 
   591)      2514.8  Rx         070D  1  05 
   592)      2515.3  Rx         018C  8  00 00 00 00 00 00 13 00 
   593)      2515.8  Rx         018D  8  FF FF 00 00 00 00 26 00 
   594)      2516.3  Rx         028C  8  00 00 1D 1F 9A 00 16 01 
   595)      2516.8  Rx         028D  8  00 00 2A 1F 55 00 CA 00 
   596)      2518.8  Rx         070C  1  05 
   597)      2534.8  Error      0002  4  01 18 00 00
   598)      2535.2  Error      0004  4  01 0A 00 00
   599)      2535.7  Error      0002  4  01 1B 00 00
   600)      2536.2  Rx         01AA  8  29 1F 49 00 14 05 01 00 
   601)      2539.5  Rx         072A  1  05 
   602)      2540.2  Rx         0703  1  05 
   603)      2565.0  Rx         070B  1  05 
   604)      2566.1  Rx         070D  1  05 
   605)      2571.0  Rx         070C  1  05 
   606)      2588.9  Rx         0080  0  
   607)      2607.6  Rx         020B  8  FF 7F 00 00 C4 09 FF 7F 
   608)      2607.9  Rx         030B  1  00 
   609)      2608.4  Rx         020C  8  FF 7F 00 00 D0 07 FF 7F 
   610)      2608.6  Rx         030C  1  00 
   611)      2609.1  Rx         020D  8  00 00 00 00 B8 0B FF 7F 
   612)      2609.3  Rx         030D  1  00 
   613)      2609.8  Rx         018B  8  00 00 00 00 00 00 1C 00 
   614)      2610.3  Rx         028B  8  00 00 27 1F 9A 00 34 01 
   615)      2610.8  Rx         018D  8  00 00 00 00 00 00 20 00 
   616)      2611.3  Rx         028D  8  00 00 2A 1F 55 00 CA 00 
   617)      2611.7  Rx         018C  8  00 00 00 00 00 00 17 00 
   618)      2612.2  Rx         028C  8  00 00 1D 1F 9A 00 16 01 
   619)      2617.3  Rx         070B  1  05 
   620)      2618.1  Rx         070D  1  05 
   621)      2623.2  Rx         070C  1  05 
   622)      2634.9  Error      0002  4  01 18 00 00
   623)      2635.1  Error      0004  4  01 0A 00 00
   624)      2635.6  Error      0002  4  01 18 00 00
   625)      2635.9  Error      0004  4  01 0A 00 00
   626)      2636.4  Error      0002  4  01 1A 00 00
   627)      2636.8  Error      0004  4  01 0A 00 00
   628)      2636.8  Error      0008  4  01 13 00 00
   629)      2637.3  Error      0002  4  01 1B 00 00
   630)      2637.4  Error      0004  4  01 0B 00 00
   631)      2637.7  Error      0004  4  01 0A 00 00
   632)      2638.2  Rx         01AA  8  29 1F 49 00 14 05 01 00 
   633)      2639.5  Rx         072A  1  05 
   634)      2669.4  Rx         070B  1  05 
   635)      2670.3  Rx         070D  1  05 
   636)      2675.5  Rx         070C  1  05 
   637)      2684.0  Rx         0080  0  
   638)      2702.8  Rx         020B  8  FF 7F 00 00 C4 09 FF 7F 
   639)      2703.0  Rx         030B  1  00 
   640)      2703.5  Rx         020C  8  FF 7F 00 00 D0 07 FF 7F 
   641)      2703.7  Rx         030C  1  00 
   642)      2704.2  Rx         020D  8  00 00 00 00 B8 0B FF 7F 
   643)      2704.4  Rx         030D  1  00 
   644)      2706.0  Rx         018B  8  00 00 00 00 00 00 24 00 
   645)      2706.4  Rx         028B  8  00 00 27 1F 9A 00 34 01 
   646)      2706.9  Rx         018D  8  00 00 00 00 00 00 1B 00 
   647)      2707.4  Rx         028D  8  00 00 2A 1F 55 00 CA 00 
   648)      2708.0  Rx         018C  8  00 00 00 00 00 00 23 00 
   649)      2708.5  Rx         028C  8  00 00 29 1F 9A 00 16 01 
   650)      2721.6  Rx         070B  1  05 
   651)      2722.5  Rx         070D  1  05 
   652)      2727.6  Rx         070C  1  05 
   653)      2734.5  Error      0004  4  01 06 00 00
   654)      2735.0  Error      0002  4  01 1B 00 00
   655)      2735.2  Error      0004  4  01 06 00 00
   656)      2735.6  Error      0004  4  01 0A 00 00
   657)      2736.2  Error      0002  4  01 1B 00 00
   658)      2736.7  Rx         01AA  8  29 1F 49 00 14 05 01 00 
   659)      2739.5  Rx         072A  1  05 
   660)      2769.8  Rx         04AA  8  37 11 0B 01 06 14 00 00 
   661)      2773.7  Rx         070B  1  05 
   662)      2774.5  Rx         070D  1  05 
   663)      2778.7  Rx         0080  0  
   664)      2779.9  Rx         070C  1  05 
   665)      2797.0  Rx         020B  8  FF 7F 00 00 C4 09 FF 7F 
   666)      2797.2  Rx         030B  1  00 
   667)      2797.7  Rx         020C  8  FF 7F 00 00 D0 07 FF 7F 
   668)      2797.9  Rx         030C  1  00 
   669)      2798.4  Rx         018B  8  00 00 00 00 00 00 24 00 
   670)      2798.9  Rx         020D  8  00 00 00 00 B8 0B FF 7F 
   671)      2799.4  Rx         028B  8  00 00 27 1F 9A 00 34 01 
   672)      2799.6  Rx         030D  1  00 
   673)      2800.3  Rx         018C  8  00 00 00 00 00 00 1E 00 
   674)      2800.8  Rx         028C  8  00 00 29 1F 9A 00 16 01 
   675)      2803.2  Rx         018D  8  00 00 00 00 00 00 1F 00 
   676)      2803.6  Rx         028D  8  00 00 2A 1F 55 00 CA 00 
   677)      2825.9  Rx         070B  1  05 
   678)      2826.8  Rx         070D  1  05 
   679)      2831.9  Rx         070C  1  05 
   680)      2834.9  Error      0002  4  01 18 00 00
   681)      2835.5  Error      0002  4  01 1B 00 00
   682)      2835.9  Error      0004  4  01 0A 00 00
   683)      2836.4  Error      0002  4  01 18 00 00
   684)      2837.0  Rx         01AA  8  29 1F 48 00 14 05 01 00 
   685)      2839.6  Rx         072A  1  05 
   686)      2853.0  Rx         0703  1  05 
   687)      2876.1  Rx         0080  0  
   688)      2878.2  Rx         070B  1  05 
   689)      2878.9  Rx         070D  1  05 
   690)      2884.3  Rx         070C  1  05 
   691)      2894.7  Rx         020B  8  FF 7F 00 00 C4 09 FF 7F 
   692)      2894.9  Rx         030B  1  00 
   693)      2895.4  Rx         020C  8  FF 7F 00 00 D0 07 FF 7F 
   694)      2895.7  Rx         030C  1  00 
   695)      2896.1  Rx         020D  8  00 00 00 00 B8 0B FF 7F 
   696)      2896.6  Rx         018C  8  00 00 00 00 00 00 19 00 
   697)      2897.1  Rx         028C  8  00 00 29 1F 9A 00 16 01 
   698)      2897.4  Rx         030D  1  00 
   699)      2898.6  Rx         018B  8  00 00 00 00 00 00 25 00 
   700)      2899.1  Rx         028B  8  00 00 27 1F 9A 00 34 01 
   701)      2899.6  Rx         018D  8  00 00 00 00 00 00 20 00 
   702)      2900.1  Rx         028D  8  00 00 2A 1F 55 00 CA 00 
   703)      2930.3  Rx         070B  1  05 
   704)      2931.1  Rx         070D  1  05 
   705)      2934.9  Error      0002  4  01 1B 00 00
   706)      2935.0  Error      0008  4  01 13 00 00
   707)      2935.5  Rx         01AA  8  2A 1F 47 00 14 05 01 00 
   708)      2936.3  Rx         070C  1  05 
   709)      2939.6  Error      0002  4  01 1A 00 00
   710)      2939.9  Error      0002  4  01 1B 00 00
   711)      2940.2  Rx         072A  1  05 
   712)      2940.4  Error      0004  4  01 08 00 00
   713)      2940.7  Rx         072A  1  05 
   714)      2972.0  Rx         0080  0  
   715)      2982.5  Rx         070B  1  05 
   716)      2983.2  Rx         070D  1  05 
   717)      2988.6  Rx         070C  1  05 
   718)      2990.4  Rx         020B  8  FF 7F 00 00 C4 09 FF 7F 
   719)      2990.7  Rx         030B  1  00 
   720)      2991.2  Rx         020C  8  FF 7F 00 00 D0 07 FF 7F 
   721)      2991.4  Rx         030C  1  00 
   722)      2991.9  Rx         020D  8  00 00 00 00 B8 0B FF 7F 
   723)      2992.1  Rx         030D  1  00 
   724)      2993.0  Rx         018C  8  00 00 00 00 00 00 20 00 
   725)      2993.5  Rx         028C  8  00 00 29 1F 9A 00 16 01 
   726)      2994.9  Rx         018B  8  00 00 00 00 00 00 22 00 
   727)      2995.4  Rx         028B  8  00 00 27 1F 9A 00 34 01 
   728)      2995.9  Rx         018D  8  FF FF 00 00 00 00 1E 00 
   729)      2996.4  Rx         028D  8  00 00 2A 1F 55 00 CA 00 
   730)      3034.6  Rx         070B  1  05 
   731)      3035.1  Error      0002  4  01 18 00 00
   732)      3035.1  Error      0008  4  01 13 00 00
   733)      3035.6  Error      0002  4  01 18 00 00
   734)      3035.6  Error      0008  4  01 13 00 00
   735)      3035.9  Rx         070D  1  05 
   736)      3036.3  Rx         01AA  8  2A 1F 47 00 14 05 01 00 
   737)      3039.6  Rx         072A  1  05 
   738)      3040.7  Rx         070C  1  05 
   739)      3067.1  Rx         0080  0  
   740)      3085.5  Rx         020B  8  FF 7F 00 00 C4 09 FF 7F 
   741)      3085.7  Rx         030B  1  00 
   742)      3086.2  Rx         020C  8  FF 7F 00 00 D0 07 FF 7F 
   743)      3086.4  Rx         030C  1  00 
   744)      3086.9  Rx         020D  8  00 00 00 00 B8 0B FF 7F 
   745)      3087.2  Rx         030D  1  00 
   746)      3087.4  Rx         070B  1  05 
   747)      3087.9  Rx         018B  8  00 00 00 00 00 00 24 00 
   748)      3088.4  Rx         028B  8  00 00 27 1F 9A 00 34 01 
   749)      3088.6  Rx         070D  1  05 
   750)      3089.1  Rx         018D  8  00 00 00 00 00 00 1F 00 
   751)      3089.6  Rx         018C  8  00 00 00 00 00 00 23 00 
   752)      3090.1  Rx         028C  8  00 00 1D 1F 9A 00 16 01 
   753)      3090.6  Rx         028D  8  00 00 2A 1F 55 00 CA 00 
   754)      3093.0  Rx         070C  1  05 
   755)      3135.0  Rx         01AA  8  2A 1F 47 00 14 05 01 00 
   756)      3139.0  Rx         070B  1  05 
   757)      3139.6  Rx         072A  1  05 
   758)      3140.4  Rx         070D  1  05 
   759)      3145.1  Rx         070C  1  05 
   760)      3161.6  Rx         0703  1  05 
   761)      3161.8  Rx         0080  0  
   762)      3180.2  Rx         020B  8  FF 7F 00 00 C4 09 FF 7F 
   763)      3180.4  Rx         030B  1  00 
   764)      3180.9  Rx         020C  8  FF 7F 00 00 D0 07 FF 7F 
   765)      3181.1  Rx         030C  1  00 
   766)      3181.6  Rx         020D  8  00 00 00 00 B8 0B FF 7F 
   767)      3182.1  Rx         018C  8  00 00 00 00 00 00 18 00 
   768)      3182.6  Rx         028C  8  00 00 29 1F 9A 00 16 01 
   769)      3182.8  Rx         030D  1  00 
   770)      3183.6  Rx         018B  8  00 00 00 00 00 00 22 00 
   771)      3184.1  Rx         028B  8  00 00 27 1F 9A 00 34 01 
   772)      3184.6  Error      0002  4  01 1A 00 00
   773)      3185.1  Rx         018D  8  FF FF 00 00 00 00 1A 00 
   774)      3185.6  Rx         028D  8  00 00 2A 1F 55 00 CA 00 
   775)      3191.3  Rx         070B  1  05 
   776)      3191.9  Rx         070D  1  05 
   777)      3197.3  Rx         070C  1  05 
   778)      3235.0  Rx         01AA  8  2A 1F 47 00 14 05 01 00 
   779)      3239.7  Rx         072A  1  05 
   780)      3243.3  Rx         070B  1  05 
   781)      3244.3  Rx         070D  1  05 
   782)      3249.5  Rx         070C  1  05 
   783)      3259.0  Rx         0080  0  
   784)      3277.9  Rx         020B  8  FF 7F 00 00 C4 09 FF 7F 
   785)      3278.1  Rx         030B  1  00 
   786)      3278.6  Rx         020C  8  FF 7F 00 00 D0 07 FF 7F 
   787)      3278.8  Rx         030C  1  00 
   788)      3279.3  Rx         020D  8  00 00 00 00 B8 0B FF 7F 
   789)      3279.5  Rx         030D  1  00 
   790)      3280.0  Rx         018B  8  00 00 00 00 00 00 1F 00 
   791)      3280.5  Rx         028B  8  00 00 27 1F 9A 00 34 01 
   792)      3281.0  Rx         018D  8  00 00 00 00 00 00 1D 00 
   793)      3281.5  Rx         028D  8  00 00 2A 1F 55 00 CA 00 
   794)      3282.1  Rx         018C  8  00 00 00 00 00 00 1F 00 
   795)      3282.6  Rx         028C  8  00 00 29 1F 9A 00 16 01 
   796)      3295.6  Rx         070B  1  05 
   797)      3296.3  Rx         070D  1  05 
   798)      3301.7  Rx         070C  1  05 
   799)      3335.0  Error      0002  4  01 18 00 00
   800)      3335.6  Rx         01AA  8  2A 1F 48 00 14 05 01 00 
   801)      3339.6  Error      0004  4  01 08 00 00
   802)      3339.9  Error      0004  4  01 08 00 00
   803)      3340.2  Rx         072A  1  05 
   804)      3347.7  Rx         070B  1  05 
   805)      3348.6  Rx         070D  1  05 
   806)      3354.0  Rx         070C  1  05 
   807)      3354.6  Rx         0080  0  
   808)      3373.3  Rx         020B  8  FF 7F 00 00 C4 09 FF 7F 
   809)      3373.6  Rx         030B  1  00 
   810)      3374.1  Rx         020C  8  FF 7F 00 00 D0 07 FF 7F 
   811)      3374.3  Rx         030C  1  00 
   812)      3374.8  Rx         020D  8  00 00 00 00 B8 0B FF 7F 
   813)      3375.0  Rx         030D  1  00 
   814)      3376.3  Rx         018B  8  00 00 00 00 00 00 1F 00 
   815)      3376.7  Rx         028B  8  00 00 27 1F 9A 00 34 01 
   816)      3377.2  Rx         018D  8  00 00 00 00 00 00 20 00 
   817)      3377.7  Rx         028D  8  00 00 2A 1F 55 00 CA 00 
   818)      3378.4  Rx         018C  8  00 00 00 00 00 00 20 00 
   819)      3378.9  Rx         028C  8  00 00 29 1F 9A 00 16 01 
   820)      3399.9  Rx         070B  1  05 
   821)      3400.7  Rx         070D  1  05 
   822)      3406.1  Rx         070C  1  05 
   823)      3435.0  Error      0004  4  01 0A 00 00
   824)      3441.1  Error      0002  4  01 18 00 00
   825)      3441.7  Rx         01AA  8  2A 1F 47 00 14 05 01 00 
   826)      3441.8  Error      0004  4  01 05 00 00
   827)      3442.0  Rx         072A  1  05 
   828)      3449.9  Rx         0080  0  
   829)      3452.1  Rx         070B  1  05 
   830)      3453.1  Rx         070D  1  05 
   831)      3458.4  Rx         070C  1  05 
   832)      3468.3  Rx         020B  8  FF 7F 00 00 C4 09 FF 7F 
   833)      3468.6  Rx         030B  1  00 
   834)      3469.1  Rx         020C  8  FF 7F 00 00 D0 07 FF 7F 
   835)      3469.3  Rx         030C  1  00 
   836)      3469.8  Rx         020D  8  00 00 00 00 B8 0B FF 7F 
   837)      3470.0  Rx         030D  1  00 
   838)      3470.8  Rx         018C  8  00 00 00 00 00 00 24 00 
   839)      3471.3  Rx         028C  8  00 00 1D 1F 9A 00 16 01 
   840)      3472.7  Rx         018B  8  00 00 00 00 00 00 20 00 
   841)      3473.1  Rx         028B  8  00 00 27 1F 9A 00 34 01 
   842)      3473.6  Rx         018D  8  00 00 00 00 00 00 25 00 
   843)      3474.1  Rx         028D  8  00 00 2A 1F 55 00 CA 00 
   844)      3474.3  Rx         0703  1  05 
   845)      3504.3  Rx         070B  1  05 
   846)      3505.1  Rx         070D  1  05 
   847)      3510.5  Rx         070C  1  05 
   848)      3534.9  Error      0004  4  01 0A 00 00
   849)      3535.4  Error      0002  4  01 18 00 00
   850)      3535.4  Error      0008  4  01 13 00 00
   851)      3535.9  Error      0004  4  01 08 00 00
   852)      3536.2  Error      0004  4  01 0A 00 00
   853)      3536.3  Error      0002  4  01 17 00 00
   854)      3536.7  Error      0008  4  01 13 00 00
   855)      3537.2  Error      0002  4  01 1B 00 00
   856)      3537.2  Error      0008  4  01 13 00 00
   857)      3537.2  Error      0002  4  01 17 00 00
   858)      3537.3  Error      0008  4  01 13 00 00
   859)      3537.8  Rx         01AA  8  2A 1F 47 00 14 05 01 00 
   860)      3539.8  Rx         072A  1  05 
   861)      3545.0  Rx         0080  0  
   862)      3556.5  Rx         070B  1  05 
   863)      3557.4  Rx         070D  1  05 
   864)      3562.8  Rx         070C  1  05 
   865)      3563.8  Rx         020B  8  FF 7F 00 00 C4 09 FF 7F 
   866)      3564.0  Rx         030B  1  00 
   867)      3564.5  Rx         020C  8  FF 7F 00 00 D0 07 FF 7F 
   868)      3565.0  Rx         018B  8  00 00 00 00 00 00 1D 00 
   869)      3565.5  Rx         028B  8  00 00 27 1F 9A 00 34 01 
   870)      3565.7  Rx         030C  1  00 
   871)      3566.2  Rx         020D  8  00 00 00 00 B8 0B FF 7F 
   872)      3566.4  Rx         030D  1  00 
   873)      3567.2  Rx         018C  8  00 00 00 00 00 00 18 00 
   874)      3567.7  Rx         028C  8  00 00 29 1F 9A 00 16 01 
   875)      3569.8  Rx         018D  8  00 00 00 00 00 00 20 00 
   876)      3570.2  Rx         028D  8  00 00 2A 1F 55 00 CA 00 
   877)      3608.7  Rx         070B  1  05 
   878)      3609.4  Rx         070D  1  05 
   879)      3614.9  Rx         070C  1  05 
   880)      3635.1  Error      0004  4  01 08 00 00
   881)      3635.6  Error      0002  4  01 1A 00 00
   882)      3636.1  Rx         01AA  8  2B 1F 46 00 14 05 01 00 
   883)      3639.8  Rx         072A  1  05 
   884)      3641.0  Rx         0080  0  
   885)      3659.6  Rx         020B  8  FF 7F 00 00 C4 09 FF 7F 
   886)      3659.8  Rx         030B  1  00 
   887)      3660.3  Rx         020C  8  FF 7F 00 00 D0 07 FF 7F 
   888)      3660.6  Rx         030C  1  00 
   889)      3661.1  Rx         020D  8  00 00 00 00 B8 0B FF 7F 
   890)      3661.3  Rx         030D  1  00 
   891)      3661.5  Rx         070B  1  05 
   892)      3662.0  Rx         018B  8  00 00 00 00 00 00 1F 00 
   893)      3662.5  Rx         028B  8  00 00 27 1F 9A 00 34 01 
   894)      3662.7  Rx         070D  1  05 
   895)      3663.2  Rx         018D  8  00 00 00 00 00 00 1C 00 
   896)      3663.7  Rx         018C  8  00 00 00 00 00 00 20 00 
   897)      3664.2  Rx         028C  8  00 00 29 1F 9A 00 16 01 
   898)      3664.7  Rx         028D  8  00 00 2A 1F 55 00 CA 00 
   899)      3667.2  Rx         070C  1  05 
   900)      3713.0  Rx         070B  1  05 
   901)      3713.8  Rx         070D  1  05 
   902)      3715.6  Rx         0080  0  
   903)      3719.3  Rx         070C  1  05 
   904)      3734.4  Rx         020B  8  FF 7F 00 00 C4 09 FF 7F 
   905)      3734.6  Rx         030B  1  00 
   906)      3735.1  Rx         020C  8  FF 7F 00 00 D0 07 FF 7F 
   907)      3735.6  Error      0002  4  01 1B 00 00
   908)      3735.6  Error      0008  4  01 13 00 00
   909)      3735.6  Error      0002  4  01 17 00 00
   910)      3735.6  Error      0008  4  01 13 00 00
   911)      3736.2  Rx         018C  8  00 00 00 00 00 00 1C 00 
   912)      3736.3  Error      0004  4  01 09 00 00
   913)      3736.5  Error      0002  4  01 1A 00 00
   914)      3736.6  Error      0004  4  01 02 00 00
   915)      3737.1  Error      0002  4  01 18 00 00
   916)      3737.6  Rx         018B  8  00 00 00 00 00 00 21 00 
   917)      3738.1  Error      0002  4  01 1B 00 00
   918)      3738.6  Rx         028B  8  00 00 27 1F 9A 00 34 01 
   919)      3739.1  Rx         01AA  8  2B 1F 46 00 14 05 01 00 
   920)      3739.3  Rx         030C  1  00 
   921)      3739.8  Rx         020D  8  00 00 00 00 B8 0B FF 7F 
   922)      3740.1  Rx         030D  1  00 
   923)      3740.3  Rx         072A  1  05 
   924)      3742.4  Rx         018D  8  00 00 00 00 00 00 21 00 
   925)      3742.9  Rx         028D  8  00 00 2A 1F 55 00 CA 00 
   926)      3743.8  Rx         028C  8  00 00 29 1F 9A 00 16 01 
   927)      3765.3  Rx         070B  1  05 
   928)      3766.0  Rx         070D  1  05 
   929)      3770.1  Error      0002  4  01 1A 00 00
   930)      3770.7  Rx         04AA  8  38 11 0B 01 06 14 00 00 
   931)      3771.5  Rx         070C  1  05 
   932)      3788.1  Rx         0703  1  05 
   933)      3811.0  Rx         0080  0  
   934)      3817.4  Rx         070B  1  05 
   935)      3818.2  Rx         070D  1  05 
   936)      3823.7  Rx         070C  1  05 
   937)      3829.6  Rx         020B  8  FF 7F 00 00 C4 09 FF 7F 
   938)      3829.8  Rx         030B  1  00 
   939)      3830.3  Rx         020C  8  FF 7F 00 00 D0 07 FF 7F 
   940)      3830.5  Rx         030C  1  00 
   941)      3831.0  Rx         020D  8  00 00 00 00 B8 0B FF 7F 
   942)      3831.3  Rx         030D  1  00 
   943)      3832.2  Rx         018C  8  00 00 00 00 00 00 1C 00 
   944)      3832.7  Rx         028C  8  00 00 29 1F 9A 00 16 01 
   945)      3833.9  Rx         018B  8  00 00 00 00 00 00 22 00 
   946)      3834.4  Rx         028B  8  00 00 27 1F 9A 00 34 01 
   947)      3834.8  Rx         018D  8  00 00 00 00 00 00 1E 00 
   948)      3835.3  Rx         01AA  8  2B 1F 47 00 14 05 01 00 
   949)      3835.8  Rx         028D  8  00 00 2A 1F 55 00 CA 00 
   950)      3839.9  Rx         072A  1  05 
   951)      3869.6  Rx         070B  1  05 
   952)      3870.4  Rx         070D  1  05 
   953)      3875.9  Rx         070C  1  05 
   954)      3906.1  Rx         0080  0  
   955)      3921.7  Rx         070B  1  05 
   956)      3922.6  Rx         070D  1  05 
   957)      3924.8  Rx         020B  8  FF 7F 00 00 C4 09 FF 7F 
   958)      3925.0  Rx         030B  1  00 
   959)      3925.5  Rx         020C  8  FF 7F 00 00 D0 07 FF 7F 
   960)      3925.7  Rx         030C  1  00 
   961)      3926.2  Rx         020D  8  00 00 00 00 B8 0B FF 7F 
   962)      3926.7  Rx         018B  8  00 00 00 00 00 00 1B 00 
   963)      3927.2  Rx         018D  8  FF FF 00 00 00 00 1D 00 
   964)      3927.7  Rx         028B  8  00 00 27 1F 9A 00 34 01 
   965)      3927.9  Rx         030D  1  00 
   966)      3928.2  Rx         070C  1  05 
   967)      3928.7  Rx         018C  8  00 00 00 00 00 00 1F 00 
   968)      3929.1  Rx         028C  8  00 00 29 1F 9A 00 16 01 
   969)      3931.0  Rx         028D  8  00 00 2A 1F 55 00 CA 00 
   970)      3935.3  Rx         01AA  8  2B 1F 46 00 14 05 01 00 
   971)      3939.9  Rx         072A  1  05 
   972)      3974.0  Rx         070B  1  05 
   973)      3974.8  Rx         070D  1  05 
   974)      3980.2  Rx         070C  1  05 
   975)      4001.1  Rx         0080  0  
   976)      4019.5  Rx         020B  8  FF 7F 00 00 C4 09 FF 7F 
   977)      4019.7  Rx         030B  1  00 
   978)      4020.2  Rx         020C  8  FF 7F 00 00 D0 07 FF 7F 
   979)      4020.5  Rx         030C  1  00 
   980)      4020.9  Rx         018C  8  00 00 00 00 00 00 20 00 
   981)      4021.4  Rx         020D  8  00 00 00 00 B8 0B FF 7F 
   982)      4021.7  Rx         030D  1  00 
   983)      4022.6  Rx         018B  8  00 00 00 00 00 00 1D 00 
   984)      4023.0  Rx         028B  8  00 00 27 1F 9A 00 34 01 
   985)      4023.5  Rx         018D  8  00 00 00 00 00 00 20 00 
   986)      4024.0  Rx         028D  8  00 00 2A 1F 55 00 CA 00 
   987)      4024.9  Rx         028C  8  00 00 29 1F 9A 00 16 01 
   988)      4026.1  Rx         070B  1  05 
   989)      4027.0  Rx         070D  1  05 
   990)      4032.5  Rx         070C  1  05 
   991)      4035.3  Error      0004  4  01 18 00 00
   992)      4035.5  Error      0004  4  01 0A 00 00
   993)      4035.7  Error      0004  4  01 02 00 00
   994)      4036.1  Error      0004  4  01 0A 00 00
   995)      4036.7  Rx         01AA  8  2B 1F 47 00 14 05 01 00 
   996)      4039.9  Rx         072A  1  05 
   997)      4078.2  Rx         070B  1  05 
   998)      4079.1  Rx         070D  1  05 
   999)      4084.6  Rx         070C  1  05 
  1000)      4099.1  Rx         0703  1  05 
  1001)      4099.3  Rx         0080  0  
  1002)      4117.9  Rx         020B  8  FF 7F 00 00 C4 09 FF 7F 
  1003)      4118.1  Rx         030B  1  00 
  1004)      4118.6  Rx         020C  8  FF 7F 00 00 D0 07 FF 7F 
  1005)      4119.1  Rx         018B  8  00 00 00 00 00 00 20 00 
  1006)      4119.6  Rx         028B  8  00 00 27 1F 9A 00 34 01 
  1007)      4119.8  Rx         030C  1  00 
  1008)      4120.3  Rx         020D  8  00 00 00 00 B8 0B FF 7F 
  1009)      4120.5  Rx         030D  1  00 
  1010)      4121.3  Rx         018C  8  00 00 00 00 00 00 1C 00 
  1011)      4121.8  Rx         028C  8  00 00 29 1F 9A 00 16 01 
  1012)      4123.7  Rx         018D  8  00 00 00 00 00 00 22 00 
  1013)      4124.2  Rx         028D  8  00 00 36 1F 55 00 CA 00 
  1014)      4130.4  Rx         070B  1  05 
  1015)      4131.3  Rx         070D  1  05 
  1016)      4135.2  Error      0004  4  01 0A 00 00
  1017)      4135.7  Error      0002  4  01 18 00 00
  1018)      4136.2  Error      0002  4  01 18 00 00
  1019)      4136.5  Error      0002  4  01 18 00 00
  1020)      4137.1  Rx         01AA  8  2B 1F 46 00 14 05 01 00 
  1021)      4137.3  Rx         070C  1  05 
  1022)      4140.0  Error      0002  4  01 1A 00 00
  1023)      4140.3  Rx         072A  1  05 
  1024)      4182.6  Rx         070B  1  05 
  1025)      4183.5  Rx         070D  1  05 
  1026)      4189.0  Rx         070C  1  05 
  1027)      4194.2  Rx         0080  0  
  1028)      4212.4  Rx         020B  8  FF 7F 00 00 C4 09 FF 7F 
  1029)      4212.7  Rx         030B  1  00 
  1030)      4213.2  Rx         020C  8  FF 7F 00 00 D0 07 FF 7F 
  1031)      4213.4  Rx         030C  1  00 
  1032)      4213.9  Rx         020D  8  00 00 00 00 B8 0B FF 7F 
  1033)      4214.1  Rx         030D  1  00 
  1034)      4215.2  Rx         018B  8  00 00 00 00 00 00 20 00 
  1035)      4215.6  Rx         028B  8  00 00 27 1F 9A 00 34 01 
  1036)      4216.1  Rx         018D  8  00 00 00 00 00 00 24 00 
  1037)      4216.6  Rx         028D  8  00 00 2A 1F 55 00 CA 00 
  1038)      4217.6  Rx         018C  8  00 00 00 00 00 00 1F 00 
  1039)      4218.1  Rx         028C  8  00 00 29 1F 9A 00 16 01 
  1040)      4234.8  Rx         070B  1  05 
  1041)      4235.3  Error      0002  4  01 1A 00 00
  1042)      4235.7  Error      0004  4  01 0A 00 00
  1043)      4235.9  Rx         070D  1  05 
  1044)      4236.4  Error      0002  4  01 1B 00 00
  1045)      4236.9  Error      0004  4  01 0A 00 00
  1046)      4237.4  Rx         01AA  8  2B 1F 45 00 14 05 01 00 
  1047)      4240.0  Rx         072A  1  05 
  1048)      4241.3  Rx         070C  1  05 
  1049)      4287.0  Rx         070B  1  05 
  1050)      4287.8  Rx         070D  1  05 
  1051)      4289.2  Rx         0080  0  
  1052)      4293.4  Rx         070C  1  05 
  1053)      4308.0  Rx         020B  8  FF 7F 00 00 C4 09 FF 7F 
  1054)      4308.3  Rx         030B  1  00 
  1055)      4308.8  Rx         020C  8  FF 7F 00 00 D0 07 FF 7F 
  1056)      4309.0  Rx         030C  1  00 
  1057)      4309.5  Rx         020D  8  00 00 00 00 B8 0B FF 7F 
  1058)      4310.0  Rx         018C  8  00 00 00 00 00 00 16 00 
  1059)      4310.5  Error      0002  4  01 1A 00 00
  1060)      4311.0  Rx         028C  8  00 00 29 1F 9A 00 16 01 
  1061)      4311.2  Rx         030D  1  00 
  1062)      4311.7  Rx         018B  8  00 00 00 00 00 00 23 00 
  1063)      4312.2  Rx         028B  8  00 00 27 1F 9A 00 34 01 
  1064)      4312.7  Rx         018D  8  00 00 00 00 00 00 1D 00 
  1065)      4313.2  Rx         028D  8  00 00 2A 1F 55 00 CA 00 
  1066)      4335.4  Rx         01AA  8  2B 1F 44 00 14 05 01 00 
  1067)      4339.2  Rx         070B  1  05 
  1068)      4339.9  Rx         070D  1  05 
  1069)      4340.1  Rx         072A  1  05 
  1070)      4345.7  Rx         070C  1  05 
  1071)      4384.7  Rx         0080  0  
  1072)      4391.3  Rx         070B  1  05 
  1073)      4392.1  Rx         070D  1  05 
  1074)      4397.7  Rx         070C  1  05 
  1075)      4403.3  Rx         020B  8  FF 7F 00 00 C4 09 FF 7F 
  1076)      4403.5  Rx         030B  1  00 
  1077)      4404.0  Rx         020C  8  FF 7F 00 00 D0 07 FF 7F 
  1078)      4404.3  Rx         030C  1  00 
  1079)      4404.8  Rx         020D  8  00 00 00 00 B8 0B FF 7F 
  1080)      4405.0  Rx         030D  1  00 
  1081)      4406.2  Rx         018C  8  00 00 00 00 00 00 1C 00 
  1082)      4406.7  Rx         028C  8  00 00 29 1F 9A 00 16 01 
  1083)      4407.8  Rx         018B  8  00 00 00 00 00 00 24 00 
  1084)      4408.2  Rx         028B  8  00 00 27 1F 9A 00 34 01 
  1085)      4408.7  Rx         018D  8  00 00 00 00 00 00 1B 00 
  1086)      4409.2  Rx         028D  8  00 00 2A 1F 55 00 CA 00 
  1087)      4409.4  Rx         0703  1  05 
  1088)      4435.3  Error      0002  4  01 1A 00 00
  1089)      4435.9  Rx         01AA  8  2B 1F 44 00 14 05 01 00 
  1090)      4439.9  Rx         072A  1  05 
  1091)      4443.5  Rx         070B  1  05 
  1092)      4444.2  Rx         070D  1  05 
  1093)      4450.0  Rx         070C  1  05 
  1094)      4481.9  Rx         0080  0  
  1095)      4495.6  Rx         070B  1  05 
  1096)      4496.5  Rx         070D  1  05 
  1097)      4500.8  Rx         020B  8  FF 7F 00 00 C4 09 FF 7F 
  1098)      4501.0  Rx         030B  1  00 
  1099)      4501.5  Rx         020C  8  FF 7F 00 00 D0 07 FF 7F 
  1100)      4501.8  Rx         030C  1  00 
  1101)      4502.2  Rx         020D  8  00 00 00 00 B8 0B FF 7F 
  1102)      4502.5  Rx         030D  1  00 
  1103)      4502.7  Rx         070C  1  05 
  1104)      4503.2  Rx         018C  8  00 00 00 00 00 00 1E 00 
  1105)      4503.7  Rx         028C  8  00 00 29 1F 9A 00 16 01 
  1106)      4504.2  Rx         018B  8  00 00 00 00 00 00 23 00 
  1107)      4504.7  Rx         028B  8  00 00 27 1F 9A 00 34 01 
  1108)      4505.1  Rx         018D  8  00 00 00 00 00 00 1B 00 
  1109)      4505.6  Rx         028D  8  00 00 2A 1F 55 00 CA 00 
  1110)      4535.4  Rx         01AA  8  2C 1F 43 00 14 05 01 00 
  1111)      4540.0  Rx         072A  1  05 
  1112)      4548.0  Rx         070B  1  05 
  1113)      4548.5  Rx         070D  1  05 
  1114)      4554.3  Rx         070C  1  05 
  1115)      4577.3  Rx         0080  0  
  1116)      4595.8  Rx         020B  8  FF 7F 00 00 C4 09 FF 7F 
  1117)      4596.1  Rx         030B  1  00 
  1118)      4596.6  Rx         020C  8  FF 7F 00 00 D0 07 FF 7F 
  1119)      4597.0  Rx         018B  8  00 00 00 00 00 00 22 00 
  1120)      4597.5  Rx         028B  8  00 00 27 1F 9A 00 34 01 
  1121)      4597.8  Rx         030C  1  00 
  1122)      4598.2  Rx         020D  8  00 00 00 00 B8 0B FF 7F 
  1123)      4598.5  Rx         030D  1  00 
  1124)      4599.0  Rx         018C  8  00 00 00 00 00 00 1A 00 
  1125)      4599.5  Rx         028C  8  00 00 29 1F 9A 00 16 01 
  1126)      4600.0  Rx         070B  1  05 
  1127)      4600.9  Rx         070D  1  05 
  1128)      4601.7  Rx         018D  8  00 00 00 00 00 00 1E 00 
  1129)      4602.1  Rx         028D  8  00 00 2A 1F 55 00 CA 00 
  1130)      4606.5  Rx         070C  1  05 
  1131)      4635.3  Error      0004  4  01 08 00 00
  1132)      4635.8  Error      0002  4  01 18 00 00
  1133)      4636.4  Error      0002  4  01 18 00 00
  1134)      4636.9  Error      0002  4  01 18 00 00
  1135)      4643.1  Error      0002  4  01 1A 00 00
  1136)      4643.3  Error      0004  4  01 0A 00 00
  1137)      4643.5  Error      0004  4  01 0A 00 00
  1138)      4643.6  Error      0004  4  01 02 00 00
  1139)      4644.1  Error      0002  4  01 18 00 00
  1140)      4644.4  Error      0004  4  01 0A 00 00
  1141)      4644.7  Error      0004  4  01 0A 00 00
  1142)      4645.2  Error      0002  4  01 1B 00 00
  1143)      4645.8  Rx         01AA  8  2C 1F 44 00 14 05 01 00 
  1144)      4646.0  Rx         072A  1  05 
  1145)      4652.2  Rx         070B  1  05 
  1146)      4652.9  Rx         070D  1  05 
  1147)      4658.7  Rx         070C  1  05 
  1148)      4671.9  Rx         0080  0  
  1149)      4690.1  Rx         020B  8  FF 7F 00 00 C4 09 FF 7F 
  1150)      4690.4  Rx         030B  1  00 
  1151)      4690.9  Rx         020C  8  FF 7F 00 00 D0 07 FF 7F 
  1152)      4691.1  Rx         030C  1  00 
  1153)      4691.6  Rx         020D  8  00 00 00 00 B8 0B FF 7F 
  1154)      4691.8  Rx         030D  1  00 
  1155)      4693.2  Rx         018B  8  00 00 00 00 00 00 1B 00 
  1156)      4693.7  Rx         018D  8  00 00 00 00 00 00 1C 00 
  1157)      4694.1  Rx         028B  8  00 00 27 1F 9A 00 34 01 
  1158)      4694.6  Rx         028D  8  00 00 2A 1F 55 00 CA 00 
  1159)      4695.3  Rx         018C  8  00 00 00 00 00 00 1F 00 
  1160)      4695.8  Rx         028C  8  00 00 29 1F 9A 00 16 01 
  1161)      4704.3  Rx         070B  1  05 
  1162)      4705.2  Rx         070D  1  05 
  1163)      4710.9  Rx         070C  1  05 
  1164)      4721.6  Rx         0703  1  05 
  1165)      4735.4  Error      0002  4  01 18 00 00
  1166)      4735.4  Error      0008  4  01 13 00 00
  1167)      4735.9  Error      0002  4  01 1B 00 00
  1168)      4736.4  Error      0002  4  01 18 00 00
  1169)      4736.7  Error      0004  4  01 0A 00 00
  1170)      4737.1  Error      0004  4  01 08 00 00
  1171)      4737.7  Rx         01AA  8  2C 1F 44 00 14 05 01 00 
  1172)      4740.0  Rx         072A  1  05 
  1173)      4756.6  Rx         070B  1  05 
  1174)      4757.2  Rx         070D  1  05 
  1175)      4763.1  Rx         070C  1  05 
  1176)      4768.2  Rx         0080  0  
  1177)      4770.2  Error      0002  4  01 1B 00 00
  1178)      4770.3  Error      0008  4  01 13 00 00
  1179)      4770.6  Error      0004  4  01 0A 00 00
  1180)      4771.1  Error      0002  4  01 1A 00 00
  1181)      4771.6  Error      0002  4  01 1B 00 00
  1182)      4772.1  Rx         04AA  8  39 11 0B 01 06 14 00 00 
  1183)      4786.6  Rx         020B  8  FF 7F 00 00 C4 09 FF 7F 
  1184)      4786.8  Rx         030B  1  00 
  1185)      4787.3  Rx         020C  8  FF 7F 00 00 D0 07 FF 7F 
  1186)      4787.5  Rx         030C  1  00 
  1187)      4788.0  Rx         020D  8  00 00 00 00 B8 0B FF 7F 
  1188)      4788.2  Rx         030D  1  00 
  1189)      4789.1  Rx         018B  8  00 00 00 00 00 00 21 00 
  1190)      4789.6  Rx         028B  8  00 00 27 1F 9A 00 34 01 
  1191)      4790.1  Rx         018D  8  FF FF 00 00 00 00 18 00 
  1192)      4790.5  Rx         028D  8  00 00 2A 1F 55 00 CA 00 
  1193)      4791.7  Rx         018C  8  00 00 00 00 00 00 1A 00 
  1194)      4792.1  Rx         028C  8  00 00 29 1F 9A 00 16 01 
  1195)      4808.7  Rx         070B  1  05 
  1196)      4809.7  Rx         070D  1  05 
  1197)      4815.3  Rx         070C  1  05 
  1198)      4835.0  Error      0004  4  01 07 00 00
  1199)      4835.4  Error      0004  4  01 0A 00 00
  1200)      4835.9  Rx         01AA  8  2C 1F 44 00 14 05 01 00 
  1201)      4840.0  Error      0002  4  01 1B 00 00
  1202)      4840.3  Error      0004  4  01 0A 00 00
  1203)      4840.4  Error      0008  4  01 13 00 00
  1204)      4840.6  Rx         072A  1  05 
  1205)      4860.9  Rx         070B  1  05 
  1206)      4861.6  Rx         070D  1  05 
  1207)      4863.0  Rx         0080  0  
  1208)      4867.5  Rx         070C  1  05 
  1209)      4881.6  Rx         020B  8  FF 7F 00 00 C4 09 FF 7F 
  1210)      4881.8  Rx         030B  1  00 
  1211)      4882.3  Rx         020C  8  FF 7F 00 00 D0 07 FF 7F 
  1212)      4882.5  Rx         030C  1  00 
  1213)      4883.0  Rx         020D  8  00 00 00 00 B8 0B FF 7F 
  1214)      4883.2  Rx         030D  1  00 
  1215)      4884.0  Rx         018C  8  00 00 00 00 00 00 24 00 
  1216)      4884.5  Rx         028C  8  00 00 29 1F 9A 00 16 01 
  1217)      4885.4  Rx         018B  8  00 00 00 00 00 00 1C 00 
  1218)      4885.9  Rx         028B  8  00 00 27 1F 9A 00 34 01 
  1219)      4886.4  Rx         018D  8  00 00 00 00 00 00 1F 00 
  1220)      4886.9  Rx         028D  8  00 00 2A 1F 55 00 CA 00 
  1221)      4913.0  Rx         070B  1  05 
  1222)      4913.8  Rx         070D  1  05 
  1223)      4919.7  Rx         070C  1  05 
  1224)      4935.2  Error      0004  4  01 0A 00 00
  1225)      4935.8  Error      0002  4  01 18 00 00
  1226)      4936.3  Error      0002  4  01 18 00 00
  1227)      4936.4  Error      0004  4  01 02 00 00
  1228)      4937.0  Rx         01AA  8  2C 1F 43 00 14 05 01 00 
  1229)      4937.6  Rx         0080  0  
  1230)      4939.9  Error      0004  4  01 0A 00 00
  1231)      4940.0  Error      0008  4  01 13 00 00
  1232)      4940.3  Rx         072A  1  05 
  1233)      4956.0  Rx         020B  8  FF 7F 00 00 C4 09 FF 7F 
  1234)      4956.2  Rx         030B  1  00 
  1235)      4956.7  Rx         020C  8  FF 7F 00 00 D0 07 FF 7F 
  1236)      4956.9  Rx         030C  1  00 
  1237)      4957.4  Rx         020D  8  00 00 00 00 B8 0B FF 7F 
  1238)      4957.9  Rx         018B  8  00 00 00 00 00 00 1A 00 
  1239)      4958.4  Rx         018D  8  00 00 00 00 00 00 1B 00 
  1240)      4958.9  Rx         028B  8  00 00 27 1F 9A 00 34 01 
  1241)      4959.1  Rx         030D  1  00 
  1242)      4960.3  Rx         018C  8  00 00 00 00 00 00 1F 00 
  1243)      4960.8  Rx         028C  8  00 00 29 1F 9A 00 16 01 
  1244)      4962.4  Rx         028D  8  00 00 2A 1F 55 00 CA 00 
  1245)      4965.2  Rx         070B  1  05 
  1246)      4965.9  Rx         070D  1  05 
  1247)      4971.9  Rx         070C  1  05 
  1248)      5017.4  Rx         070B  1  05 
  1249)      5018.2  Rx         070D  1  05 
  1250)      5024.1  Rx         070C  1  05 
  1251)      5031.9  Rx         0703  1  05 
  1252)      5032.1  Rx         0080  0  
  1253)      5035.5  Rx         01AA  8  2D 1F 43 00 14 05 01 00 
  1254)      5040.1  Rx         072A  1  05 
  1255)      5050.1  Rx         020B  8  FF 7F 00 00 C4 09 FF 7F 
  1256)      5050.4  Rx         030B  1  00 
  1257)      5050.9  Rx         020C  8  FF 7F 00 00 D0 07 FF 7F 
  1258)      5051.1  Rx         030C  1  00 
  1259)      5051.6  Rx         020D  8  00 00 00 00 B8 0B FF 7F 
  1260)      5051.8  Rx         030D  1  00 
  1261)      5052.6  Rx         018C  8  00 00 00 00 00 00 1B 00 
  1262)      5053.1  Rx         028C  8  00 00 29 1F 9A 00 16 01 
  1263)      5054.0  Rx         018B  8  00 00 00 00 00 00 1C 00 
  1264)      5054.5  Rx         028B  8  00 00 27 1F 9A 00 34 01 
  1265)      5054.9  Rx         018D  8  FF FF 00 00 00 00 24 00 
  1266)      5055.4  Rx         028D  8  00 00 2A 1F 55 00 CA 00 
  1267)      5069.6  Rx         070B  1  05 
  1268)      5070.3  Rx         070D  1  05 
  1269)      5076.2  Rx         070C  1  05 
  1270)      5121.7  Rx         070B  1  05 
  1271)      5122.6  Rx         070D  1  05 
  1272)      5127.6  Rx         0080  0  
  1273)      5128.6  Rx         070C  1  05 
  1274)      5135.5  Error      0002  4  01 18 00 00
  1275)      5136.0  Error      0002  4  01 1B 00 00
  1276)      5136.4  Error      0004  4  01 0A 00 00
  1277)      5137.0  Error      0002  4  01 1B 00 00
  1278)      5137.0  Error      0008  4  01 13 00 00
  1279)      5137.3  Error      0004  4  01 0A 00 00
  1280)      5137.8  Error      0002  4  01 1B 00 00
  1281)      5138.4  Rx         01AA  8  2D 1F 43 00 14 05 01 00 
  1282)      5140.1  Rx         072A  1  05 
  1283)      5146.0  Rx         020B  8  FF 7F 00 00 C4 09 FF 7F 
  1284)      5146.2  Rx         030B  1  00 
  1285)      5146.7  Rx         020C  8  FF 7F 00 00 D0 07 FF 7F 
  1286)      5146.9  Rx         030C  1  00 
  1287)      5147.4  Rx         020D  8  00 00 00 00 B8 0B FF 7F 
  1288)      5147.7  Rx         030D  1  00 
  1289)      5149.0  Rx         018C  8  00 00 00 00 00 00 1C 00 
  1290)      5149.4  Rx         028C  8  00 00 29 1F 9A 00 16 01 
  1291)      5150.3  Rx         018B  8  00 00 00 00 00 00 1D 00 
  1292)      5150.8  Rx         028B  8  00 00 27 1F 9A 00 34 01 
  1293)      5151.3  Rx         018D  8  FF FF 00 00 00 00 22 00 
  1294)      5151.7  Rx         028D  8  00 00 2A 1F 55 00 CA 00 
  1295)      5173.9  Rx         070B  1  05 
  1296)      5174.7  Rx         070D  1  05 
  1297)      5180.6  Rx         070C  1  05 
  1298)      5222.9  Rx         0080  0  
  1299)      5226.1  Rx         070B  1  05 
  1300)      5226.9  Rx         070D  1  05 
  1301)      5232.9  Rx         070C  1  05 
  1302)      5235.5  Rx         01AA  8  2D 1F 43 00 14 05 01 00 
  1303)      5240.1  Rx         072A  1  05 
  1304)      5241.5  Rx         020B  8  FF 7F 00 00 C4 09 FF 7F 
  1305)      5241.8  Rx         030B  1  00 
  1306)      5242.3  Rx         020C  8  FF 7F 00 00 D0 07 FF 7F 
  1307)      5242.5  Rx         030C  1  00 
  1308)      5243.0  Rx         020D  8  00 00 00 00 B8 0B FF 7F 
  1309)      5243.5  Rx         018B  8  00 00 00 00 00 00 24 00 
  1310)      5243.9  Rx         028B  8  00 00 27 1F 9A 00 34 01 
  1311)      5244.2  Rx         030D  1  00 
  1312)      5245.3  Rx         018C  8  00 00 00 00 00 00 1E 00 
  1313)      5245.8  Rx         028C  8  00 00 29 1F 9A 00 16 01 
  1314)      5247.9  Rx         018D  8  00 00 00 00 00 00 1E 00 
  1315)      5248.4  Rx         028D  8  00 00 2A 1F 55 00 CA 00 
  1316)      5278.3  Rx         070B  1  05 
  1317)      5279.2  Rx         070D  1  05 
  1318)      5285.0  Rx         070C  1  05 
  1319)      5297.7  Rx         0080  0  
  1320)      5316.7  Rx         020B  8  FF 7F 00 00 C4 09 FF 7F 
  1321)      5316.9  Rx         030B  1  00 
  1322)      5317.4  Rx         020C  8  FF 7F 00 00 D0 07 FF 7F 
  1323)      5317.6  Rx         030C  1  00 
  1324)      5318.1  Rx         020D  8  00 00 00 00 B8 0B FF 7F 
  1325)      5318.4  Rx         030D  1  00 
  1326)      5318.9  Rx         018B  8  00 00 00 00 00 00 23 00 
  1327)      5319.4  Rx         028B  8  00 00 27 1F 9A 00 34 01 
  1328)      5319.9  Rx         018D  8  FF FF 00 00 00 00 19 00 
  1329)      5320.3  Rx         028D  8  00 00 2A 1F 55 00 CA 00 
  1330)      5321.6  Rx         018C  8  00 00 00 00 00 00 16 00 
  1331)      5322.1  Rx         028C  8  00 00 29 1F 9A 00 16 01 
  1332)      5330.6  Rx         070B  1  05 
  1333)      5331.3  Rx         070D  1  05 
  1334)      5335.5  Error      0002  4  01 19 00 00
  1335)      5336.1  Rx         01AA  8  2D 1F 43 00 14 05 01 00 
  1336)      5337.2  Rx         070C  1  05 
  1337)      5340.1  Rx         072A  1  05 
  1338)      5344.2  Rx         0703  1  05 
  1339)      5382.6  Rx         070B  1  05 
  1340)      5383.4  Rx         070D  1  05 
  1341)      5389.3  Rx         070C  1  05 
  1342)      5393.3  Rx         0080  0  
  1343)      5411.8  Rx         020B  8  FF 7F 00 00 C4 09 FF 7F 
  1344)      5412.0  Rx         030B  1  00 
  1345)      5412.5  Rx         020C  8  FF 7F 00 00 D0 07 FF 7F 
  1346)      5412.7  Rx         030C  1  00 
  1347)      5413.2  Rx         020D  8  00 00 00 00 B8 0B FF 7F 
  1348)      5413.5  Rx         030D  1  00 
  1349)      5414.0  Rx         018C  8  00 00 00 00 00 00 19 00 
  1350)      5414.4  Rx         028C  8  00 00 29 1F 9A 00 16 01 
  1351)      5415.1  Rx         018B  8  00 00 00 00 00 00 1D 00 
  1352)      5415.6  Rx         028B  8  00 00 27 1F 9A 00 34 01 
  1353)      5416.3  Rx         018D  8  00 00 00 00 00 00 10 00 
  1354)      5416.8  Rx         028D  8  00 00 2A 1F 55 00 CA 00 
  1355)      5434.7  Rx         070B  1  05 
  1356)      5435.2  Error      0004  4  01 0A 00 00
  1357)      5435.7  Error      0002  4  01 18 00 00
  1358)      5435.7  Error      0008  4  01 13 00 00
  1359)      5436.0  Rx         070D  1  05 
  1360)      5441.5  Rx         070C  1  05 
  1361)      5442.3  Rx         01AA  8  2D 1F 45 00 14 05 01 00 
  1362)      5442.5  Error      0002  4  01 1A 00 00
  1363)      5442.7  Error      0002  4  01 18 00 00
  1364)      5443.0  Rx         072A  1  05 
  1365)      5486.9  Rx         070B  1  05 
  1366)      5487.7  Rx         070D  1  05 
  1367)      5487.9  Rx         0080  0  
  1368)      5493.7  Rx         070C  1  05 
  1369)      5506.2  Rx         020B  8  FF 7F 00 00 C4 09 FF 7F 
  1370)      5506.4  Rx         030B  1  00 
  1371)      5506.9  Rx         020C  8  FF 7F 00 00 D0 07 FF 7F 
  1372)      5507.4  Rx         018B  8  00 00 00 00 00 00 1E 00 
  1373)      5507.9  Rx         028B  8  00 00 27 1F 9A 00 34 01 
  1374)      5508.1  Rx         030C  1  00 
  1375)      5508.6  Rx         020D  8  00 00 00 00 B8 0B FF 7F 
  1376)      5508.8  Rx         030D  1  00 
  1377)      5510.7  Rx         018C  8  00 00 00 00 00 00 1E 00 
  1378)      5511.2  Rx         028C  8  00 00 29 1F 9A 00 16 01 
  1379)      5512.6  Rx         018D  8  00 00 00 00 00 00 17 00 
  1380)      5513.1  Rx         028D  8  00 00 2A 1F 55 00 CA 00 
  1381)      5535.3  Error      0004  4  01 0A 00 00
  1382)      5535.3  Error      0008  4  01 13 00 00
  1383)      5535.6  Error      0004  4  01 0A 00 00
  1384)      5535.7  Error      0004  4  01 02 00 00
  1385)      5536.2  Rx         01AA  8  2D 1F 44 00 14 05 01 00 
  1386)      5539.1  Rx         070B  1  05 
  1387)      5539.9  Rx         070D  1  05 
  1388)      5540.1  Rx         072A  1  05 
  1389)      5545.8  Rx         070C  1  05 
  1390)      5583.1  Rx         0080  0  
  1391)      5591.3  Rx         070B  1  05 
  1392)      5592.1  Rx         070D  1  05 
  1393)      5598.1  Rx         070C  1  05 
  1394)      5601.6  Rx         020B  8  FF 7F 00 00 C4 09 FF 7F 
  1395)      5601.8  Rx         030B  1  00 
  1396)      5602.3  Rx         020C  8  FF 7F 00 00 D0 07 FF 7F 
  1397)      5602.5  Rx         030C  1  00 
  1398)      5603.0  Rx         020D  8  00 00 00 00 B8 0B FF 7F 
  1399)      5603.2  Rx         030D  1  00 
  1400)      5603.7  Rx         018B  8  00 00 00 00 00 00 1D 00 
  1401)      5604.2  Rx         028B  8  00 00 27 1F 9A 00 34 01 
  1402)      5604.7  Rx         018D  8  00 00 00 00 00 00 1D 00 
  1403)      5605.2  Rx         028D  8  00 00 2A 1F 55 00 CA 00 
  1404)      5606.9  Rx         018C  8  00 00 00 00 00 00 19 00 
  1405)      5607.4  Rx         028C  8  00 00 29 1F 9A 00 16 01 
  1406)      5635.2  Error      0004  4  01 0A 00 00
  1407)      5635.6  Error      0004  4  01 08 00 00
  1408)      5636.1  Error      0002  4  01 1B 00 00
  1409)      5636.6  Rx         01AA  8  2E 1F 43 00 14 05 01 00 
  1410)      5640.1  Rx         072A  1  05 
  1411)      5643.4  Rx         070B  1  05 
  1412)      5644.2  Rx         070D  1  05 
  1413)      5650.2  Rx         070C  1  05 
  1414)      5655.7  Rx         0703  1  05 
  1415)      5678.4  Rx         0080  0  
  1416)      5695.6  Rx         070B  1  05 
  1417)      5696.3  Rx         070D  1  05 
  1418)      5697.1  Rx         020B  8  FF 7F 00 00 C4 09 FF 7F 
  1419)      5697.3  Rx         030B  1  00 
  1420)      5697.8  Rx         020C  8  FF 7F 00 00 D0 07 FF 7F 
  1421)      5698.1  Rx         030C  1  00 
  1422)      5698.6  Rx         020D  8  00 00 00 00 B8 0B FF 7F 
  1423)      5699.1  Rx         018C  8  00 00 00 00 00 00 21 00 
  1424)      5699.5  Rx         028C  8  00 00 29 1F 9A 00 16 01 
  1425)      5699.8  Rx         030D  1  00 
  1426)      5700.3  Rx         018B  8  00 00 00 00 00 00 21 00 
  1427)      5700.7  Rx         028B  8  00 00 27 1F 9A 00 34 01 
  1428)      5701.2  Rx         018D  8  00 00 00 00 00 00 1F 00 
  1429)      5701.7  Rx         028D  8  00 00 2A 1F 55 00 CA 00 
  1430)      5702.6  Rx         070C  1  05 
  1431)      5735.5  Rx         01AA  8  2E 1F 43 00 14 05 01 00 
  1432)      5740.2  Rx         072A  1  05 
  1433)      5747.8  Rx         070B  1  05 
  1434)      5748.6  Rx         070D  1  05 
  1435)      5753.6  Rx         0080  0  
  1436)      5754.6  Rx         070C  1  05 
  1437)      5770.4  Rx         04AA  8  3A 11 0B 01 06 14 00 00 
  1438)      5771.9  Rx         020B  8  FF 7F 00 00 C4 09 FF 7F 
  1439)      5772.1  Rx         030B  1  00 
  1440)      5772.6  Rx         020C  8  FF 7F 00 00 D0 07 FF 7F 
  1441)      5772.8  Rx         030C  1  00 
  1442)      5773.3  Rx         020D  8  00 00 00 00 B8 0B FF 7F 
  1443)      5773.6  Rx         030D  1  00 
  1444)      5775.6  Rx         018C  8  00 00 00 00 00 00 20 00 
  1445)      5776.1  Rx         028C  8  00 00 29 1F 9A 00 16 01 
  1446)      5776.6  Rx         018B  8  00 00 00 00 00 00 1D 00 
  1447)      5777.1  Rx         018D  8  FF FF 00 00 00 00 1C 00 
  1448)      5777.6  Rx         028B  8  00 00 27 1F 9A 00 34 01 
  1449)      5778.1  Rx         028D  8  00 00 2A 1F 55 00 CA 00 
  1450)      5800.1  Rx         070B  1  05 
  1451)      5800.7  Rx         070D  1  05 
  1452)      5807.0  Rx         070C  1  05 
  1453)      5835.5  Error      0002  4  01 1B 00 00
  1454)      5836.0  Error      0004  4  01 08 00 00
  1455)      5836.5  Error      0002  4  01 1B 00 00
  1456)      5836.7  Error      0004  4  01 0A 00 00
  1457)      5837.1  Error      0004  4  01 0A 00 00
  1458)      5837.6  Rx         01AA  8  2E 1F 43 00 14 05 01 00 
  1459)      5840.2  Rx         072A  1  05 
  1460)      5848.0  Rx         0080  0  
  1461)      5852.1  Rx         070B  1  05 
  1462)      5852.9  Rx         070D  1  05 
  1463)      5859.0  Rx         070C  1  05 
  1464)      5866.3  Rx         020B  8  FF 7F 00 00 C4 09 FF 7F 
  1465)      5866.5  Rx         030B  1  00 
  1466)      5867.0  Rx         020C  8  FF 7F 00 00 D0 07 FF 7F 
  1467)      5867.2  Rx         030C  1  00 
  1468)      5867.7  Rx         020D  8  00 00 00 00 B8 0B FF 7F 
  1469)      5867.9  Rx         030D  1  00 
  1470)      5868.6  Rx         018B  8  00 00 00 00 00 00 1F 00 
  1471)      5869.1  Rx         028B  8  00 00 27 1F 9A 00 34 01 
  1472)      5869.6  Rx         018D  8  FF FF 00 00 00 00 15 00 
  1473)      5870.1  Rx         028D  8  00 00 2A 1F 55 00 CA 00 
  1474)      5871.9  Rx         018C  8  00 00 00 00 00 00 1D 00 
  1475)      5872.4  Rx         028C  8  00 00 29 1F 9A 00 16 01 
  1476)      5904.4  Rx         070B  1  05 
  1477)      5905.0  Rx         070D  1  05 
  1478)      5911.2  Rx         070C  1  05 
  1479)      5935.4  Error      0004  4  01 0A 00 00
  1480)      5935.9  Error      0002  4  01 1B 00 00
  1481)      5936.1  Error      0004  4  01 0B 00 00
  1482)      5936.6  Rx         01AA  8  2E 1F 44 00 14 05 01 00 
  1483)      5940.2  Rx         072A  1  05 
  1484)      5943.1  Rx         0080  0  
  1485)      5956.5  Rx         070B  1  05 
  1486)      5957.3  Rx         070D  1  05 
  1487)      5961.4  Rx         020B  8  FF 7F 00 00 C4 09 FF 7F 
  1488)      5961.6  Rx         030B  1  00 
  1489)      5962.1  Rx         020C  8  FF 7F 00 00 D0 07 FF 7F 
  1490)      5962.4  Rx         030C  1  00 
  1491)      5962.9  Rx         020D  8  00 00 00 00 B8 0B FF 7F 
  1492)      5963.1  Rx         030D  1  00 
  1493)      5963.4  Rx         070C  1  05 
  1494)      5963.9  Rx         018C  8  00 00 00 00 00 00 25 00 
  1495)      5964.4  Rx         028C  8  00 00 29 1F 9A 00 16 01 
  1496)      5965.0  Rx         018B  8  00 00 00 00 00 00 23 00 
  1497)      5965.4  Rx         028B  8  00 00 27 1F 9A 00 34 01 
  1498)      5966.2  Rx         018D  8  00 00 00 00 00 00 15 00 
  1499)      5966.6  Rx         028D  8  00 00 2A 1F 55 00 CA 00 
  1500)      5967.2  Rx         0703  1  05 
  1501)      6008.9  Rx         070B  1  05 
  1502)      6009.4  Rx         070D  1  05 
  1503)      6015.6  Rx         070C  1  05 
  1504)      6035.4  Error      0004  4  01 0A 00 00
  1505)      6035.9  Error      0002  4  01 1A 00 00
  1506)      6036.5  Rx         01AA  8  2E 1F 44 00 14 05 01 00 
  1507)      6037.9  Rx         0080  0  
  1508)      6040.2  Rx         072A  1  05 
  1509)      6056.6  Rx         020B  8  FF 7F 00 00 C4 09 FF 7F 
  1510)      6056.8  Rx         030B  1  00 
  1511)      6057.3  Rx         020C  8  FF 7F 00 00 D0 07 FF 7F 
  1512)      6057.8  Rx         018B  8  00 00 00 00 00 00 24 00 
  1513)      6058.3  Rx         028B  8  00 00 27 1F 9A 00 34 01 
  1514)      6058.5  Rx         030C  1  00 
  1515)      6059.0  Rx         020D  8  00 00 00 00 B8 0B FF 7F 
  1516)      6059.2  Rx         030D  1  00 
  1517)      6060.2  Rx         018C  8  00 00 00 00 00 00 1B 00 
  1518)      6060.7  Rx         028C  8  00 00 29 1F 9A 00 16 01 
  1519)      6060.9  Rx         070B  1  05 
  1520)      6061.7  Rx         070D  1  05 
  1521)      6062.5  Rx         018D  8  00 00 00 00 00 00 1C 00 
  1522)      6062.9  Rx         028D  8  00 00 2A 1F 55 00 CA 00 
  1523)      6067.8  Rx         070C  1  05 
  1524)      6113.2  Rx         070B  1  05 
  1525)      6113.7  Rx         070D  1  05 
  1526)      6120.0  Rx         070C  1  05 
  1527)      6135.1  Rx         0080  0  
  1528)      6135.6  Rx         01AA  8  2E 1F 43 00 14 05 01 00 
  1529)      6140.2  Rx         072A  1  05 
  1530)      6153.5  Rx         020B  8  FF 7F 00 00 C4 09 FF 7F 
  1531)      6153.8  Rx         030B  1  00 
  1532)      6154.3  Rx         020C  8  FF 7F 00 00 D0 07 FF 7F 
  1533)      6154.5  Rx         030C  1  00 
  1534)      6155.0  Rx         020D  8  00 00 00 00 B8 0B FF 7F 
  1535)      6155.2  Rx         030D  1  00 
  1536)      6156.5  Rx         018C  8  00 00 00 00 00 00 1E 00 
  1537)      6157.0  Rx         028C  8  00 00 29 1F 9A 00 16 01 
  1538)      6157.6  Rx         018B  8  00 00 00 00 00 00 21 00 
  1539)      6158.1  Rx         028B  8  00 00 27 1F 9A 00 34 01 
  1540)      6158.8  Rx         018D  8  00 00 00 00 00 00 1B 00 
  1541)      6159.3  Rx         028D  8  00 00 2A 1F 55 00 CA 00 
  1542)      6165.2  Rx         070B  1  05 
  1543)      6166.1  Rx         070D  1  05 
  1544)      6172.2  Rx         070C  1  05 
  1545)      6217.4  Rx         070B  1  05 
  1546)      6218.1  Rx         070D  1  05 
  1547)      6224.4  Rx         070C  1  05 
  1548)      6230.3  Rx         0080  0  
  1549)      6235.6  Error      0002  4  01 1B 00 00
  1550)      6235.6  Error      0008  4  01 13 00 00
  1551)      6236.1  Error      0004  4  01 08 00 00
  1552)      6236.5  Error      0004  4  01 0A 00 00
  1553)      6237.0  Error      0004  4  01 08 00 00
  1554)      6237.5  Error      0004  4  01 0A 00 00
  1555)      6238.0  Error      0002  4  01 1B 00 00
  1556)      6238.5  Error      0004  4  01 08 00 00
  1557)      6239.0  Rx         01AA  8  2E 1F 43 00 14 05 01 00 
  1558)      6240.2  Rx         072A  1  05 
  1559)      6248.8  Rx         020B  8  FF 7F 00 00 C4 09 FF 7F 
  1560)      6249.1  Rx         030B  1  00 
  1561)      6249.5  Rx         020C  8  FF 7F 00 00 D0 07 FF 7F 
  1562)      6250.0  Rx         018B  8  00 00 00 00 00 00 21 00 
  1563)      6250.5  Rx         028B  8  00 00 27 1F 9A 00 34 01 
  1564)      6250.7  Rx         030C  1  00 
  1565)      6251.2  Rx         020D  8  00 00 00 00 B8 0B FF 7F 
  1566)      6251.5  Rx         030D  1  00 
  1567)      6252.9  Rx         018C  8  00 00 00 00 00 00 1D 00 
  1568)      6253.4  Rx         028C  8  00 00 29 1F 9A 00 16 01 
  1569)      6255.1  Rx         018D  8  00 00 00 00 00 00 1F 00 
  1570)      6255.6  Rx         028D  8  00 00 2A 1F 55 00 CA 00 
  1571)      6269.5  Rx         070B  1  05 
  1572)      6270.5  Rx         070D  1  05 
  1573)      6276.7  Rx         070C  1  05 
  1574)      6277.6  Rx         0703  1  05 
  1575)      6321.7  Rx         070B  1  05 
  1576)      6322.4  Rx         070D  1  05 
  1577)      6325.7  Rx         0080  0  
  1578)      6328.7  Rx         070C  1  05 
  1579)      6335.6  Error      0002  4  01 1B 00 00
  1580)      6335.7  Error      0008  4  01 13 00 00
  1581)      6336.2  Error      0002  4  01 1B 00 00
  1582)      6336.7  Rx         01AA  8  2E 1F 43 00 14 05 01 00 
  1583)      6340.3  Rx         072A  1  05 
  1584)      6344.4  Rx         020B  8  FF 7F 00 00 C4 09 FF 7F 
  1585)      6344.6  Rx         030B  1  00 
  1586)      6345.1  Rx         020C  8  FF 7F 00 00 D0 07 FF 7F 
  1587)      6345.4  Rx         030C  1  00 
  1588)      6345.9  Rx         020D  8  00 00 00 00 B8 0B FF 7F 
  1589)      6346.3  Rx         018B  8  00 00 00 00 00 00 26 00 
  1590)      6346.8  Rx         028B  8  00 00 27 1F 9A 00 34 01 
  1591)      6347.3  Rx         018D  8  00 00 00 00 00 00 1C 00 
  1592)      6347.6  Rx         030D  1  00 
  1593)      6349.7  Rx         018C  8  00 00 00 00 00 00 10 00 
  1594)      6350.2  Rx         028C  8  00 00 29 1F 9A 00 16 01 
  1595)      6351.0  Rx         028D  8  00 00 2A 1F 55 00 CA 00 
  1596)      6373.9  Rx         070B  1  05 
  1597)      6374.8  Rx         070D  1  05 
  1598)      6381.1  Rx         070C  1  05 
  1599)      6421.2  Rx         0080  0  
  1600)      6426.2  Rx         070B  1  05 
  1601)      6426.9  Rx         070D  1  05 
  1602)      6433.2  Rx         070C  1  05 
  1603)      6435.4  Error      0004  4  01 0A 00 00
  1604)      6435.9  Error      0004  4  01 0A 00 00
  1605)      6436.1  Error      0004  4  01 0A 00 00
  1606)      6436.6  Error      0002  4  01 1B 00 00
  1607)      6437.2  Rx         01AA  8  2F 1F 42 00 14 05 01 00 
  1608)      6439.7  Rx         020B  8  FF 7F 00 00 C4 09 FF 7F 
  1609)      6440.0  Rx         030B  1  00 
  1610)      6440.5  Rx         020C  8  FF 7F 00 00 D0 07 FF 7F 
  1611)      6440.7  Rx         030C  1  00 
  1612)      6441.2  Rx         020D  8  00 00 00 00 B8 0B FF 7F 
  1613)      6441.4  Rx         030D  1  00 
  1614)      6441.9  Rx         018C  8  00 00 00 00 00 00 16 00 
  1615)      6442.4  Rx         028C  8  00 00 29 1F 9A 00 16 01 
  1616)      6442.9  Rx         018B  8  00 00 00 00 00 00 23 00 
  1617)      6443.4  Rx         028B  8  00 00 33 1F 9A 00 34 01 
  1618)      6443.8  Rx         018D  8  00 00 00 00 00 00 1E 00 
  1619)      6444.3  Rx         028D  8  00 00 36 1F 55 00 CA 00 
  1620)      6444.5  Rx         072A  1  05 
  1621)      6478.4  Rx         070B  1  05 
  1622)      6479.2  Rx         070D  1  05 
  1623)      6485.4  Rx         070C  1  05 
  1624)      6518.2  Rx         0080  0  
  1625)      6530.5  Rx         070B  1  05 
  1626)      6531.2  Rx         070D  1  05 
  1627)      6535.4  Error      0004  4  01 07 00 00
  1628)      6535.9  Error      0004  4  01 0A 00 00
  1629)      6536.4  Rx         01AA  8  2E 1F 42 00 14 05 01 00 
  1630)      6537.1  Rx         020B  8  FF 7F 00 00 C4 09 FF 7F 
  1631)      6537.3  Rx         030B  1  00 
  1632)      6537.8  Rx         020C  8  FF 7F 00 00 D0 07 FF 7F 
  1633)      6538.0  Rx         030C  1  00 
  1634)      6538.5  Rx         020D  8  00 00 00 00 B8 0B FF 7F 
  1635)      6538.8  Rx         030D  1  00 
  1636)      6539.2  Rx         018B  8  00 00 00 00 00 00 22 00 
  1637)      6539.7  Rx         018D  8  00 00 00 00 00 00 1F 00 
  1638)      6540.2  Rx         028B  8  00 00 27 1F 9A 00 34 01 
  1639)      6540.7  Rx         028D  8  00 00 2A 1F 55 00 CA 00 
  1640)      6540.9  Rx         070C  1  05 
  1641)      6541.2  Error      0002  4  01 1A 00 00
  1642)      6541.3  Error      0004  4  01 0B 00 00
  1643)      6541.4  Error      0008  4  01 13 00 00
  1644)      6542.5  Rx         018C  8  00 00 00 00 00 00 1C 00 
  1645)      6543.0  Rx         028C  8  00 00 29 1F 9A 00 16 01 
  1646)      6548.2  Rx         072A  1  05 
  1647)      6582.9  Rx         070B  1  05 
  1648)      6583.5  Rx         070D  1  05 
  1649)      6589.9  Rx         070C  1  05 
  1650)      6590.9  Rx         0703  1  05 
  1651)      6613.1  Rx         0080  0  
  1652)      6631.6  Rx         020B  8  FF 7F 00 00 C4 09 FF 7F 
  1653)      6631.8  Rx         030B  1  00 
  1654)      6632.3  Rx         020C  8  FF 7F 00 00 D0 07 FF 7F 
  1655)      6632.6  Rx         030C  1  00 
  1656)      6633.1  Rx         020D  8  00 00 00 00 B8 0B FF 7F 
  1657)      6633.3  Rx         030D  1  00 
  1658)      6634.4  Rx         018C  8  00 00 00 00 00 00 1F 00 
  1659)      6634.9  Rx         028C  8  00 00 29 1F 9A 00 16 01 
  1660)      6635.1  Rx         070B  1  05 
  1661)      6635.6  Rx         018B  8  00 00 00 00 00 00 1F 00 
  1662)      6636.1  Rx         01AA  8  2F 1F 42 00 14 05 01 00 
  1663)      6636.6  Rx         028B  8  00 00 27 1F 9A 00 34 01 
  1664)      6636.8  Rx         070D  1  05 
  1665)      6637.3  Rx         018D  8  00 00 00 00 00 00 23 00 
  1666)      6637.8  Rx         028D  8  00 00 2A 1F 55 00 CA 00 
  1667)      6640.4  Error      0004  4  01 08 00 00
  1668)      6640.7  Error      0002  4  01 1B 00 00
  1669)      6641.0  Rx         072A  1  05 
  1670)      6642.0  Rx         070C  1  05 
  1671)      6687.2  Rx         070B  1  05 
  1672)      6687.8  Rx         070D  1  05 
  1673)      6694.2  Rx         070C  1  05 
  1674)      6708.6  Rx         0080  0  
  1675)      6727.1  Rx         020B  8  FF 7F 00 00 C4 09 FF 7F 
  1676)      6727.4  Rx         030B  1  00 
  1677)      6727.9  Rx         020C  8  FF 7F 00 00 D0 07 FF 7F 
  1678)      6728.1  Rx         030C  1  00 
  1679)      6728.6  Rx         020D  8  00 00 00 00 B8 0B FF 7F 
  1680)      6728.8  Rx         030D  1  00 
  1681)      6730.8  Rx         018C  8  00 00 00 00 00 00 1D 00 
  1682)      6731.2  Rx         028C  8  00 00 29 1F 9A 00 16 01 
  1683)      6731.7  Rx         018B  8  00 00 00 00 00 00 1F 00 
  1684)      6732.2  Rx         028B  8  00 00 27 1F 9A 00 34 01 
  1685)      6732.7  Rx         018D  8  FF FF 00 00 00 00 28 00 
  1686)      6733.2  Rx         028D  8  00 00 2A 1F 55 00 CA 00 
  1687)      6735.5  Error      0004  4  01 0A 00 00
  1688)      6735.6  Error      0004  4  01 06 00 00
  1689)      6735.8  Error      0004  4  01 0A 00 00
  1690)      6736.4  Rx         01AA  8  2F 1F 42 00 14 05 01 00 
  1691)      6739.2  Rx         070B  1  05 
  1692)      6740.1  Rx         070D  1  05 
  1693)      6740.5  Error      0002  4  01 1A 00 00
  1694)      6740.7  Error      0002  4  01 18 00 00
  1695)      6741.0  Rx         072A  1  05 
  1696)      6746.4  Rx         070C  1  05 
  1697)      6770.7  Error      0004  4  01 08 00 00
  1698)      6770.8  Error      0004  4  01 02 00 00
  1699)      6770.9  Error      0004  4  01 06 00 00
  1700)      6771.2  Error      0004  4  01 0A 00 00
  1701)      6771.7  Rx         04AA  8  3B 11 0B 01 06 14 00 00 
  1702)      6791.4  Rx         070B  1  05 
  1703)      6792.2  Rx         070D  1  05 
  1704)      6798.5  Rx         070C  1  05 
  1705)      6804.4  Rx         0080  0  
  1706)      6822.7  Rx         020B  8  FF 7F 00 00 C4 09 FF 7F 
  1707)      6822.9  Rx         030B  1  00 
  1708)      6823.4  Rx         020C  8  FF 7F 00 00 D0 07 FF 7F 
  1709)      6823.6  Rx         030C  1  00 
  1710)      6824.1  Rx         018B  8  00 00 00 00 00 00 21 00 
  1711)      6824.6  Rx         020D  8  00 00 00 00 B8 0B FF 7F 
  1712)      6825.1  Rx         028B  8  00 00 33 1F 9A 00 34 01 
  1713)      6825.3  Rx         030D  1  00 
  1714)      6827.1  Rx         018C  8  00 00 00 00 00 00 1B 00 
  1715)      6827.6  Rx         028C  8  00 00 29 1F 9A 00 16 01 
  1716)      6828.8  Rx         018D  8  00 00 00 00 00 00 1B 00 
  1717)      6829.2  Rx         028D  8  00 00 36 1F 55 00 CA 00 
  1718)      6835.6  Error      0004  4  01 0A 00 00
  1719)      6835.7  Error      0008  4  01 13 00 00
  1720)      6835.9  Error      0004  4  01 0A 00 00
  1721)      6836.0  Error      0004  4  01 02 00 00
  1722)      6836.5  Rx         01AA  8  2F 1F 43 00 14 05 01 00 
  1723)      6840.6  Error      0004  4  01 0A 00 00
  1724)      6841.1  Rx         02AA  8  87 00 00 00 A5 00 00 00 
  1725)      6843.6  Rx         070B  1  05 
  1726)      6844.5  Rx         070D  1  05 
  1727)      6845.5  Rx         072A  1  05 
  1728)      6850.8  Rx         070C  1  05 
  1729)      6895.8  Rx         070B  1  05 
  1730)      6896.6  Rx         070D  1  05 
  1731)      6899.1  Rx         0703  1  05 
  1732)      6899.3  Rx         0080  0  
  1733)      6902.9  Rx         070C  1  05 
  1734)      6917.4  Rx         020B  8  FF 7F 00 00 C4 09 FF 7F 
  1735)      6917.6  Rx         030B  1  00 
  1736)      6918.1  Rx         020C  8  FF 7F 00 00 D0 07 FF 7F 
  1737)      6918.4  Rx         030C  1  00 
  1738)      6918.9  Rx         020D  8  00 00 00 00 B8 0B FF 7F 
  1739)      6919.1  Rx         030D  1  00 
  1740)      6919.6  Rx         018C  8  00 00 00 00 00 00 20 00 
  1741)      6920.1  Rx         028C  8  00 00 29 1F 9A 00 16 01 
  1742)      6920.6  Rx         018B  8  00 00 00 00 00 00 24 00 
  1743)      6921.0  Rx         028B  8  00 00 27 1F 9A 00 34 01 
  1744)      6921.5  Rx         018D  8  FF FF 00 00 00 00 1B 00 
  1745)      6922.0  Rx         028D  8  00 00 2A 1F 55 00 CA 00 
  1746)      6935.9  Error      0002  4  01 1B 00 00
  1747)      6936.0  Error      0004  4  01 08 00 00
  1748)      6936.6  Error      0002  4  01 1B 00 00
  1749)      6936.9  Error      0004  4  01 0A 00 00
  1750)      6937.5  Error      0002  4  01 1B 00 00
  1751)      6937.5  Error      0008  4  01 13 00 00
  1752)      6937.7  Error      0004  4  01 0A 00 00
  1753)      6938.3  Error      0004  4  01 08 00 00
  1754)      6938.6  Error      0004  4  01 0A 00 00
  1755)      6938.8  Error      0004  4  01 07 00 00
  1756)      6939.2  Error      0004  4  01 0A 00 00
  1757)      6939.7  Rx         01AA  8  2F 1F 42 00 14 05 01 00 
  1758)      6940.5  Rx         072A  1  05 
  1759)      6948.0  Rx         070B  1  05 
  1760)      6948.8  Rx         070D  1  05 
  1761)      6955.2  Rx         070C  1  05 
  1762)      6995.9  Rx         0080  0  
  1763)      7000.1  Rx         070B  1  05 
  1764)      7000.9  Rx         070D  1  05 
  1765)      7007.3  Rx         070C  1  05 
  1766)      7014.6  Rx         020B  8  FF 7F 00 00 C4 09 FF 7F 
  1767)      7014.8  Rx         030B  1  00 
  1768)      7015.3  Rx         020C  8  FF 7F 00 00 D0 07 FF 7F 
  1769)      7015.5  Rx         030C  1  00 
  1770)      7016.0  Rx         020D  8  00 00 00 00 B8 0B FF 7F 
  1771)      7016.3  Rx         030D  1  00 
  1772)      7016.8  Rx         018B  8  00 00 00 00 00 00 1E 00 
  1773)      7017.2  Rx         028B  8  00 00 27 1F 9A 00 34 01 
  1774)      7017.7  Rx         018D  8  FF FF 00 00 00 00 21 00 
  1775)      7018.2  Rx         028D  8  00 00 2A 1F 55 00 CA 00 
  1776)      7019.9  Rx         018C  8  00 00 00 00 00 00 18 00 
  1777)      7020.3  Rx         028C  8  00 00 29 1F 9A 00 16 01 
  1778)      7035.9  Error      0002  4  01 1B 00 00
  1779)      7040.4  Error      0004  4  01 0A 00 00
  1780)      7040.7  Error      0004  4  01 08 00 00
  1781)      7041.0  Error      0004  4  01 08 00 00
  1782)      7041.3  Error      0002  4  01 1A 00 00
  1783)      7041.6  Rx         072A  1  05 
  1784)      7052.4  Rx         070B  1  05 
  1785)      7053.0  Rx         070D  1  05 
  1786)      7059.6  Rx         070C  1  05 
  1787)      7091.8  Rx         0080  0  
  1788)      7104.5  Rx         070B  1  05 
  1789)      7105.3  Rx         070D  1  05 
  1790)      7110.2  Rx         020B  8  FF 7F 00 00 C4 09 FF 7F 
  1791)      7110.5  Rx         030B  1  00 
  1792)      7111.0  Rx         020C  8  FF 7F 00 00 D0 07 FF 7F 
  1793)      7111.2  Rx         030C  1  00 
  1794)      7111.7  Rx         020D  8  00 00 00 00 B8 0B FF 7F 
  1795)      7111.9  Rx         030D  1  00 
  1796)      7112.1  Rx         070C  1  05 
  1797)      7112.6  Rx         018C  8  00 00 00 00 00 00 17 00 
  1798)      7113.1  Rx         018B  8  FF FF 00 00 00 00 20 00 
  1799)      7113.6  Rx         028B  8  00 00 27 1F 9A 00 34 01 
  1800)      7114.1  Rx         018D  8  00 00 00 00 00 00 1A 00 
  1801)      7114.6  Rx         028C  8  00 00 29 1F 9A 00 16 01 
  1802)      7115.1  Rx         028D  8  00 00 2A 1F 55 00 CA 00 
  1803)      7135.9  Error      0002  4  01 1A 00 00
  1804)      7136.5  Rx         01AA  8  2F 1F 42 00 14 05 01 00 
  1805)      7140.6  Rx         072A  1  05 
  1806)      7156.9  Rx         070B  1  05 
  1807)      7157.3  Rx         070D  1  05 
  1808)      7164.0  Rx         070C  1  05 
  1809)      7186.3  Rx         0080  0  
  1810)      7204.8  Rx         020B  8  FF 7F 00 00 C4 09 FF 7F 
  1811)      7205.0  Rx         030B  1  00 
  1812)      7205.5  Rx         020C  8  FF 7F 00 00 D0 07 FF 7F 
  1813)      7205.7  Rx         030C  1  00 
  1814)      7206.2  Rx         020D  8  00 00 00 00 B8 0B FF 7F 
