;$FILEVERSION=1.1
;$STARTTIME=43983.4098994444
;
;   C:\Users\eric.baril\Documents\KLM_deadbatt.trc
;
;   Start time: 2020-06-01 09:50:15.312.0
;   Generated by PCAN-View v4.2.5.569
;
;   Message Number
;   |         Time Offset (ms)
;   |         |        Type
;   |         |        |        ID (hex)
;   |         |        |        |     Data Length
;   |         |        |        |     |   Data Bytes (hex) ...
;   |         |        |        |     |   |
;---+--   ----+----  --+--  ----+---  +  -+ -- -- -- -- -- -- --
     1)        51.9  Rx         01AA  8  1A 20 04 00 85 04 01 00 
     2)        56.5  Rx         072A  1  05 
     3)       151.9  Rx         01AA  8  19 20 05 00 86 04 01 00 
     4)       156.5  Rx         072A  1  05 
     5)       251.9  Rx         01AA  8  1A 20 04 00 86 04 01 00 
     6)       256.5  Rx         072A  1  05 
     7)       351.8  Rx         01AA  8  1A 20 04 00 86 04 01 00 
     8)       356.4  Rx         072A  1  05 
     9)       451.9  Rx         01AA  8  1A 20 03 00 86 04 01 00 
    10)       456.5  Rx         072A  1  05 
    11)       461.7  Rx         04AA  8  09 33 09 01 06 14 00 00 
    12)       551.9  Rx         01AA  8  1A 20 04 00 86 04 01 00 
    13)       556.5  Rx         072A  1  05 
    14)       651.9  Rx         01AA  8  19 20 04 00 86 04 01 00 
    15)       656.8  Rx         02AA  8  6A 00 00 00 A5 00 00 00 
    16)       661.5  Rx         072A  1  05 
    17)       751.9  Rx         01AA  8  19 20 04 00 86 04 01 00 
    18)       756.5  Rx         072A  1  05 
    19)       852.0  Rx         01AA  8  1A 20 05 00 86 04 01 00 
    20)       856.6  Rx         072A  1  05 
    21)       952.0  Rx         01AA  8  1A 20 04 00 86 04 01 00 
    22)       956.6  Rx         072A  1  05 
    23)      1052.0  Rx         01AA  8  1A 20 04 00 86 04 01 00 
    24)      1056.6  Rx         072A  1  05 
    25)      1152.0  Rx         01AA  8  1A 20 03 00 86 04 01 00 
    26)      1156.6  Rx         072A  1  05 
    27)      1252.0  Rx         01AA  8  1A 20 04 00 86 04 01 00 
    28)      1256.7  Rx         072A  1  05 
    29)      1352.0  Rx         01AA  8  1A 20 04 00 86 04 01 00 
    30)      1356.6  Rx         072A  1  05 
    31)      1452.0  Rx         01AA  8  1A 20 05 00 86 04 01 00 
    32)      1456.6  Rx         072A  1  05 
    33)      1461.8  Rx         04AA  8  0A 33 09 01 06 14 00 00 
    34)      1552.0  Rx         01AA  8  1A 20 05 00 86 04 01 00 
    35)      1556.6  Rx         072A  1  05 
    36)      1652.0  Rx         01AA  8  1A 20 04 00 86 04 01 00 
    37)      1656.6  Rx         072A  1  05 
    38)      1752.0  Rx         01AA  8  1A 20 04 00 86 04 01 00 
    39)      1756.7  Rx         072A  1  05 
    40)      1852.1  Rx         01AA  8  1A 20 03 00 86 04 01 00 
    41)      1856.7  Rx         072A  1  05 
    42)      1952.1  Rx         01AA  8  1A 20 04 00 86 04 01 00 
    43)      1956.7  Rx         072A  1  05 
    44)      2052.1  Rx         01AA  8  1A 20 05 00 86 04 01 00 
    45)      2056.7  Rx         072A  1  05 
    46)      2152.1  Rx         01AA  8  1A 20 04 00 86 04 01 00 
    47)      2156.7  Rx         072A  1  05 
    48)      2252.2  Rx         01AA  8  1A 20 04 00 86 04 01 00 
    49)      2256.8  Rx         072A  1  05 
    50)      2352.3  Rx         01AA  8  1A 20 03 00 86 04 01 00 
    51)      2356.9  Rx         072A  1  05 
    52)      2452.3  Rx         01AA  8  19 20 02 00 86 04 01 00 
    53)      2456.9  Rx         072A  1  05 
    54)      2462.2  Rx         04AA  8  0B 33 09 01 06 14 00 00 
    55)      2552.3  Rx         01AA  8  19 20 04 00 86 04 01 00 
    56)      2557.0  Rx         072A  1  05 
    57)      2652.4  Rx         01AA  8  19 20 04 00 86 04 01 00 
    58)      2657.0  Rx         072A  1  05 
    59)      2752.4  Rx         01AA  8  1A 20 05 00 86 04 01 00 
    60)      2757.0  Rx         072A  1  05 
    61)      2852.4  Rx         01AA  8  1A 20 05 00 86 04 01 00 
    62)      2857.0  Rx         072A  1  05 
    63)      2952.4  Rx         01AA  8  1A 20 04 00 86 04 01 00 
    64)      2957.0  Rx         072A  1  05 
    65)      3052.4  Rx         01AA  8  1A 20 04 00 86 04 01 00 
    66)      3057.1  Rx         072A  1  05 
    67)      3152.5  Rx         01AA  8  1A 20 04 00 86 04 01 00 
    68)      3157.1  Rx         072A  1  05 
    69)      3252.5  Rx         01AA  8  19 20 05 00 86 04 01 00 
    70)      3257.1  Rx         072A  1  05 
    71)      3352.4  Rx         01AA  8  1A 20 04 00 86 04 01 00 
    72)      3357.0  Rx         072A  1  05 
    73)      3452.4  Rx         01AA  8  19 20 05 00 86 04 01 00 
    74)      3457.1  Rx         072A  1  05 
    75)      3462.3  Rx         04AA  8  0C 33 09 01 06 14 00 00 
    76)      3552.5  Rx         01AA  8  19 20 04 00 86 04 01 00 
    77)      3557.1  Rx         072A  1  05 
    78)      3652.5  Rx         01AA  8  19 20 03 00 86 04 01 00 
    79)      3657.1  Rx         072A  1  05 
    80)      3752.5  Rx         01AA  8  1A 20 03 00 86 04 01 00 
    81)      3757.1  Rx         072A  1  05 
    82)      3852.5  Rx         01AA  8  1A 20 03 00 86 04 01 00 
    83)      3857.2  Rx         072A  1  05 
    84)      3952.6  Rx         01AA  8  1A 20 03 00 86 04 01 00 
    85)      3957.2  Rx         072A  1  05 
    86)      4052.6  Rx         01AA  8  1A 20 05 00 86 04 01 00 
    87)      4057.2  Rx         072A  1  05 
    88)      4152.6  Rx         01AA  8  1A 20 05 00 86 04 01 00 
    89)      4157.2  Rx         072A  1  05 
    90)      4252.6  Rx         01AA  8  1A 20 05 00 86 04 01 00 
    91)      4257.3  Rx         072A  1  05 
    92)      4352.7  Rx         01AA  8  19 20 03 00 86 04 01 00 
    93)      4357.3  Rx         072A  1  05 
    94)      4452.7  Rx         01AA  8  19 20 04 00 86 04 01 00 
    95)      4457.3  Rx         072A  1  05 
    96)      4462.5  Rx         04AA  8  0D 33 09 01 06 14 00 00 
    97)      4552.7  Rx         01AA  8  19 20 04 00 86 04 01 00 
    98)      4557.3  Rx         072A  1  05 
    99)      4652.7  Rx         01AA  8  1A 20 04 00 86 04 01 00 
   100)      4657.3  Rx         072A  1  05 
   101)      4752.7  Rx         01AA  8  1A 20 05 00 86 04 01 00 
   102)      4757.4  Rx         072A  1  05 
   103)      4852.7  Rx         01AA  8  1A 20 05 00 86 04 01 00 
   104)      4857.4  Rx         072A  1  05 
   105)      4952.8  Rx         01AA  8  1A 20 04 00 86 04 01 00 
   106)      4957.4  Rx         072A  1  05 
   107)      5052.8  Rx         01AA  8  1A 20 03 00 86 04 01 00 
   108)      5057.4  Rx         072A  1  05 
   109)      5152.8  Rx         01AA  8  1A 20 04 00 86 04 01 00 
   110)      5157.5  Rx         072A  1  05 
   111)      5252.9  Rx         01AA  8  19 20 04 00 86 04 01 00 
   112)      5257.5  Rx         072A  1  05 
   113)      5352.8  Rx         01AA  8  19 20 05 00 86 04 01 00 
   114)      5357.4  Rx         072A  1  05 
   115)      5452.9  Rx         01AA  8  1A 20 05 00 86 04 01 00 
   116)      5457.5  Rx         072A  1  05 
   117)      5462.7  Rx         04AA  8  0E 33 09 01 06 14 00 00 
   118)      5552.9  Rx         01AA  8  1A 20 05 00 86 04 01 00 
   119)      5557.5  Rx         072A  1  05 
   120)      5652.9  Rx         01AA  8  1A 20 04 00 87 04 01 00 
   121)      5657.8  Rx         02AA  8  6A 00 00 00 A5 00 00 00 
   122)      5662.5  Rx         072A  1  05 
   123)      5752.9  Rx         01AA  8  1A 20 04 00 87 04 01 00 
   124)      5757.6  Rx         072A  1  05 
   125)      5852.9  Rx         01AA  8  19 20 05 00 87 04 01 00 
   126)      5857.6  Rx         072A  1  05 
   127)      5953.0  Rx         01AA  8  19 20 06 00 87 04 01 00 
   128)      5957.6  Rx         072A  1  05 
   129)      6053.0  Rx         01AA  8  19 20 05 00 87 04 01 00 
   130)      6057.6  Rx         072A  1  05 
   131)      6153.0  Rx         01AA  8  19 20 04 00 87 04 01 00 
   132)      6157.6  Rx         072A  1  05 
   133)      6253.0  Rx         01AA  8  19 20 04 00 87 04 01 00 
   134)      6257.7  Rx         072A  1  05 
   135)      6353.1  Rx         01AA  8  19 20 03 00 87 04 01 00 
   136)      6357.7  Rx         072A  1  05 
   137)      6453.1  Rx         01AA  8  19 20 04 00 87 04 01 00 
   138)      6457.7  Rx         072A  1  05 
   139)      6462.9  Rx         04AA  8  0F 33 09 01 06 14 00 00 
   140)      6553.1  Rx         01AA  8  19 20 04 00 87 04 01 00 
   141)      6557.7  Rx         072A  1  05 
   142)      6653.1  Rx         01AA  8  19 20 04 00 87 04 01 00 
   143)      6657.8  Rx         072A  1  05 
   144)      6753.2  Rx         01AA  8  19 20 04 00 87 04 01 00 
   145)      6757.8  Rx         072A  1  05 
   146)      6853.2  Rx         01AA  8  19 20 03 00 87 04 01 00 
   147)      6857.8  Rx         072A  1  05 
   148)      6953.2  Rx         01AA  8  19 20 02 00 87 04 01 00 
   149)      6957.8  Rx         072A  1  05 
   150)      7053.2  Rx         01AA  8  19 20 02 00 87 04 01 00 
   151)      7057.8  Rx         072A  1  05 
   152)      7153.2  Rx         01AA  8  19 20 03 00 87 04 01 00 
   153)      7157.9  Rx         072A  1  05 
   154)      7253.3  Rx         01AA  8  19 20 03 00 87 04 01 00 
   155)      7257.9  Rx         072A  1  05 
   156)      7353.2  Rx         01AA  8  19 20 03 00 87 04 01 00 
   157)      7357.9  Rx         072A  1  05 
   158)      7453.3  Rx         01AA  8  1A 20 03 00 87 04 01 00 
   159)      7457.9  Rx         072A  1  05 
   160)      7463.1  Rx         04AA  8  10 33 09 01 06 14 00 00 
   161)      7553.3  Rx         01AA  8  19 20 03 00 87 04 01 00 
   162)      7557.9  Rx         072A  1  05 
   163)      7653.3  Rx         01AA  8  19 20 02 00 87 04 01 00 
   164)      7657.9  Rx         072A  1  05 
   165)      7753.3  Rx         01AA  8  19 20 02 00 87 04 01 00 
   166)      7758.0  Rx         072A  1  05 
   167)      7853.4  Rx         01AA  8  19 20 02 00 87 04 01 00 
   168)      7858.0  Rx         072A  1  05 
   169)      7953.4  Rx         01AA  8  19 20 03 00 87 04 01 00 
   170)      7958.0  Rx         072A  1  05 
   171)      8053.4  Rx         01AA  8  19 20 03 00 87 04 01 00 
   172)      8058.0  Rx         072A  1  05 
   173)      8153.4  Rx         01AA  8  19 20 02 00 87 04 01 00 
   174)      8158.1  Rx         072A  1  05 
   175)      8253.4  Rx         01AA  8  19 20 02 00 87 04 01 00 
   176)      8258.1  Rx         072A  1  05 
   177)      8353.6  Rx         01AA  8  19 20 03 00 87 04 01 00 
   178)      8358.2  Rx         072A  1  05 
   179)      8453.6  Rx         01AA  8  19 20 03 00 87 04 01 00 
   180)      8458.2  Rx         072A  1  05 
   181)      8463.5  Rx         04AA  8  11 33 09 01 06 14 00 00 
   182)      8553.6  Rx         01AA  8  19 20 03 00 87 04 01 00 
   183)      8558.3  Rx         072A  1  05 
   184)      8653.6  Rx         01AA  8  1A 20 02 00 87 04 01 00 
   185)      8658.3  Rx         072A  1  05 
   186)      8753.6  Error      0002  4  01 1B 01 00
   187)      8754.1  Error      0002  4  01 1B 01 00
   188)      8754.6  Error      0002  4  01 1B 01 00
   189)      8755.1  Error      0002  4  01 1B 01 00
   190)      8755.6  Error      0002  4  01 1B 01 00
   191)      8756.1  Error      0002  4  01 1B 01 00
   192)      8756.6  Error      0002  4  01 1B 01 00
   193)      8757.1  Error      0002  4  01 1B 01 00
   194)      8757.6  Error      0002  4  01 1B 01 00
   195)      8758.1  Error      0002  4  01 1B 01 00
   196)      8758.6  Error      0002  4  01 1B 01 00
   197)      8759.1  Error      0002  4  01 1B 01 00
   198)      8759.6  Error      0002  4  01 1B 01 00
   199)      8760.1  Error      0002  4  01 1B 01 00
   200)      8760.6  Error      0002  4  01 1B 01 00
   201)      8761.1  Error      0002  4  01 1B 01 00
   202)      8761.6  Rx         01AA  8  19 20 02 00 87 04 01 00 
   203)      8761.6  Error      0000  4  00 00 00 00
   204)      8762.2  Rx         01AA  8  19 20 02 00 87 04 01 00 
   205)      8762.7  Rx         01AA  8  19 20 02 00 87 04 01 00 
   206)      8763.2  Rx         01AA  8  19 20 02 00 87 04 01 00 
   207)      8763.7  Rx         01AA  8  19 20 02 00 87 04 01 00 
   208)      8764.3  Rx         01AA  8  19 20 02 00 87 04 01 00 
   209)      8764.8  Rx         01AA  8  19 20 02 00 87 04 01 00 
   210)      8765.3  Rx         01AA  8  19 20 02 00 87 04 01 00 
   211)      8765.9  Rx         01AA  8  19 20 02 00 87 04 01 00 
   212)      8766.4  Rx         01AA  8  19 20 02 00 87 04 01 00 
   213)      8766.9  Rx         01AA  8  19 20 02 00 87 04 01 00 
   214)      8767.4  Rx         01AA  8  19 20 02 00 87 04 01 00 
   215)      8768.0  Rx         01AA  8  19 20 02 00 87 04 01 00 
   216)      8768.5  Rx         01AA  8  19 20 02 00 87 04 01 00 
   217)      8769.0  Rx         01AA  8  19 20 02 00 87 04 01 00 
   218)      8769.6  Rx         01AA  8  19 20 02 00 87 04 01 00 
   219)      8770.1  Rx         01AA  8  19 20 02 00 87 04 01 00 
   220)      8770.6  Rx         01AA  8  19 20 02 00 87 04 01 00 
   221)      8771.1  Rx         01AA  8  19 20 02 00 87 04 01 00 
   222)      8771.7  Rx         01AA  8  19 20 02 00 87 04 01 00 
   223)      8772.2  Rx         01AA  8  19 20 02 00 87 04 01 00 
   224)      8772.7  Rx         01AA  8  19 20 02 00 87 04 01 00 
   225)      8773.3  Rx         01AA  8  19 20 02 00 87 04 01 00 
   226)      8773.8  Rx         01AA  8  19 20 02 00 87 04 01 00 
   227)      8774.3  Rx         01AA  8  19 20 02 00 87 04 01 00 
   228)      8774.8  Rx         01AA  8  19 20 02 00 87 04 01 00 
   229)      8775.4  Rx         01AA  8  19 20 02 00 87 04 01 00 
   230)      8775.9  Rx         01AA  8  19 20 02 00 87 04 01 00 
   231)      8776.4  Rx         01AA  8  19 20 02 00 87 04 01 00 
   232)      8777.0  Rx         01AA  8  19 20 02 00 87 04 01 00 
   233)      8777.5  Rx         01AA  8  19 20 02 00 87 04 01 00 
   234)      8778.0  Rx         01AA  8  19 20 02 00 87 04 01 00 
   235)      8778.5  Rx         01AA  8  19 20 02 00 87 04 01 00 
   236)      8779.1  Rx         01AA  8  19 20 02 00 87 04 01 00 
   237)      8779.6  Rx         01AA  8  19 20 02 00 87 04 01 00 
   238)      8780.1  Rx         01AA  8  19 20 02 00 87 04 01 00 
   239)      8780.7  Rx         01AA  8  19 20 02 00 87 04 01 00 
   240)      8781.2  Rx         01AA  8  19 20 02 00 87 04 01 00 
   241)      8781.7  Rx         01AA  8  19 20 02 00 87 04 01 00 
   242)      8782.2  Rx         01AA  8  19 20 02 00 87 04 01 00 
   243)      8782.8  Rx         01AA  8  19 20 02 00 87 04 01 00 
   244)      8783.3  Rx         01AA  8  19 20 02 00 87 04 01 00 
   245)      8783.8  Rx         01AA  8  19 20 02 00 87 04 01 00 
   246)      8784.4  Rx         01AA  8  19 20 02 00 87 04 01 00 
   247)      8784.9  Rx         01AA  8  19 20 02 00 87 04 01 00 
   248)      8785.4  Rx         01AA  8  19 20 02 00 87 04 01 00 
   249)      8785.9  Rx         01AA  8  19 20 02 00 87 04 01 00 
   250)      8786.5  Rx         01AA  8  19 20 02 00 87 04 01 00 
   251)      8787.0  Rx         01AA  8  19 20 02 00 87 04 01 00 
   252)      8787.5  Rx         01AA  8  19 20 02 00 87 04 01 00 
   253)      8788.1  Rx         01AA  8  19 20 02 00 87 04 01 00 
   254)      8788.6  Rx         01AA  8  19 20 02 00 87 04 01 00 
   255)      8789.1  Rx         01AA  8  19 20 02 00 87 04 01 00 
   256)      8789.6  Rx         01AA  8  19 20 02 00 87 04 01 00 
   257)      8790.2  Rx         01AA  8  19 20 02 00 87 04 01 00 
   258)      8790.7  Rx         01AA  8  19 20 02 00 87 04 01 00 
   259)      8791.2  Rx         01AA  8  19 20 02 00 87 04 01 00 
   260)      8791.8  Rx         01AA  8  19 20 02 00 87 04 01 00 
   261)      8792.3  Rx         01AA  8  19 20 02 00 87 04 01 00 
   262)      8792.8  Rx         01AA  8  19 20 02 00 87 04 01 00 
   263)      8793.3  Rx         01AA  8  19 20 02 00 87 04 01 00 
   264)      8793.9  Rx         01AA  8  19 20 02 00 87 04 01 00 
   265)      8794.4  Rx         01AA  8  19 20 02 00 87 04 01 00 
   266)      8794.9  Rx         01AA  8  19 20 02 00 87 04 01 00 
   267)      8795.5  Rx         01AA  8  19 20 02 00 87 04 01 00 
   268)      8796.0  Rx         01AA  8  19 20 02 00 87 04 01 00 
   269)      8796.5  Rx         01AA  8  19 20 02 00 87 04 01 00 
   270)      8797.0  Rx         01AA  8  19 20 02 00 87 04 01 00 
   271)      8797.6  Rx         01AA  8  19 20 02 00 87 04 01 00 
   272)      8798.1  Rx         01AA  8  19 20 02 00 87 04 01 00 
   273)      8798.6  Rx         01AA  8  19 20 02 00 87 04 01 00 
   274)      8799.2  Rx         01AA  8  19 20 02 00 87 04 01 00 
   275)      8799.7  Rx         01AA  8  19 20 02 00 87 04 01 00 
   276)      8800.2  Rx         01AA  8  19 20 02 00 87 04 01 00 
   277)      8800.7  Rx         01AA  8  19 20 02 00 87 04 01 00 
   278)      8801.3  Rx         01AA  8  19 20 02 00 87 04 01 00 
   279)      8801.8  Rx         01AA  8  19 20 02 00 87 04 01 00 
   280)      8802.3  Rx         01AA  8  19 20 02 00 87 04 01 00 
   281)      8802.9  Rx         01AA  8  19 20 02 00 87 04 01 00 
   282)      8803.4  Rx         01AA  8  19 20 02 00 87 04 01 00 
   283)      8803.9  Rx         01AA  8  19 20 02 00 87 04 01 00 
   284)      8804.4  Rx         01AA  8  19 20 02 00 87 04 01 00 
   285)      8805.0  Rx         01AA  8  19 20 02 00 87 04 01 00 
   286)      8805.5  Rx         01AA  8  19 20 02 00 87 04 01 00 
   287)      8806.0  Rx         01AA  8  19 20 02 00 87 04 01 00 
   288)      8806.6  Rx         01AA  8  19 20 02 00 87 04 01 00 
   289)      8807.1  Rx         01AA  8  19 20 02 00 87 04 01 00 
   290)      8807.6  Rx         01AA  8  19 20 02 00 87 04 01 00 
   291)      8808.1  Rx         01AA  8  19 20 02 00 87 04 01 00 
   292)      8808.7  Rx         01AA  8  19 20 02 00 87 04 01 00 
   293)      8809.2  Rx         01AA  8  19 20 02 00 87 04 01 00 
   294)      8809.7  Rx         01AA  8  19 20 02 00 87 04 01 00 
   295)      8810.3  Rx         01AA  8  19 20 02 00 87 04 01 00 
   296)      8810.8  Rx         01AA  8  19 20 02 00 87 04 01 00 
   297)      8811.3  Rx         01AA  8  19 20 02 00 87 04 01 00 
   298)      8811.8  Rx         01AA  8  19 20 02 00 87 04 01 00 
   299)      8812.4  Rx         01AA  8  19 20 02 00 87 04 01 00 
   300)      8812.9  Rx         01AA  8  19 20 02 00 87 04 01 00 
   301)      8813.4  Rx         01AA  8  19 20 02 00 87 04 01 00 
   302)      8814.0  Rx         01AA  8  19 20 02 00 87 04 01 00 
   303)      8814.5  Rx         01AA  8  19 20 02 00 87 04 01 00 
   304)      8815.0  Rx         01AA  8  19 20 02 00 87 04 01 00 
   305)      8815.5  Rx         01AA  8  19 20 02 00 87 04 01 00 
   306)      8816.1  Rx         01AA  8  19 20 02 00 87 04 01 00 
   307)      8816.6  Rx         01AA  8  19 20 02 00 87 04 01 00 
   308)      8817.1  Rx         01AA  8  19 20 02 00 87 04 01 00 
   309)      8817.7  Rx         01AA  8  19 20 02 00 87 04 01 00 
   310)      8818.2  Rx         01AA  8  19 20 02 00 87 04 01 00 
   311)      8818.7  Rx         01AA  8  19 20 02 00 87 04 01 00 
   312)      8819.2  Rx         01AA  8  19 20 02 00 87 04 01 00 
   313)      8819.8  Rx         01AA  8  19 20 02 00 87 04 01 00 
   314)      8820.3  Rx         01AA  8  19 20 02 00 87 04 01 00 
   315)      8820.8  Rx         01AA  8  19 20 02 00 87 04 01 00 
   316)      8821.4  Rx         01AA  8  19 20 02 00 87 04 01 00 
   317)      8821.9  Rx         01AA  8  19 20 02 00 87 04 01 00 
   318)      8822.4  Rx         01AA  8  19 20 02 00 87 04 01 00 
   319)      8822.9  Rx         01AA  8  19 20 02 00 87 04 01 00 
   320)      8823.5  Rx         01AA  8  19 20 02 00 87 04 01 00 
   321)      8824.0  Rx         01AA  8  19 20 02 00 87 04 01 00 
   322)      8824.5  Rx         01AA  8  19 20 02 00 87 04 01 00 
   323)      8825.0  Rx         01AA  8  19 20 02 00 87 04 01 00 
   324)      8825.6  Rx         01AA  8  19 20 02 00 87 04 01 00 
   325)      8826.1  Rx         01AA  8  19 20 02 00 87 04 01 00 
   326)      8826.6  Rx         01AA  8  19 20 02 00 87 04 01 00 
   327)      8827.2  Rx         01AA  8  19 20 02 00 87 04 01 00 
   328)      8827.7  Rx         01AA  8  19 20 02 00 87 04 01 00 
   329)      8828.2  Rx         01AA  8  19 20 02 00 87 04 01 00 
   330)      8828.7  Rx         01AA  8  19 20 02 00 87 04 01 00 
   331)      8829.3  Rx         01AA  8  19 20 02 00 87 04 01 00 
   332)      8829.8  Rx         01AA  8  19 20 02 00 87 04 01 00 
   333)      8830.3  Rx         01AA  8  19 20 02 00 87 04 01 00 
   334)      8830.9  Rx         01AA  8  19 20 02 00 87 04 01 00 
   335)      8831.4  Rx         01AA  8  19 20 02 00 87 04 01 00 
   336)      8831.9  Rx         01AA  8  19 20 02 00 87 04 01 00 
   337)      8832.4  Rx         01AA  8  19 20 02 00 87 04 01 00 
   338)      8833.0  Rx         01AA  8  19 20 02 00 87 04 01 00 
   339)      8833.5  Rx         01AA  8  19 20 02 00 87 04 01 00 
   340)      8834.0  Rx         01AA  8  19 20 02 00 87 04 01 00 
   341)      8834.6  Rx         01AA  8  19 20 02 00 87 04 01 00 
   342)      8835.1  Rx         01AA  8  19 20 02 00 87 04 01 00 
   343)      8835.6  Rx         01AA  8  19 20 02 00 87 04 01 00 
   344)      8836.1  Rx         01AA  8  19 20 02 00 87 04 01 00 
   345)      8836.7  Rx         01AA  8  19 20 02 00 87 04 01 00 
   346)      8837.2  Rx         01AA  8  19 20 02 00 87 04 01 00 
   347)      8837.7  Rx         01AA  8  19 20 02 00 87 04 01 00 
   348)      8838.3  Rx         01AA  8  19 20 02 00 87 04 01 00 
   349)      8838.8  Rx         01AA  8  19 20 02 00 87 04 01 00 
   350)      8839.3  Rx         01AA  8  19 20 02 00 87 04 01 00 
   351)      8839.8  Rx         01AA  8  19 20 02 00 87 04 01 00 
   352)      8840.4  Rx         01AA  8  19 20 02 00 87 04 01 00 
   353)      8840.9  Rx         01AA  8  19 20 02 00 87 04 01 00 
   354)      8841.4  Rx         01AA  8  19 20 02 00 87 04 01 00 
   355)      8842.0  Rx         01AA  8  19 20 02 00 87 04 01 00 
   356)      8842.5  Rx         01AA  8  19 20 02 00 87 04 01 00 
   357)      8843.0  Rx         01AA  8  19 20 02 00 87 04 01 00 
   358)      8843.5  Rx         01AA  8  19 20 02 00 87 04 01 00 
   359)      8844.1  Rx         01AA  8  19 20 02 00 87 04 01 00 
   360)      8844.6  Rx         01AA  8  19 20 02 00 87 04 01 00 
   361)      8845.1  Rx         01AA  8  19 20 02 00 87 04 01 00 
   362)      8845.7  Rx         01AA  8  19 20 02 00 87 04 01 00 
   363)      8846.2  Rx         01AA  8  19 20 02 00 87 04 01 00 
   364)      8846.7  Rx         01AA  8  19 20 02 00 87 04 01 00 
   365)      8847.2  Rx         01AA  8  19 20 02 00 87 04 01 00 
   366)      8847.8  Rx         01AA  8  19 20 02 00 87 04 01 00 
   367)      8848.3  Rx         01AA  8  19 20 02 00 87 04 01 00 
   368)      8848.8  Rx         01AA  8  19 20 02 00 87 04 01 00 
   369)      8849.4  Rx         01AA  8  19 20 02 00 87 04 01 00 
   370)      8849.9  Rx         01AA  8  19 20 02 00 87 04 01 00 
   371)      8850.4  Rx         01AA  8  19 20 02 00 87 04 01 00 
   372)      8850.9  Rx         01AA  8  19 20 02 00 87 04 01 00 
   373)      8851.5  Rx         01AA  8  19 20 02 00 87 04 01 00 
   374)      8852.0  Rx         01AA  8  19 20 02 00 87 04 01 00 
   375)      8852.5  Rx         01AA  8  19 20 02 00 87 04 01 00 
   376)      8853.1  Rx         01AA  8  19 20 02 00 87 04 01 00 
   377)      8853.6  Rx         01AA  8  19 20 02 00 87 04 01 00 
   378)      8854.1  Rx         01AA  8  19 20 02 00 87 04 01 00 
   379)      8854.6  Rx         01AA  8  19 20 02 00 87 04 01 00 
   380)      8855.2  Rx         01AA  8  19 20 02 00 87 04 01 00 
   381)      8855.7  Rx         01AA  8  19 20 02 00 87 04 01 00 
   382)      8856.2  Rx         01AA  8  19 20 02 00 87 04 01 00 
   383)      8856.8  Rx         01AA  8  19 20 02 00 87 04 01 00 
   384)      8857.3  Rx         01AA  8  19 20 02 00 87 04 01 00 
   385)      8857.8  Rx         01AA  8  19 20 02 00 87 04 01 00 
   386)      8858.3  Rx         01AA  8  19 20 02 00 87 04 01 00 
   387)      8858.9  Rx         01AA  8  19 20 02 00 87 04 01 00 
   388)      8859.4  Rx         01AA  8  19 20 02 00 87 04 01 00 
   389)      8859.9  Rx         01AA  8  19 20 02 00 87 04 01 00 
   390)      8860.5  Rx         01AA  8  19 20 02 00 87 04 01 00 
   391)      8861.0  Rx         01AA  8  19 20 02 00 87 04 01 00 
   392)      8861.5  Rx         01AA  8  19 20 02 00 87 04 01 00 
   393)      8862.0  Rx         01AA  8  19 20 02 00 87 04 01 00 
   394)      8862.6  Rx         01AA  8  19 20 02 00 87 04 01 00 
   395)      8863.1  Rx         01AA  8  19 20 02 00 87 04 01 00 
   396)      8863.6  Rx         01AA  8  19 20 02 00 87 04 01 00 
   397)      8864.2  Rx         01AA  8  19 20 02 00 87 04 01 00 
   398)      8864.7  Rx         01AA  8  19 20 02 00 87 04 01 00 
   399)      8865.2  Rx         01AA  8  19 20 02 00 87 04 01 00 
   400)      8865.7  Rx         01AA  8  19 20 02 00 87 04 01 00 
   401)      8866.3  Rx         01AA  8  19 20 02 00 87 04 01 00 
   402)      8866.8  Rx         01AA  8  19 20 02 00 87 04 01 00 
   403)      8867.3  Rx         01AA  8  19 20 02 00 87 04 01 00 
   404)      8867.9  Rx         01AA  8  19 20 02 00 87 04 01 00 
   405)      8868.4  Rx         01AA  8  19 20 02 00 87 04 01 00 
   406)      8868.9  Rx         01AA  8  19 20 02 00 87 04 01 00 
   407)      8869.4  Rx         01AA  8  19 20 02 00 87 04 01 00 
   408)      8870.0  Rx         01AA  8  19 20 02 00 87 04 01 00 
   409)      8870.5  Rx         01AA  8  19 20 02 00 87 04 01 00 
   410)      8871.0  Rx         01AA  8  19 20 02 00 87 04 01 00 
   411)      8871.6  Rx         01AA  8  19 20 02 00 87 04 01 00 
   412)      8872.1  Rx         01AA  8  19 20 02 00 87 04 01 00 
   413)      8872.6  Rx         01AA  8  19 20 02 00 87 04 01 00 
   414)      8873.1  Rx         01AA  8  19 20 02 00 87 04 01 00 
   415)      8873.7  Rx         01AA  8  19 20 02 00 87 04 01 00 
   416)      8874.2  Rx         01AA  8  19 20 02 00 87 04 01 00 
   417)      8874.7  Rx         01AA  8  19 20 02 00 87 04 01 00 
   418)      8875.3  Rx         01AA  8  19 20 02 00 87 04 01 00 
   419)      8875.8  Rx         01AA  8  19 20 02 00 87 04 01 00 
   420)      8876.3  Rx         01AA  8  19 20 02 00 87 04 01 00 
   421)      8876.8  Rx         01AA  8  19 20 02 00 87 04 01 00 
   422)      8877.4  Rx         01AA  8  19 20 02 00 87 04 01 00 
   423)      8877.9  Rx         01AA  8  19 20 02 00 87 04 01 00 
   424)      8878.4  Rx         01AA  8  19 20 02 00 87 04 01 00 
   425)      8879.0  Rx         01AA  8  19 20 02 00 87 04 01 00 
   426)      8879.5  Rx         01AA  8  19 20 02 00 87 04 01 00 
   427)      8880.0  Rx         01AA  8  19 20 02 00 87 04 01 00 
   428)      8880.5  Rx         01AA  8  19 20 02 00 87 04 01 00 
   429)      8881.1  Rx         01AA  8  19 20 02 00 87 04 01 00 
   430)      8881.6  Rx         01AA  8  19 20 02 00 87 04 01 00 
   431)      8882.1  Rx         01AA  8  19 20 02 00 87 04 01 00 
   432)      8882.7  Rx         01AA  8  19 20 02 00 87 04 01 00 
   433)      8883.2  Rx         01AA  8  19 20 02 00 87 04 01 00 
   434)      8883.7  Rx         01AA  8  19 20 02 00 87 04 01 00 
   435)      8884.2  Rx         01AA  8  19 20 02 00 87 04 01 00 
   436)      8884.8  Rx         01AA  8  19 20 02 00 87 04 01 00 
   437)      8885.3  Rx         01AA  8  19 20 02 00 87 04 01 00 
   438)      8885.8  Rx         01AA  8  19 20 02 00 87 04 01 00 
   439)      8886.4  Rx         01AA  8  19 20 02 00 87 04 01 00 
   440)      8886.9  Rx         01AA  8  19 20 02 00 87 04 01 00 
   441)      8887.4  Rx         01AA  8  19 20 02 00 87 04 01 00 
   442)      8887.9  Rx         01AA  8  19 20 02 00 87 04 01 00 
   443)      8888.5  Rx         01AA  8  19 20 02 00 87 04 01 00 
   444)      8889.0  Rx         01AA  8  19 20 02 00 87 04 01 00 
   445)      8889.5  Rx         01AA  8  19 20 02 00 87 04 01 00 
   446)      8890.1  Rx         01AA  8  19 20 02 00 87 04 01 00 
   447)      8890.6  Rx         01AA  8  19 20 02 00 87 04 01 00 
   448)      8891.1  Rx         01AA  8  19 20 02 00 87 04 01 00 
   449)      8891.6  Rx         01AA  8  19 20 02 00 87 04 01 00 
   450)      8892.2  Rx         01AA  8  19 20 02 00 87 04 01 00 
   451)      8892.7  Rx         01AA  8  19 20 02 00 87 04 01 00 
   452)      8893.2  Rx         01AA  8  19 20 02 00 87 04 01 00 
   453)      8893.8  Rx         01AA  8  19 20 02 00 87 04 01 00 
   454)      8894.3  Rx         01AA  8  19 20 02 00 87 04 01 00 
   455)      8894.8  Rx         01AA  8  19 20 02 00 87 04 01 00 
   456)      8895.3  Rx         01AA  8  19 20 02 00 87 04 01 00 
   457)      8895.9  Rx         01AA  8  19 20 02 00 87 04 01 00 
   458)      8896.4  Rx         01AA  8  19 20 02 00 87 04 01 00 
   459)      8896.9  Rx         01AA  8  02 20 16 00 87 04 01 00 
   460)      8898.3  Rx         072A  1  05 
   461)      8953.7  Rx         01AA  8  0B 20 18 00 87 04 01 00 
   462)      8958.3  Rx         072A  1  05 
   463)      9053.7  Rx         01AA  8  14 20 07 00 87 04 01 00 
   464)      9058.4  Rx         072A  1  05 
   465)      9153.8  Rx         01AA  8  17 20 02 00 87 04 01 00 
   466)      9158.4  Rx         072A  1  05 
   467)      9253.8  Rx         01AA  8  18 20 02 00 87 04 01 00 
   468)      9258.4  Rx         072A  1  05 
   469)      9353.9  Rx         01AA  8  18 20 02 00 87 04 01 00 
   470)      9358.5  Rx         072A  1  05 
   471)      9453.9  Rx         01AA  8  18 20 02 00 87 04 01 00 
   472)      9458.5  Rx         072A  1  05 
   473)      9463.8  Rx         04AA  8  12 33 09 01 06 14 00 00 
   474)      9554.0  Rx         01AA  8  19 20 01 00 87 04 01 00 
   475)      9558.6  Rx         072A  1  05 
   476)      9654.0  Rx         01AA  8  19 20 01 00 87 04 01 00 
   477)      9658.6  Rx         072A  1  05 
   478)      9754.0  Rx         01AA  8  19 20 02 00 87 04 01 00 
   479)      9758.6  Rx         072A  1  05 
   480)      9854.0  Rx         01AA  8  18 20 04 00 87 04 01 00 
   481)      9858.6  Rx         072A  1  05 
   482)      9954.0  Rx         01AA  8  18 20 04 00 87 04 01 00 
   483)      9958.7  Rx         072A  1  05 
   484)     10054.1  Rx         01AA  8  18 20 03 00 87 04 01 00 
   485)     10058.7  Rx         072A  1  05 
   486)     10154.1  Rx         01AA  8  18 20 03 00 87 04 01 00 
   487)     10158.7  Rx         072A  1  05 
   488)     10254.1  Rx         01AA  8  0D 20 0B 00 87 04 01 00 
   489)     10258.7  Rx         072A  1  05 
   490)     10354.0  Rx         01AA  8  E9 1F 24 00 87 04 01 00 
   491)     10358.7  Rx         072A  1  05 
   492)     10454.1  Rx         01AA  8  15 20 05 00 87 04 01 00 
   493)     10458.7  Rx         072A  1  05 
   494)     10463.9  Rx         04AA  8  13 33 09 01 06 14 00 00 
   495)     10554.1  Rx         01AA  8  16 20 05 00 87 04 01 00 
   496)     10558.7  Rx         072A  1  05 
   497)     10654.1  Rx         01AA  8  17 20 05 00 87 04 01 00 
   498)     10659.0  Rx         02AA  8  6A 00 00 00 A5 00 00 00 
   499)     10663.7  Rx         072A  1  05 
   500)     10754.1  Rx         01AA  8  17 20 03 00 87 04 01 00 
   501)     10758.7  Rx         072A  1  05 
   502)     10854.1  Rx         01AA  8  17 20 03 00 87 04 01 00 
   503)     10858.8  Rx         072A  1  05 
   504)     10954.2  Rx         01AA  8  17 20 03 00 87 04 01 00 
   505)     10958.8  Rx         072A  1  05 
   506)     11054.2  Rx         01AA  8  17 20 04 00 87 04 01 00 
   507)     11058.8  Rx         072A  1  05 
   508)     11154.2  Rx         01AA  8  18 20 05 00 87 04 01 00 
   509)     11158.8  Rx         072A  1  05 
   510)     11254.2  Rx         01AA  8  18 20 06 00 87 04 01 00 
   511)     11258.9  Rx         072A  1  05 
   512)     11354.3  Rx         01AA  8  18 20 04 00 87 04 01 00 
   513)     11358.9  Rx         072A  1  05 
   514)     11454.3  Rx         01AA  8  18 20 04 00 87 04 01 00 
   515)     11459.0  Rx         072A  1  05 
   516)     11464.2  Rx         04AA  8  14 33 09 01 06 14 00 00 
   517)     11554.4  Rx         01AA  8  18 20 04 00 88 04 01 00 
   518)     11559.0  Rx         072A  1  05 
   519)     11654.4  Rx         01AA  8  18 20 04 00 88 04 01 00 
   520)     11659.0  Rx         072A  1  05 
   521)     11754.4  Rx         01AA  8  17 20 04 00 88 04 01 00 
   522)     11759.0  Rx         072A  1  05 
   523)     11854.4  Rx         01AA  8  17 20 05 00 88 04 01 00 
   524)     11859.0  Rx         072A  1  05 
   525)     11954.5  Rx         01AA  8  17 20 04 00 88 04 01 00 
   526)     11959.1  Rx         072A  1  05 
   527)     12054.5  Rx         01AA  8  17 20 03 00 88 04 01 00 
   528)     12059.1  Rx         072A  1  05 
   529)     12154.5  Rx         01AA  8  17 20 04 00 88 04 01 00 
   530)     12159.1  Rx         072A  1  05 
   531)     12254.5  Rx         01AA  8  17 20 04 00 88 04 01 00 
   532)     12259.1  Rx         072A  1  05 
   533)     12354.7  Rx         01AA  8  18 20 04 00 88 04 01 00 
   534)     12359.3  Rx         072A  1  05 
   535)     12454.7  Rx         01AA  8  18 20 06 00 88 04 01 00 
   536)     12459.3  Rx         072A  1  05 
   537)     12464.5  Rx         04AA  8  15 33 09 01 06 14 00 00 
   538)     12554.7  Rx         01AA  8  18 20 04 00 88 04 01 00 
   539)     12559.3  Rx         072A  1  05 
   540)     12654.7  Rx         01AA  8  18 20 05 00 88 04 01 00 
   541)     12659.3  Rx         072A  1  05 
   542)     12754.7  Rx         01AA  8  17 20 04 00 88 04 01 00 
   543)     12759.4  Rx         072A  1  05 
   544)     12854.8  Rx         01AA  8  18 20 04 00 88 04 01 00 
   545)     12859.4  Rx         072A  1  05 
   546)     12954.8  Rx         01AA  8  18 20 05 00 88 04 01 00 
   547)     12959.4  Rx         072A  1  05 
   548)     13054.8  Rx         01AA  8  18 20 06 00 88 04 01 00 
   549)     13059.4  Rx         072A  1  05 
   550)     13154.8  Rx         01AA  8  17 20 06 00 88 04 01 00 
   551)     13159.5  Rx         072A  1  05 
   552)     13254.9  Rx         01AA  8  17 20 06 00 88 04 01 00 
   553)     13259.5  Rx         072A  1  05 
   554)     13354.8  Rx         01AA  8  18 20 05 00 88 04 01 00 
   555)     13359.4  Rx         072A  1  05 
   556)     13454.8  Rx         01AA  8  17 20 04 00 88 04 01 00 
   557)     13459.4  Rx         072A  1  05 
   558)     13464.7  Rx         04AA  8  16 33 09 01 06 14 00 00 
   559)     13554.8  Rx         01AA  8  17 20 05 00 88 04 01 00 
   560)     13559.4  Rx         072A  1  05 
   561)     13654.8  Rx         01AA  8  17 20 05 00 88 04 01 00 
   562)     13659.5  Rx         072A  1  05 
   563)     13754.9  Rx         01AA  8  17 20 06 00 88 04 01 00 
   564)     13759.5  Rx         072A  1  05 
   565)     13854.9  Rx         01AA  8  17 20 06 00 88 04 01 00 
   566)     13859.5  Rx         072A  1  05 
   567)     13954.9  Rx         01AA  8  17 20 05 00 88 04 01 00 
   568)     13959.5  Rx         072A  1  05 
   569)     14054.9  Rx         01AA  8  17 20 05 00 88 04 01 00 
   570)     14059.6  Rx         072A  1  05 
   571)     14155.0  Rx         01AA  8  17 20 05 00 88 04 01 00 
   572)     14159.6  Rx         072A  1  05 
   573)     14255.0  Rx         01AA  8  17 20 06 00 88 04 01 00 
   574)     14259.6  Rx         072A  1  05 
   575)     14355.1  Rx         01AA  8  17 20 06 00 88 04 01 00 
   576)     14359.7  Rx         072A  1  05 
   577)     14455.1  Rx         01AA  8  17 20 06 00 88 04 01 00 
   578)     14459.7  Rx         072A  1  05 
   579)     14465.0  Rx         04AA  8  17 33 09 01 06 14 00 00 
   580)     14555.1  Rx         01AA  8  17 20 06 00 88 04 01 00 
   581)     14559.8  Rx         072A  1  05 
   582)     14655.2  Rx         01AA  8  17 20 04 00 88 04 01 00 
   583)     14659.8  Rx         072A  1  05 
   584)     14755.2  Rx         01AA  8  18 20 05 00 88 04 01 00 
   585)     14759.8  Rx         072A  1  05 
   586)     14855.2  Rx         01AA  8  17 20 05 00 88 04 01 00 
   587)     14859.8  Rx         072A  1  05 
   588)     14955.2  Rx         01AA  8  17 20 07 00 88 04 01 00 
   589)     14959.9  Rx         072A  1  05 
   590)     15055.3  Rx         01AA  8  17 20 07 00 88 04 01 00 
   591)     15059.9  Rx         072A  1  05 
   592)     15155.3  Rx         01AA  8  18 20 07 00 88 04 01 00 
   593)     15159.9  Rx         072A  1  05 
   594)     15255.3  Rx         01AA  8  17 20 07 00 88 04 01 00 
   595)     15259.9  Rx         072A  1  05 
   596)     15355.4  Rx         01AA  8  17 20 07 00 88 04 01 00 
   597)     15360.0  Rx         072A  1  05 
   598)     15455.4  Rx         01AA  8  17 20 06 00 88 04 01 00 
   599)     15460.0  Rx         072A  1  05 
   600)     15465.2  Rx         04AA  8  18 33 09 01 06 14 00 00 
   601)     15555.4  Rx         01AA  8  17 20 07 00 88 04 01 00 
   602)     15560.0  Rx         072A  1  05 
   603)     15655.4  Rx         01AA  8  17 20 07 00 88 04 01 00 
   604)     15660.3  Rx         02AA  8  6A 00 00 00 A5 00 00 00 
   605)     15665.0  Rx         072A  1  05 
   606)     15755.4  Rx         01AA  8  17 20 08 00 88 04 01 00 
   607)     15760.1  Rx         072A  1  05 
   608)     15855.5  Rx         01AA  8  18 20 07 00 88 04 01 00 
   609)     15860.1  Rx         072A  1  05 
   610)     15955.5  Rx         01AA  8  18 20 06 00 88 04 01 00 
   611)     15960.1  Rx         072A  1  05 
   612)     16055.5  Rx         01AA  8  18 20 06 00 88 04 01 00 
   613)     16060.1  Rx         072A  1  05 
   614)     16155.5  Rx         01AA  8  18 20 06 00 88 04 01 00 
   615)     16160.1  Rx         072A  1  05 
   616)     16255.6  Rx         01AA  8  18 20 07 00 88 04 01 00 
   617)     16260.2  Rx         072A  1  05 
   618)     16355.6  Rx         01AA  8  17 20 07 00 88 04 01 00 
   619)     16360.2  Rx         072A  1  05 
   620)     16455.6  Rx         01AA  8  17 20 06 00 88 04 01 00 
   621)     16460.2  Rx         072A  1  05 
   622)     16465.5  Rx         04AA  8  19 33 09 01 06 14 00 00 
   623)     16555.6  Rx         01AA  8  17 20 05 00 88 04 01 00 
   624)     16560.2  Rx         072A  1  05 
   625)     16655.7  Rx         01AA  8  17 20 05 00 88 04 01 00 
   626)     16660.3  Rx         072A  1  05 
   627)     16755.7  Rx         01AA  8  18 20 05 00 88 04 01 00 
   628)     16760.3  Rx         072A  1  05 
   629)     16855.7  Rx         01AA  8  17 20 07 00 88 04 01 00 
   630)     16860.3  Rx         072A  1  05 
   631)     16955.7  Rx         01AA  8  17 20 07 00 88 04 01 00 
   632)     16960.3  Rx         072A  1  05 
   633)     17055.7  Rx         01AA  8  17 20 07 00 88 04 01 00 
   634)     17060.4  Rx         072A  1  05 
   635)     17155.8  Rx         01AA  8  17 20 07 00 88 04 01 00 
   636)     17160.4  Rx         072A  1  05 
   637)     17255.8  Rx         01AA  8  17 20 07 00 88 04 01 00 
   638)     17260.4  Rx         072A  1  05 
   639)     17355.7  Rx         01AA  8  17 20 07 00 89 04 01 00 
   640)     17360.3  Rx         072A  1  05 
   641)     17455.7  Rx         01AA  8  17 20 07 00 89 04 01 00 
   642)     17460.3  Rx         072A  1  05 
   643)     17465.6  Rx         04AA  8  1A 33 09 01 06 14 00 00 
   644)     17555.7  Rx         01AA  8  17 20 07 00 89 04 01 00 
   645)     17560.4  Rx         072A  1  05 
   646)     17655.8  Rx         01AA  8  18 20 07 00 89 04 01 00 
   647)     17660.4  Rx         072A  1  05 
   648)     17755.8  Rx         01AA  8  18 20 06 00 89 04 01 00 
   649)     17760.4  Rx         072A  1  05 
   650)     17855.8  Rx         01AA  8  17 20 05 00 89 04 01 00 
   651)     17860.4  Rx         072A  1  05 
   652)     17955.8  Rx         01AA  8  18 20 05 00 89 04 01 00 
   653)     17960.5  Rx         072A  1  05 
   654)     18055.9  Rx         01AA  8  17 20 06 00 89 04 01 00 
   655)     18060.5  Rx         072A  1  05 
   656)     18155.9  Rx         01AA  8  18 20 06 00 89 04 01 00 
   657)     18160.5  Rx         072A  1  05 
   658)     18255.9  Rx         01AA  8  17 20 07 00 89 04 01 00 
   659)     18260.5  Rx         072A  1  05 
   660)     18356.0  Rx         01AA  8  17 20 07 00 89 04 01 00 
   661)     18360.6  Rx         072A  1  05 
   662)     18456.0  Rx         01AA  8  18 20 07 00 89 04 01 00 
   663)     18460.7  Rx         072A  1  05 
   664)     18465.9  Rx         04AA  8  1B 33 09 01 06 14 00 00 
   665)     18556.1  Rx         01AA  8  18 20 06 00 89 04 01 00 
   666)     18560.7  Rx         072A  1  05 
   667)     18656.1  Rx         01AA  8  18 20 07 00 89 04 01 00 
   668)     18660.7  Rx         072A  1  05 
   669)     18756.1  Rx         01AA  8  17 20 07 00 89 04 01 00 
   670)     18760.7  Rx         072A  1  05 
   671)     18856.1  Rx         01AA  8  18 20 07 00 89 04 01 00 
   672)     18860.8  Rx         072A  1  05 
   673)     18956.2  Rx         01AA  8  18 20 06 00 89 04 01 00 
   674)     18960.8  Rx         072A  1  05 
   675)     19056.2  Rx         01AA  8  18 20 06 00 89 04 01 00 
   676)     19060.8  Rx         072A  1  05 
   677)     19156.2  Rx         01AA  8  18 20 05 00 89 04 01 00 
   678)     19160.8  Rx         072A  1  05 
   679)     19256.2  Rx         01AA  8  18 20 05 00 89 04 01 00 
   680)     19260.9  Rx         072A  1  05 
   681)     19356.2  Rx         01AA  8  18 20 06 00 89 04 01 00 
   682)     19360.8  Rx         072A  1  05 
   683)     19456.2  Rx         01AA  8  18 20 06 00 89 04 01 00 
   684)     19460.8  Rx         072A  1  05 
   685)     19466.0  Rx         04AA  8  1C 33 09 01 06 14 00 00 
   686)     19556.2  Rx         01AA  8  18 20 06 00 89 04 01 00 
   687)     19560.8  Rx         072A  1  05 
   688)     19656.2  Rx         01AA  8  18 20 06 00 89 04 01 00 
   689)     19660.8  Rx         072A  1  05 
   690)     19756.3  Rx         01AA  8  18 20 05 00 89 04 01 00 
   691)     19760.9  Rx         072A  1  05 
   692)     19856.3  Rx         01AA  8  18 20 06 00 89 04 01 00 
   693)     19860.9  Rx         072A  1  05 
   694)     19956.3  Rx         01AA  8  18 20 07 00 89 04 01 00 
   695)     19960.9  Rx         072A  1  05 
   696)     20056.3  Rx         01AA  8  18 20 08 00 89 04 01 00 
   697)     20060.9  Rx         072A  1  05 
   698)     20156.4  Rx         01AA  8  18 20 08 00 89 04 01 00 
   699)     20161.0  Rx         072A  1  05 
   700)     20256.4  Rx         01AA  8  18 20 07 00 89 04 01 00 
   701)     20261.0  Rx         072A  1  05 
   702)     20356.5  Rx         01AA  8  18 20 07 00 89 04 01 00 
   703)     20361.1  Rx         072A  1  05 
   704)     20456.5  Rx         01AA  8  18 20 06 00 89 04 01 00 
   705)     20461.1  Rx         072A  1  05 
   706)     20466.4  Rx         04AA  8  1D 33 09 01 06 14 00 00 
   707)     20556.5  Rx         01AA  8  18 20 07 00 89 04 01 00 
   708)     20561.2  Rx         072A  1  05 
   709)     20656.6  Rx         01AA  8  17 20 07 00 89 04 01 00 
   710)     20661.4  Rx         02AA  8  6A 00 00 00 A5 00 00 00 
   711)     20666.2  Rx         072A  1  05 
   712)     20756.6  Rx         01AA  8  17 20 07 00 89 04 01 00 
   713)     20761.2  Rx         072A  1  05 
   714)     20856.6  Rx         01AA  8  17 20 06 00 89 04 01 00 
   715)     20861.2  Rx         072A  1  05 
   716)     20956.6  Rx         01AA  8  17 20 06 00 89 04 01 00 
   717)     20961.2  Rx         072A  1  05 
   718)     21056.6  Rx         01AA  8  17 20 05 00 89 04 01 00 
   719)     21061.3  Rx         072A  1  05 
   720)     21156.7  Rx         01AA  8  17 20 06 00 89 04 01 00 
   721)     21161.3  Rx         072A  1  05 
   722)     21256.7  Rx         01AA  8  18 20 07 00 89 04 01 00 
   723)     21261.3  Rx         072A  1  05 
   724)     21356.7  Rx         01AA  8  18 20 07 00 89 04 01 00 
   725)     21361.3  Rx         072A  1  05 
   726)     21456.7  Rx         01AA  8  18 20 07 00 89 04 01 00 
   727)     21461.3  Rx         072A  1  05 
   728)     21466.6  Rx         04AA  8  1E 33 09 01 06 14 00 00 
   729)     21556.7  Rx         01AA  8  18 20 06 00 89 04 01 00 
   730)     21561.4  Rx         072A  1  05 
   731)     21656.8  Rx         01AA  8  18 20 06 00 89 04 01 00 
   732)     21661.4  Rx         072A  1  05 
   733)     21756.8  Rx         01AA  8  18 20 06 00 89 04 01 00 
   734)     21761.4  Rx         072A  1  05 
   735)     21856.8  Rx         01AA  8  18 20 06 00 89 04 01 00 
   736)     21861.4  Rx         072A  1  05 
   737)     21956.8  Rx         01AA  8  18 20 07 00 89 04 01 00 
   738)     21961.4  Rx         072A  1  05 
   739)     22056.8  Rx         01AA  8  18 20 07 00 89 04 01 00 
   740)     22061.4  Rx         072A  1  05 
   741)     22156.9  Rx         01AA  8  18 20 07 00 89 04 01 00 
   742)     22161.5  Rx         072A  1  05 
   743)     22256.9  Rx         01AA  8  18 20 06 00 89 04 01 00 
   744)     22261.5  Rx         072A  1  05 
   745)     22356.8  Rx         01AA  8  18 20 05 00 89 04 01 00 
   746)     22361.4  Rx         072A  1  05 
   747)     22456.8  Rx         01AA  8  18 20 06 00 89 04 01 00 
   748)     22461.4  Rx         072A  1  05 
   749)     22466.7  Rx         04AA  8  1F 33 09 01 06 14 00 00 
   750)     22556.9  Rx         01AA  8  18 20 07 00 89 04 01 00 
   751)     22561.5  Rx         072A  1  05 
   752)     22656.9  Rx         01AA  8  18 20 07 00 89 04 01 00 
   753)     22661.5  Rx         072A  1  05 
   754)     22756.9  Rx         01AA  8  18 20 07 00 89 04 01 00 
   755)     22761.5  Rx         072A  1  05 
   756)     22856.9  Rx         01AA  8  18 20 07 00 89 04 01 00 
   757)     22861.6  Rx         072A  1  05 
   758)     22957.0  Rx         01AA  8  17 20 07 00 89 04 01 00 
   759)     22961.6  Rx         072A  1  05 
   760)     23057.0  Rx         01AA  8  18 20 07 00 89 04 01 00 
   761)     23061.6  Rx         072A  1  05 
   762)     23157.0  Rx         01AA  8  18 20 07 00 89 04 01 00 
   763)     23161.6  Rx         072A  1  05 
   764)     23257.0  Rx         01AA  8  18 20 07 00 89 04 01 00 
   765)     23261.6  Rx         072A  1  05 
   766)     23356.9  Rx         01AA  8  18 20 07 00 89 04 01 00 
   767)     23361.5  Rx         072A  1  05 
   768)     23457.0  Rx         01AA  8  18 20 07 00 89 04 01 00 
   769)     23461.6  Rx         072A  1  05 
   770)     23466.8  Rx         04AA  8  20 33 09 01 06 14 00 00 
   771)     23557.0  Rx         01AA  8  18 20 07 00 89 04 01 00 
   772)     23561.6  Rx         072A  1  05 
   773)     23657.0  Rx         01AA  8  18 20 07 00 89 04 01 00 
   774)     23661.6  Rx         072A  1  05 
   775)     23757.0  Rx         01AA  8  18 20 07 00 89 04 01 00 
   776)     23761.7  Rx         072A  1  05 
   777)     23857.1  Rx         01AA  8  17 20 07 00 89 04 01 00 
   778)     23861.7  Rx         072A  1  05 
   779)     23957.1  Rx         01AA  8  18 20 07 00 89 04 01 00 
   780)     23961.7  Rx         072A  1  05 
   781)     24057.1  Rx         01AA  8  18 20 06 00 89 04 01 00 
   782)     24061.7  Rx         072A  1  05 
   783)     24157.1  Rx         01AA  8  18 20 06 00 89 04 01 00 
   784)     24161.7  Rx         072A  1  05 
   785)     24257.2  Rx         01AA  8  18 20 07 00 89 04 01 00 
   786)     24261.8  Rx         072A  1  05 
   787)     24357.3  Rx         01AA  8  18 20 06 00 89 04 01 00 
   788)     24361.9  Rx         072A  1  05 
   789)     24457.3  Rx         01AA  8  18 20 07 00 89 04 01 00 
   790)     24461.9  Rx         072A  1  05 
   791)     24467.2  Rx         04AA  8  21 33 09 01 06 14 00 00 
   792)     24557.3  Rx         01AA  8  18 20 07 00 89 04 01 00 
   793)     24561.9  Rx         072A  1  05 
   794)     24657.3  Rx         01AA  8  18 20 08 00 89 04 01 00 
   795)     24662.0  Rx         072A  1  05 
   796)     24757.4  Rx         01AA  8  17 20 07 00 89 04 01 00 
   797)     24762.0  Rx         072A  1  05 
   798)     24857.4  Rx         01AA  8  17 20 07 00 89 04 01 00 
   799)     24862.0  Rx         072A  1  05 
   800)     24957.4  Rx         01AA  8  17 20 07 00 89 04 01 00 
   801)     24962.0  Rx         072A  1  05 
   802)     25057.4  Rx         01AA  8  17 20 08 00 89 04 01 00 
   803)     25062.1  Rx         072A  1  05 
   804)     25157.5  Rx         01AA  8  17 20 07 00 89 04 01 00 
   805)     25162.1  Rx         072A  1  05 
   806)     25257.5  Rx         01AA  8  17 20 07 00 89 04 01 00 
   807)     25262.1  Rx         072A  1  05 
   808)     25357.4  Rx         01AA  8  18 20 07 00 8A 04 01 00 
   809)     25362.1  Rx         072A  1  05 
   810)     25457.5  Rx         01AA  8  18 20 06 00 8A 04 01 00 
   811)     25462.1  Rx         072A  1  05 
   812)     25467.3  Rx         04AA  8  22 33 09 01 06 14 00 00 
   813)     25557.5  Rx         01AA  8  18 20 06 00 8A 04 01 00 
   814)     25562.1  Rx         072A  1  05 
   815)     25657.5  Rx         01AA  8  18 20 07 00 8A 04 01 00 
   816)     25662.4  Rx         02AA  8  6A 00 00 00 A5 00 00 00 
   817)     25667.1  Rx         072A  1  05 
   818)     25757.5  Rx         01AA  8  17 20 07 00 8A 04 01 00 
   819)     25762.1  Rx         072A  1  05 
   820)     25857.5  Rx         01AA  8  18 20 07 00 8A 04 01 00 
   821)     25862.2  Rx         072A  1  05 
   822)     25957.6  Rx         01AA  8  18 20 06 00 8A 04 01 00 
   823)     25962.2  Rx         072A  1  05 
   824)     26057.6  Rx         01AA  8  18 20 06 00 8A 04 01 00 
   825)     26062.2  Rx         072A  1  05 
   826)     26157.6  Rx         01AA  8  17 20 06 00 8A 04 01 00 
   827)     26162.2  Rx         072A  1  05 
   828)     26257.7  Rx         01AA  8  18 20 06 00 8A 04 01 00 
   829)     26262.3  Rx         072A  1  05 
   830)     26357.6  Rx         01AA  8  18 20 07 00 8A 04 01 00 
   831)     26362.3  Rx         072A  1  05 
   832)     26457.6  Rx         01AA  8  18 20 07 00 8A 04 01 00 
   833)     26462.3  Rx         072A  1  05 
   834)     26467.5  Rx         04AA  8  23 33 09 01 06 14 00 00 
   835)     26557.7  Rx         01AA  8  18 20 06 00 8A 04 01 00 
   836)     26562.3  Rx         072A  1  05 
   837)     26657.7  Rx         01AA  8  18 20 06 00 8A 04 01 00 
   838)     26662.3  Rx         072A  1  05 
   839)     26757.7  Rx         01AA  8  18 20 06 00 8A 04 01 00 
   840)     26762.4  Rx         072A  1  05 
   841)     26857.7  Rx         01AA  8  18 20 07 00 8A 04 01 00 
   842)     26862.4  Rx         072A  1  05 
   843)     26957.8  Rx         01AA  8  18 20 07 00 8A 04 01 00 
   844)     26962.4  Rx         072A  1  05 
   845)     27057.8  Rx         01AA  8  18 20 07 00 8A 04 01 00 
   846)     27062.4  Rx         072A  1  05 
   847)     27157.8  Rx         01AA  8  18 20 07 00 8A 04 01 00 
   848)     27162.4  Rx         072A  1  05 
   849)     27257.8  Rx         01AA  8  18 20 06 00 8A 04 01 00 
   850)     27262.5  Rx         072A  1  05 
   851)     27357.9  Rx         01AA  8  18 20 06 00 8A 04 01 00 
   852)     27362.5  Rx         072A  1  05 
   853)     27457.9  Rx         01AA  8  18 20 07 00 8A 04 01 00 
   854)     27462.5  Rx         072A  1  05 
   855)     27467.8  Rx         04AA  8  24 33 09 01 06 14 00 00 
   856)     27557.9  Rx         01AA  8  18 20 07 00 8A 04 01 00 
   857)     27562.5  Rx         072A  1  05 
   858)     27658.0  Rx         01AA  8  18 20 08 00 8A 04 01 00 
   859)     27662.6  Rx         072A  1  05 
   860)     27758.0  Rx         01AA  8  18 20 07 00 8A 04 01 00 
   861)     27762.6  Rx         072A  1  05 
   862)     27858.0  Rx         01AA  8  18 20 06 00 8A 04 01 00 
   863)     27862.6  Rx         072A  1  05 
   864)     27958.0  Rx         01AA  8  18 20 07 00 8A 04 01 00 
   865)     27962.6  Rx         072A  1  05 
   866)     28058.0  Rx         01AA  8  18 20 07 00 8A 04 01 00 
   867)     28062.6  Rx         072A  1  05 
   868)     28158.1  Rx         01AA  8  18 20 08 00 8A 04 01 00 
   869)     28162.7  Rx         072A  1  05 
   870)     28258.1  Rx         01AA  8  18 20 08 00 8A 04 01 00 
   871)     28262.7  Rx         072A  1  05 
   872)     28358.2  Rx         01AA  8  18 20 06 00 8A 04 01 00 
   873)     28362.8  Rx         072A  1  05 
   874)     28458.2  Rx         01AA  8  17 20 07 00 8A 04 01 00 
   875)     28462.8  Rx         072A  1  05 
   876)     28468.1  Rx         04AA  8  25 33 09 01 06 14 00 00 
   877)     28558.3  Rx         01AA  8  18 20 06 00 8A 04 01 00 
   878)     28562.9  Rx         072A  1  05 
   879)     28658.3  Rx         01AA  8  18 20 06 00 8A 04 01 00 
   880)     28662.9  Rx         072A  1  05 
   881)     28758.3  Rx         01AA  8  18 20 07 00 8A 04 01 00 
   882)     28762.9  Rx         072A  1  05 
   883)     28858.3  Rx         01AA  8  18 20 07 00 8A 04 01 00 
   884)     28862.9  Rx         072A  1  05 
   885)     28958.3  Rx         01AA  8  18 20 07 00 8A 04 01 00 
   886)     28962.9  Rx         072A  1  05 
   887)     29058.4  Rx         01AA  8  18 20 07 00 8A 04 01 00 
   888)     29063.0  Rx         072A  1  05 
   889)     29158.4  Rx         01AA  8  18 20 07 00 8A 04 01 00 
   890)     29163.0  Rx         072A  1  05 
   891)     29258.4  Rx         01AA  8  18 20 07 00 8A 04 01 00 
   892)     29263.0  Rx         072A  1  05 
   893)     29358.5  Rx         01AA  8  18 20 08 00 8A 04 01 00 
   894)     29363.1  Rx         072A  1  05 
   895)     29458.5  Rx         01AA  8  18 20 08 00 8A 04 01 00 
   896)     29463.1  Rx         072A  1  05 
   897)     29468.4  Rx         04AA  8  26 33 09 01 06 14 00 00 
   898)     29558.5  Rx         01AA  8  18 20 08 00 8A 04 01 00 
   899)     29563.2  Rx         072A  1  05 
   900)     29658.6  Rx         01AA  8  18 20 07 00 8A 04 01 00 
   901)     29663.2  Rx         072A  1  05 
   902)     29758.6  Rx         01AA  8  18 20 06 00 8A 04 01 00 
   903)     29763.2  Rx         072A  1  05 
   904)     29858.6  Rx         01AA  8  18 20 07 00 8A 04 01 00 
   905)     29863.2  Rx         072A  1  05 
   906)     29958.6  Rx         01AA  8  18 20 07 00 8A 04 01 00 
   907)     29963.2  Rx         072A  1  05 
   908)     30058.7  Rx         01AA  8  18 20 07 00 8A 04 01 00 
   909)     30063.3  Rx         072A  1  05 
   910)     30158.7  Rx         01AA  8  18 20 06 00 8A 04 01 00 
   911)     30163.3  Rx         072A  1  05 
   912)     30258.7  Rx         01AA  8  18 20 06 00 8A 04 01 00 
   913)     30263.3  Rx         072A  1  05 
   914)     30358.6  Rx         01AA  8  18 20 07 00 8A 04 01 00 
   915)     30363.2  Rx         072A  1  05 
   916)     30458.6  Rx         01AA  8  18 20 06 00 8A 04 01 00 
   917)     30463.2  Rx         072A  1  05 
   918)     30468.5  Rx         04AA  8  27 33 09 01 06 14 00 00 
   919)     30558.7  Rx         01AA  8  18 20 07 00 8A 04 01 00 
   920)     30563.3  Rx         072A  1  05 
   921)     30658.7  Rx         01AA  8  18 20 07 00 8A 04 01 00 
   922)     30663.6  Rx         02AA  8  6A 00 00 00 A5 00 00 00 
   923)     30668.3  Rx         072A  1  05 
   924)     30758.7  Rx         01AA  8  18 20 08 00 8A 04 01 00 
   925)     30763.3  Rx         072A  1  05 
   926)     30858.7  Rx         01AA  8  18 20 07 00 8A 04 01 00 
   927)     30863.4  Rx         072A  1  05 
   928)     30958.8  Rx         01AA  8  18 20 06 00 8A 04 01 00 
   929)     30963.4  Rx         072A  1  05 
   930)     31058.8  Rx         01AA  8  18 20 07 00 8A 04 01 00 
   931)     31063.4  Rx         072A  1  05 
   932)     31158.8  Rx         01AA  8  18 20 07 00 8A 04 01 00 
   933)     31163.4  Rx         072A  1  05 
   934)     31258.8  Rx         01AA  8  18 20 08 00 8A 04 01 00 
   935)     31263.4  Rx         072A  1  05 
   936)     31359.0  Rx         01AA  8  18 20 07 00 8A 04 01 00 
   937)     31363.6  Rx         072A  1  05 
   938)     31459.0  Rx         01AA  8  18 20 06 00 8A 04 01 00 
   939)     31463.6  Rx         072A  1  05 
   940)     31468.8  Rx         04AA  8  28 33 09 01 06 14 00 00 
   941)     31559.0  Rx         01AA  8  18 20 06 00 8A 04 01 00 
   942)     31563.6  Rx         072A  1  05 
   943)     31659.0  Rx         01AA  8  18 20 05 00 8A 04 01 00 
   944)     31663.6  Rx         072A  1  05 
   945)     31759.0  Rx         01AA  8  18 20 06 00 8A 04 01 00 
   946)     31763.7  Rx         072A  1  05 
   947)     31859.1  Rx         01AA  8  18 20 07 00 8A 04 01 00 
   948)     31863.7  Rx         072A  1  05 
   949)     31959.1  Rx         01AA  8  18 20 07 00 8A 04 01 00 
   950)     31963.7  Rx         072A  1  05 
   951)     32059.1  Rx         01AA  8  18 20 06 00 8A 04 01 00 
   952)     32063.7  Rx         072A  1  05 
   953)     32159.1  Rx         01AA  8  18 20 07 00 8A 04 01 00 
   954)     32163.8  Rx         072A  1  05 
   955)     32259.1  Rx         01AA  8  18 20 07 00 8A 04 01 00 
   956)     32263.8  Rx         072A  1  05 
   957)     32359.1  Rx         01AA  8  18 20 08 00 8A 04 01 00 
   958)     32363.7  Rx         072A  1  05 
   959)     32459.1  Rx         01AA  8  18 20 08 00 8A 04 01 00 
   960)     32463.7  Rx         072A  1  05 
   961)     32469.0  Rx         04AA  8  29 33 09 01 06 14 00 00 
   962)     32559.1  Rx         01AA  8  18 20 08 00 8A 04 01 00 
   963)     32563.7  Rx         072A  1  05 
   964)     32659.2  Rx         01AA  8  18 20 07 00 8A 04 01 00 
   965)     32663.8  Rx         072A  1  05 
   966)     32759.2  Rx         01AA  8  18 20 06 00 8A 04 01 00 
   967)     32763.8  Rx         072A  1  05 
   968)     32859.2  Rx         01AA  8  18 20 07 00 8A 04 01 00 
   969)     32863.8  Rx         072A  1  05 
   970)     32959.2  Rx         01AA  8  18 20 07 00 8A 04 01 00 
   971)     32963.8  Rx         072A  1  05 
   972)     33059.2  Rx         01AA  8  18 20 07 00 8A 04 01 00 
   973)     33063.9  Rx         072A  1  05 
   974)     33159.3  Rx         01AA  8  18 20 07 00 8A 04 01 00 
   975)     33163.9  Rx         072A  1  05 
   976)     33259.3  Rx         01AA  8  18 20 06 00 8A 04 01 00 
   977)     33263.9  Rx         072A  1  05 
   978)     33359.3  Rx         01AA  8  18 20 05 00 8A 04 01 00 
   979)     33363.9  Rx         072A  1  05 
   980)     33459.3  Rx         01AA  8  18 20 06 00 8A 04 01 00 
   981)     33463.9  Rx         072A  1  05 
   982)     33469.2  Rx         04AA  8  2A 33 09 01 06 14 00 00 
   983)     33559.3  Rx         01AA  8  18 20 06 00 8A 04 01 00 
   984)     33563.9  Rx         072A  1  05 
   985)     33659.3  Rx         01AA  8  18 20 07 00 8A 04 01 00 
   986)     33663.9  Rx         072A  1  05 
   987)     33759.4  Rx         01AA  8  18 20 06 00 8A 04 01 00 
   988)     33764.0  Rx         072A  1  05 
   989)     33859.4  Rx         01AA  8  18 20 07 00 8A 04 01 00 
   990)     33864.0  Rx         072A  1  05 
   991)     33959.4  Rx         01AA  8  18 20 06 00 8A 04 01 00 
   992)     33964.0  Rx         072A  1  05 
   993)     34059.4  Rx         01AA  8  18 20 07 00 8A 04 01 00 
   994)     34064.0  Rx         072A  1  05 
   995)     34159.4  Rx         01AA  8  18 20 07 00 8A 04 01 00 
   996)     34164.1  Rx         072A  1  05 
   997)     34259.5  Rx         01AA  8  18 20 07 00 8A 04 01 00 
   998)     34264.1  Rx         072A  1  05 
   999)     34359.6  Rx         01AA  8  18 20 07 00 8A 04 01 00 
  1000)     34364.2  Rx         072A  1  05 
  1001)     34459.6  Rx         01AA  8  18 20 07 00 8A 04 01 00 
  1002)     34464.2  Rx         072A  1  05 
  1003)     34469.5  Rx         04AA  8  2B 33 09 01 06 14 00 00 
  1004)     34559.6  Rx         01AA  8  18 20 06 00 8A 04 01 00 
  1005)     34564.3  Rx         072A  1  05 
  1006)     34659.7  Rx         01AA  8  18 20 07 00 8A 04 01 00 
  1007)     34664.3  Rx         072A  1  05 
  1008)     34759.7  Rx         01AA  8  18 20 07 00 8A 04 01 00 
  1009)     34764.3  Rx         072A  1  05 
  1010)     34859.7  Rx         01AA  8  18 20 07 00 8A 04 01 00 
  1011)     34864.3  Rx         072A  1  05 
  1012)     34959.7  Rx         01AA  8  18 20 07 00 8A 04 01 00 
  1013)     34964.3  Rx         072A  1  05 
  1014)     35059.7  Rx         01AA  8  18 20 07 00 8A 04 01 00 
  1015)     35064.4  Rx         072A  1  05 
  1016)     35159.8  Rx         01AA  8  18 20 07 00 8A 04 01 00 
  1017)     35164.4  Rx         072A  1  05 
  1018)     35259.8  Rx         01AA  8  18 20 08 00 8A 04 01 00 
  1019)     35264.4  Rx         072A  1  05 
  1020)     35359.7  Rx         01AA  8  18 20 08 00 8A 04 01 00 
  1021)     35364.3  Rx         072A  1  05 
  1022)     35459.8  Rx         01AA  8  18 20 08 00 8A 04 01 00 
  1023)     35464.4  Rx         072A  1  05 
  1024)     35469.6  Rx         04AA  8  2C 33 09 01 06 14 00 00 
  1025)     35559.8  Rx         01AA  8  18 20 07 00 8A 04 01 00 
  1026)     35564.4  Rx         072A  1  05 
  1027)     35659.8  Rx         01AA  8  18 20 07 00 8A 04 01 00 
  1028)     35664.7  Rx         02AA  8  6A 00 00 00 A5 00 00 00 
  1029)     35669.4  Rx         072A  1  05 
  1030)     35759.8  Rx         01AA  8  18 20 07 00 8A 04 01 00 
  1031)     35764.4  Rx         072A  1  05 
  1032)     35859.8  Rx         01AA  8  17 20 07 00 8A 04 01 00 
  1033)     35864.4  Rx         072A  1  05 
  1034)     35959.9  Rx         01AA  8  17 20 07 00 8B 04 01 00 
  1035)     35964.5  Rx         072A  1  05 
  1036)     36059.9  Rx         01AA  8  18 20 07 00 8B 04 01 00 
  1037)     36064.5  Rx         072A  1  05 
  1038)     36159.9  Rx         01AA  8  18 20 06 00 8B 04 01 00 
  1039)     36164.5  Rx         072A  1  05 
  1040)     36259.9  Rx         01AA  8  18 20 07 00 8B 04 01 00 
  1041)     36264.5  Rx         072A  1  05 
  1042)     36359.9  Rx         01AA  8  18 20 05 00 8B 04 01 00 
  1043)     36364.5  Rx         072A  1  05 
  1044)     36459.9  Rx         01AA  8  18 20 06 00 8B 04 01 00 
  1045)     36464.5  Rx         072A  1  05 
  1046)     36469.7  Rx         04AA  8  2D 33 09 01 06 14 00 00 
  1047)     36559.9  Rx         01AA  8  18 20 06 00 8B 04 01 00 
  1048)     36564.5  Rx         072A  1  05 
  1049)     36659.9  Rx         01AA  8  18 20 07 00 8B 04 01 00 
  1050)     36664.5  Rx         072A  1  05 
  1051)     36760.0  Rx         01AA  8  18 20 06 00 8B 04 01 00 
  1052)     36764.6  Rx         072A  1  05 
  1053)     36860.0  Rx         01AA  8  18 20 06 00 8B 04 01 00 
  1054)     36864.6  Rx         072A  1  05 
  1055)     36960.0  Rx         01AA  8  18 20 06 00 8B 04 01 00 
  1056)     36964.6  Rx         072A  1  05 
  1057)     37060.0  Rx         01AA  8  18 20 06 00 8B 04 01 00 
  1058)     37064.6  Rx         072A  1  05 
  1059)     37160.0  Rx         01AA  8  18 20 06 00 8B 04 01 00 
  1060)     37164.7  Rx         072A  1  05 
  1061)     37260.1  Rx         01AA  8  18 20 08 00 8B 04 01 00 
  1062)     37264.7  Rx         072A  1  05 
  1063)     37360.2  Rx         01AA  8  18 20 08 00 8B 04 01 00 
  1064)     37364.8  Rx         072A  1  05 
  1065)     37460.2  Rx         01AA  8  18 20 07 00 8B 04 01 00 
  1066)     37464.8  Rx         072A  1  05 
  1067)     37470.1  Rx         04AA  8  2E 33 09 01 06 14 00 00 
  1068)     37560.2  Rx         01AA  8  18 20 07 00 8B 04 01 00 
  1069)     37564.8  Rx         072A  1  05 
  1070)     37660.3  Rx         01AA  8  18 20 07 00 8B 04 01 00 
  1071)     37664.9  Rx         072A  1  05 
  1072)     37760.3  Rx         01AA  8  18 20 08 00 8B 04 01 00 
  1073)     37764.9  Rx         072A  1  05 
  1074)     37860.3  Rx         01AA  8  18 20 07 00 8B 04 01 00 
  1075)     37864.9  Rx         072A  1  05 
  1076)     37960.3  Rx         01AA  8  18 20 08 00 8B 04 01 00 
  1077)     37964.9  Rx         072A  1  05 
  1078)     38060.3  Rx         01AA  8  18 20 06 00 8B 04 01 00 
  1079)     38065.0  Rx         072A  1  05 
  1080)     38160.4  Rx         01AA  8  18 20 07 00 8B 04 01 00 
  1081)     38165.0  Rx         072A  1  05 
  1082)     38260.4  Rx         01AA  8  18 20 06 00 8B 04 01 00 
  1083)     38265.0  Rx         072A  1  05 
  1084)     38360.4  Rx         01AA  8  18 20 07 00 8B 04 01 00 
  1085)     38365.0  Rx         072A  1  05 
  1086)     38460.4  Rx         01AA  8  18 20 07 00 8B 04 01 00 
  1087)     38465.0  Rx         072A  1  05 
  1088)     38470.3  Rx         04AA  8  2F 33 09 01 06 14 00 00 
  1089)     38560.5  Rx         01AA  8  18 20 06 00 8B 04 01 00 
  1090)     38565.1  Rx         072A  1  05 
  1091)     38660.5  Rx         01AA  8  18 20 06 00 8B 04 01 00 
  1092)     38665.1  Rx         072A  1  05 
  1093)     38760.5  Rx         01AA  8  18 20 06 00 8B 04 01 00 
  1094)     38765.1  Rx         072A  1  05 
  1095)     38860.5  Rx         01AA  8  18 20 06 00 8B 04 01 00 
  1096)     38865.1  Rx         072A  1  05 
  1097)     38960.6  Rx         01AA  8  18 20 07 00 8B 04 01 00 
  1098)     38965.2  Rx         072A  1  05 
  1099)     39060.6  Rx         01AA  8  18 20 07 00 8B 04 01 00 
  1100)     39065.2  Rx         072A  1  05 
  1101)     39160.6  Rx         01AA  8  18 20 07 00 8B 04 01 00 
  1102)     39165.2  Rx         072A  1  05 
  1103)     39260.6  Rx         01AA  8  18 20 07 00 8B 04 01 00 
  1104)     39265.2  Rx         072A  1  05 
  1105)     39360.7  Rx         01AA  8  18 20 06 00 8B 04 01 00 
  1106)     39365.4  Rx         072A  1  05 
  1107)     39460.8  Rx         01AA  8  18 20 07 00 8B 04 01 00 
  1108)     39465.4  Rx         072A  1  05 
  1109)     39470.6  Rx         04AA  8  30 33 09 01 06 14 00 00 
  1110)     39560.8  Rx         01AA  8  18 20 07 00 8B 04 01 00 
  1111)     39565.4  Rx         072A  1  05 
  1112)     39660.8  Rx         01AA  8  18 20 07 00 8B 04 01 00 
  1113)     39665.4  Rx         072A  1  05 
  1114)     39760.8  Rx         01AA  8  18 20 07 00 8B 04 01 00 
  1115)     39765.4  Rx         072A  1  05 
  1116)     39860.8  Rx         01AA  8  18 20 06 00 8B 04 01 00 
  1117)     39865.5  Rx         072A  1  05 
  1118)     39960.9  Rx         01AA  8  18 20 06 00 8B 04 01 00 
  1119)     39965.5  Rx         072A  1  05 
  1120)     40060.9  Rx         01AA  8  18 20 07 00 8B 04 01 00 
  1121)     40065.5  Rx         072A  1  05 
  1122)     40160.9  Rx         01AA  8  18 20 07 00 8B 04 01 00 
  1123)     40165.5  Rx         072A  1  05 
  1124)     40260.9  Rx         01AA  8  18 20 07 00 8B 04 01 00 
  1125)     40265.5  Rx         072A  1  05 
  1126)     40360.9  Rx         01AA  8  18 20 07 00 8B 04 01 00 
  1127)     40365.5  Rx         072A  1  05 
  1128)     40460.9  Rx         01AA  8  18 20 07 00 8B 04 01 00 
  1129)     40465.5  Rx         072A  1  05 
  1130)     40470.7  Rx         04AA  8  31 33 09 01 06 14 00 00 
  1131)     40560.9  Rx         01AA  8  18 20 07 00 8B 04 01 00 
  1132)     40565.5  Rx         072A  1  05 
  1133)     40660.9  Rx         01AA  8  18 20 07 00 8B 04 01 00 
  1134)     40665.8  Rx         02AA  8  6A 00 00 00 A5 00 00 00 
  1135)     40670.6  Rx         072A  1  05 
  1136)     40760.9  Rx         01AA  8  18 20 08 00 8B 04 01 00 
  1137)     40765.6  Rx         072A  1  05 
  1138)     40861.0  Rx         01AA  8  18 20 08 00 8B 04 01 00 
  1139)     40865.6  Rx         072A  1  05 
  1140)     40961.0  Rx         01AA  8  18 20 06 00 8B 04 01 00 
  1141)     40965.6  Rx         072A  1  05 
  1142)     41061.0  Rx         01AA  8  18 20 07 00 8B 04 01 00 
  1143)     41065.6  Rx         072A  1  05 
  1144)     41161.0  Rx         01AA  8  18 20 06 00 8B 04 01 00 
  1145)     41165.7  Rx         072A  1  05 
  1146)     41261.1  Rx         01AA  8  18 20 06 00 8B 04 01 00 
  1147)     41265.7  Rx         072A  1  05 
  1148)     41361.1  Rx         01AA  8  18 20 07 00 8B 04 01 00 
  1149)     41365.7  Rx         072A  1  05 
  1150)     41461.1  Rx         01AA  8  18 20 08 00 8B 04 01 00 
  1151)     41465.7  Rx         072A  1  05 
  1152)     41471.0  Rx         04AA  8  32 33 09 01 06 14 00 00 
  1153)     41561.1  Rx         01AA  8  18 20 08 00 8B 04 01 00 
  1154)     41565.7  Rx         072A  1  05 
  1155)     41661.2  Rx         01AA  8  18 20 06 00 8B 04 01 00 
  1156)     41665.8  Rx         072A  1  05 
  1157)     41761.2  Rx         01AA  8  18 20 07 00 8B 04 01 00 
  1158)     41765.8  Rx         072A  1  05 
  1159)     41861.2  Rx         01AA  8  18 20 07 00 8B 04 01 00 
  1160)     41865.8  Rx         072A  1  05 
  1161)     41961.2  Rx         01AA  8  17 20 07 00 8B 04 01 00 
  1162)     41965.8  Rx         072A  1  05 
  1163)     42061.2  Rx         01AA  8  17 20 06 00 8B 04 01 00 
  1164)     42065.9  Rx         072A  1  05 
  1165)     42161.3  Rx         01AA  8  18 20 06 00 8B 04 01 00 
  1166)     42165.9  Rx         072A  1  05 
  1167)     42261.3  Rx         01AA  8  18 20 06 00 8B 04 01 00 
  1168)     42265.9  Rx         072A  1  05 
  1169)     42361.4  Rx         01AA  8  17 20 06 00 8B 04 01 00 
  1170)     42366.0  Rx         072A  1  05 
  1171)     42461.4  Rx         01AA  8  17 20 08 00 8B 04 01 00 
  1172)     42466.1  Rx         072A  1  05 
  1173)     42471.3  Rx         04AA  8  33 33 09 01 06 14 00 00 
  1174)     42561.4  Rx         01AA  8  17 20 08 00 8B 04 01 00 
  1175)     42566.1  Rx         072A  1  05 
  1176)     42661.5  Rx         01AA  8  17 20 07 00 8B 04 01 00 
  1177)     42666.1  Rx         072A  1  05 
  1178)     42761.5  Rx         01AA  8  17 20 07 00 8B 04 01 00 
  1179)     42766.1  Rx         072A  1  05 
  1180)     42861.5  Rx         01AA  8  17 20 07 00 8B 04 01 00 
  1181)     42866.2  Rx         072A  1  05 
  1182)     42961.6  Rx         01AA  8  17 20 07 00 8B 04 01 00 
  1183)     42966.2  Rx         072A  1  05 
  1184)     43061.6  Rx         01AA  8  17 20 07 00 8B 04 01 00 
  1185)     43066.2  Rx         072A  1  05 
  1186)     43161.6  Rx         01AA  8  17 20 07 00 8B 04 01 00 
  1187)     43166.2  Rx         072A  1  05 
  1188)     43261.6  Rx         01AA  8  17 20 07 00 8B 04 01 00 
  1189)     43266.2  Rx         072A  1  05 
  1190)     43361.7  Rx         01AA  8  17 20 07 00 8B 04 01 00 
  1191)     43366.4  Rx         072A  1  05 
  1192)     43461.8  Rx         01AA  8  17 20 07 00 8B 04 01 00 
  1193)     43466.4  Rx         072A  1  05 
  1194)     43471.6  Rx         04AA  8  34 33 09 01 06 14 00 00 
  1195)     43561.8  Rx         01AA  8  17 20 06 00 8B 04 01 00 
  1196)     43566.4  Rx         072A  1  05 
  1197)     43661.8  Rx         01AA  8  17 20 07 00 8B 04 01 00 
  1198)     43666.4  Rx         072A  1  05 
  1199)     43761.8  Rx         01AA  8  18 20 07 00 8B 04 01 00 
  1200)     43766.4  Rx         072A  1  05 
  1201)     43861.9  Rx         01AA  8  17 20 07 00 8B 04 01 00 
  1202)     43866.5  Rx         072A  1  05 
  1203)     43961.9  Rx         01AA  8  18 20 07 00 8C 04 01 00 
  1204)     43966.5  Rx         072A  1  05 
  1205)     44061.9  Rx         01AA  8  18 20 07 00 8C 04 01 00 
  1206)     44066.5  Rx         072A  1  05 
  1207)     44161.9  Rx         01AA  8  18 20 07 00 8C 04 01 00 
  1208)     44166.5  Rx         072A  1  05 
  1209)     44262.0  Rx         01AA  8  18 20 07 00 8C 04 01 00 
  1210)     44266.6  Rx         072A  1  05 
  1211)     44361.9  Rx         01AA  8  18 20 07 00 8C 04 01 00 
  1212)     44366.5  Rx         072A  1  05 
  1213)     44461.9  Rx         01AA  8  18 20 06 00 8C 04 01 00 
  1214)     44466.5  Rx         072A  1  05 
  1215)     44471.8  Rx         04AA  8  35 33 09 01 06 14 00 00 
  1216)     44561.9  Rx         01AA  8  18 20 06 00 8C 04 01 00 
  1217)     44566.5  Rx         072A  1  05 
  1218)     44661.9  Rx         01AA  8  17 20 06 00 8C 04 01 00 
  1219)     44666.6  Rx         072A  1  05 
  1220)     44762.0  Rx         01AA  8  17 20 07 00 8C 04 01 00 
  1221)     44766.6  Rx         072A  1  05 
  1222)     44862.0  Rx         01AA  8  18 20 07 00 8C 04 01 00 
  1223)     44866.6  Rx         072A  1  05 
  1224)     44962.0  Rx         01AA  8  18 20 07 00 8C 04 01 00 
  1225)     44966.6  Rx         072A  1  05 
  1226)     45062.0  Rx         01AA  8  18 20 07 00 8C 04 01 00 
  1227)     45066.6  Rx         072A  1  05 
  1228)     45162.1  Rx         01AA  8  17 20 07 00 8C 04 01 00 
  1229)     45166.7  Rx         072A  1  05 
  1230)     45262.1  Rx         01AA  8  18 20 07 00 8C 04 01 00 
  1231)     45266.7  Rx         072A  1  05 
  1232)     45362.1  Rx         01AA  8  18 20 07 00 8C 04 01 00 
  1233)     45366.8  Rx         072A  1  05 
  1234)     45462.2  Rx         01AA  8  18 20 07 00 8C 04 01 00 
  1235)     45466.8  Rx         072A  1  05 
  1236)     45472.0  Rx         04AA  8  36 33 09 01 06 14 00 00 
  1237)     45562.2  Rx         01AA  8  18 20 06 00 8C 04 01 00 
  1238)     45566.8  Rx         072A  1  05 
  1239)     45662.2  Rx         01AA  8  18 20 06 00 8C 04 01 00 
  1240)     45667.1  Rx         02AA  8  6A 00 00 00 A5 00 00 00 
  1241)     45671.8  Rx         072A  1  05 
  1242)     45762.2  Rx         01AA  8  18 20 06 00 8C 04 01 00 
  1243)     45766.8  Rx         072A  1  05 
  1244)     45862.3  Rx         01AA  8  18 20 06 00 8C 04 01 00 
  1245)     45866.9  Rx         072A  1  05 
  1246)     45962.3  Rx         01AA  8  18 20 06 00 8C 04 01 00 
  1247)     45966.9  Rx         072A  1  05 
  1248)     46062.3  Rx         01AA  8  18 20 06 00 8C 04 01 00 
  1249)     46066.9  Rx         072A  1  05 
  1250)     46162.3  Rx         01AA  8  18 20 05 00 8C 04 01 00 
  1251)     46166.9  Rx         072A  1  05 
  1252)     46262.3  Rx         01AA  8  18 20 06 00 8C 04 01 00 
  1253)     46267.0  Rx         072A  1  05 
  1254)     46362.5  Rx         01AA  8  18 20 06 00 8C 04 01 00 
  1255)     46367.1  Rx         072A  1  05 
  1256)     46462.5  Rx         01AA  8  18 20 08 00 8C 04 01 00 
  1257)     46467.1  Rx         072A  1  05 
  1258)     46472.3  Rx         04AA  8  37 33 09 01 06 14 00 00 
  1259)     46562.5  Rx         01AA  8  18 20 07 00 8C 04 01 00 
  1260)     46567.1  Rx         072A  1  05 
  1261)     46662.5  Rx         01AA  8  18 20 07 00 8C 04 01 00 
  1262)     46667.1  Rx         072A  1  05 
  1263)     46762.5  Rx         01AA  8  18 20 06 00 8C 04 01 00 
  1264)     46767.2  Rx         072A  1  05 
  1265)     46862.6  Rx         01AA  8  18 20 06 00 8C 04 01 00 
  1266)     46867.2  Rx         072A  1  05 
  1267)     46962.6  Rx         01AA  8  18 20 07 00 8C 04 01 00 
  1268)     46967.2  Rx         072A  1  05 
  1269)     47062.6  Rx         01AA  8  17 20 07 00 8C 04 01 00 
  1270)     47067.2  Rx         072A  1  05 
  1271)     47162.6  Rx         01AA  8  18 20 07 00 8C 04 01 00 
  1272)     47167.3  Rx         072A  1  05 
  1273)     47262.7  Rx         01AA  8  18 20 06 00 8C 04 01 00 
  1274)     47267.3  Rx         072A  1  05 
  1275)     47362.7  Rx         01AA  8  18 20 06 00 8C 04 01 00 
  1276)     47367.3  Rx         072A  1  05 
  1277)     47462.7  Rx         01AA  8  18 20 06 00 8C 04 01 00 
  1278)     47467.3  Rx         072A  1  05 
  1279)     47472.6  Rx         04AA  8  38 33 09 01 06 14 00 00 
  1280)     47562.7  Rx         01AA  8  18 20 06 00 8C 04 01 00 
  1281)     47567.3  Rx         072A  1  05 
  1282)     47662.8  Rx         01AA  8  18 20 06 00 8C 04 01 00 
  1283)     47667.4  Rx         072A  1  05 
  1284)     47762.8  Rx         01AA  8  18 20 06 00 8C 04 01 00 
  1285)     47767.4  Rx         072A  1  05 
  1286)     47862.8  Rx         01AA  8  18 20 06 00 8C 04 01 00 
  1287)     47867.4  Rx         072A  1  05 
  1288)     47962.8  Rx         01AA  8  18 20 07 00 8C 04 01 00 
  1289)     47967.5  Rx         072A  1  05 
  1290)     48062.9  Rx         01AA  8  18 20 07 00 8C 04 01 00 
  1291)     48067.5  Rx         072A  1  05 
  1292)     48162.9  Rx         01AA  8  18 20 07 00 8C 04 01 00 
  1293)     48167.5  Rx         072A  1  05 
  1294)     48262.9  Rx         01AA  8  18 20 07 00 8C 04 01 00 
  1295)     48267.5  Rx         072A  1  05 
  1296)     48362.8  Rx         01AA  8  18 20 06 00 8C 04 01 00 
  1297)     48367.4  Rx         072A  1  05 
  1298)     48462.8  Rx         01AA  8  18 20 06 00 8C 04 01 00 
  1299)     48467.5  Rx         072A  1  05 
  1300)     48472.7  Rx         04AA  8  39 33 09 01 06 14 00 00 
  1301)     48562.9  Rx         01AA  8  18 20 06 00 8C 04 01 00 
  1302)     48567.5  Rx         072A  1  05 
  1303)     48662.9  Rx         01AA  8  18 20 07 00 8C 04 01 00 
  1304)     48667.5  Rx         072A  1  05 
  1305)     48762.9  Rx         01AA  8  18 20 07 00 8C 04 01 00 
  1306)     48767.5  Rx         072A  1  05 
  1307)     48862.9  Rx         01AA  8  18 20 07 00 8C 04 01 00 
  1308)     48867.6  Rx         072A  1  05 
  1309)     48963.0  Rx         01AA  8  18 20 07 00 8C 04 01 00 
  1310)     48967.6  Rx         072A  1  05 
  1311)     49063.0  Rx         01AA  8  18 20 07 00 8C 04 01 00 
  1312)     49067.6  Rx         072A  1  05 
  1313)     49163.0  Rx         01AA  8  18 20 07 00 8C 04 01 00 
  1314)     49167.6  Rx         072A  1  05 
  1315)     49263.0  Rx         01AA  8  18 20 07 00 8C 04 01 00 
  1316)     49267.6  Rx         072A  1  05 
  1317)     49363.0  Rx         01AA  8  18 20 07 00 8C 04 01 00 
  1318)     49367.6  Rx         072A  1  05 
  1319)     49463.0  Rx         01AA  8  18 20 07 00 8C 04 01 00 
  1320)     49467.6  Rx         072A  1  05 
  1321)     49472.9  Rx         04AA  8  3A 33 09 01 06 14 00 00 
  1322)     49563.0  Rx         01AA  8  18 20 07 00 8C 04 01 00 
  1323)     49567.6  Rx         072A  1  05 
  1324)     49663.0  Rx         01AA  8  18 20 07 00 8C 04 01 00 
  1325)     49667.6  Rx         072A  1  05 
  1326)     49763.0  Rx         01AA  8  18 20 07 00 8D 04 01 00 
  1327)     49767.6  Rx         072A  1  05 
  1328)     49863.1  Rx         01AA  8  18 20 07 00 8D 04 01 00 
  1329)     49867.7  Rx         072A  1  05 
  1330)     49963.1  Rx         01AA  8  18 20 06 00 8D 04 01 00 
  1331)     49967.7  Rx         072A  1  05 
  1332)     50063.1  Rx         01AA  8  18 20 06 00 8D 04 01 00 
  1333)     50067.7  Rx         072A  1  05 
  1334)     50163.1  Rx         01AA  8  18 20 06 00 8D 04 01 00 
  1335)     50167.8  Rx         072A  1  05 
  1336)     50263.1  Rx         01AA  8  18 20 06 00 8D 04 01 00 
  1337)     50267.8  Rx         072A  1  05 
  1338)     50363.1  Rx         01AA  8  18 20 07 00 8D 04 01 00 
  1339)     50367.8  Rx         072A  1  05 
  1340)     50463.2  Rx         01AA  8  18 20 07 00 8D 04 01 00 
  1341)     50467.8  Rx         072A  1  05 
  1342)     50473.0  Rx         04AA  8  3B 33 09 01 06 14 00 00 
  1343)     50563.2  Rx         01AA  8  18 20 07 00 8D 04 01 00 
  1344)     50567.8  Rx         072A  1  05 
  1345)     50663.2  Rx         01AA  8  18 20 07 00 8D 04 01 00 
  1346)     50668.1  Rx         02AA  8  6A 00 00 00 A5 00 00 00 
  1347)     50672.8  Rx         072A  1  05 
  1348)     50763.2  Rx         01AA  8  17 20 07 00 8D 04 01 00 
  1349)     50767.8  Rx         072A  1  05 
  1350)     50863.2  Rx         01AA  8  17 20 07 00 8D 04 01 00 
  1351)     50867.9  Rx         072A  1  05 
  1352)     50963.3  Rx         01AA  8  17 20 08 00 8D 04 01 00 
  1353)     50967.9  Rx         072A  1  05 
  1354)     51063.3  Rx         01AA  8  17 20 08 00 8D 04 01 00 
  1355)     51067.9  Rx         072A  1  05 
  1356)     51163.3  Rx         01AA  8  18 20 07 00 8D 04 01 00 
  1357)     51167.9  Rx         072A  1  05 
  1358)     51263.4  Rx         01AA  8  17 20 07 00 8D 04 01 00 
  1359)     51268.0  Rx         072A  1  05 
  1360)     51363.5  Rx         01AA  8  18 20 07 00 8D 04 01 00 
  1361)     51368.1  Rx         072A  1  05 
  1362)     51463.5  Rx         01AA  8  18 20 08 00 8D 04 01 00 
  1363)     51468.1  Rx         072A  1  05 
  1364)     51473.4  Rx         04AA  8  00 34 09 01 06 14 00 00 
  1365)     51563.5  Rx         01AA  8  18 20 08 00 8D 04 01 00 
  1366)     51568.1  Rx         072A  1  05 
  1367)     51663.5  Rx         01AA  8  18 20 07 00 8D 04 01 00 
  1368)     51668.1  Rx         072A  1  05 
  1369)     51763.6  Rx         01AA  8  18 20 06 00 8D 04 01 00 
  1370)     51768.2  Rx         072A  1  05 
  1371)     51863.6  Rx         01AA  8  18 20 06 00 8D 04 01 00 
  1372)     51868.2  Rx         072A  1  05 
  1373)     51963.6  Rx         01AA  8  18 20 06 00 8D 04 01 00 
  1374)     51968.2  Rx         072A  1  05 
  1375)     52063.6  Rx         01AA  8  18 20 07 00 8D 04 01 00 
  1376)     52068.2  Rx         072A  1  05 
  1377)     52163.6  Rx         01AA  8  18 20 07 00 8D 04 01 00 
  1378)     52168.3  Rx         072A  1  05 
  1379)     52263.7  Rx         01AA  8  18 20 06 00 8D 04 01 00 
  1380)     52268.3  Rx         072A  1  05 
  1381)     52363.8  Rx         01AA  8  18 20 06 00 8D 04 01 00 
  1382)     52368.4  Rx         072A  1  05 
  1383)     52463.8  Rx         01AA  8  18 20 06 00 8D 04 01 00 
  1384)     52468.4  Rx         072A  1  05 
  1385)     52473.7  Rx         04AA  8  01 34 09 01 06 14 00 00 
  1386)     52563.8  Rx         01AA  8  18 20 06 00 8D 04 01 00 
  1387)     52568.5  Rx         072A  1  05 
  1388)     52663.9  Rx         01AA  8  18 20 06 00 8D 04 01 00 
  1389)     52668.5  Rx         072A  1  05 
  1390)     52763.9  Rx         01AA  8  18 20 07 00 8D 04 01 00 
  1391)     52768.5  Rx         072A  1  05 
  1392)     52863.9  Rx         01AA  8  18 20 06 00 8D 04 01 00 
  1393)     52868.5  Rx         072A  1  05 
  1394)     52963.9  Rx         01AA  8  18 20 07 00 8D 04 01 00 
  1395)     52968.5  Rx         072A  1  05 
  1396)     53064.0  Rx         01AA  8  18 20 07 00 8D 04 01 00 
  1397)     53068.6  Rx         072A  1  05 
  1398)     53164.0  Rx         01AA  8  18 20 08 00 8D 04 01 00 
  1399)     53168.6  Rx         072A  1  05 
  1400)     53264.0  Rx         01AA  8  18 20 07 00 8D 04 01 00 
  1401)     53268.6  Rx         072A  1  05 
  1402)     53363.9  Rx         01AA  8  18 20 07 00 8D 04 01 00 
  1403)     53368.5  Rx         072A  1  05 
  1404)     53463.9  Rx         01AA  8  18 20 07 00 8D 04 01 00 
  1405)     53468.6  Rx         072A  1  05 
  1406)     53473.8  Rx         04AA  8  02 34 09 01 06 14 00 00 
  1407)     53564.0  Rx         01AA  8  18 20 08 00 8D 04 01 00 
  1408)     53568.6  Rx         072A  1  05 
  1409)     53664.0  Rx         01AA  8  18 20 08 00 8D 04 01 00 
  1410)     53668.6  Rx         072A  1  05 
  1411)     53764.0  Rx         01AA  8  18 20 08 00 8D 04 01 00 
  1412)     53768.6  Rx         072A  1  05 
  1413)     53864.0  Rx         01AA  8  18 20 07 00 8D 04 01 00 
  1414)     53868.6  Rx         072A  1  05 
  1415)     53964.1  Rx         01AA  8  18 20 05 00 8D 04 01 00 
  1416)     53968.7  Rx         072A  1  05 
  1417)     54064.1  Rx         01AA  8  18 20 07 00 8D 04 01 00 
  1418)     54068.7  Rx         072A  1  05 
  1419)     54164.1  Rx         01AA  8  18 20 07 00 8D 04 01 00 
  1420)     54168.7  Rx         072A  1  05 
  1421)     54264.1  Rx         01AA  8  18 20 07 00 8D 04 01 00 
  1422)     54268.7  Rx         072A  1  05 
  1423)     54364.2  Rx         01AA  8  18 20 08 00 8D 04 01 00 
  1424)     54368.9  Rx         072A  1  05 
  1425)     54464.3  Rx         01AA  8  18 20 06 00 8D 04 01 00 
  1426)     54468.9  Rx         072A  1  05 
  1427)     54474.1  Rx         04AA  8  03 34 09 01 06 14 00 00 
  1428)     54564.3  Rx         01AA  8  18 20 06 00 8D 04 01 00 
  1429)     54568.9  Rx         072A  1  05 
  1430)     54664.3  Rx         01AA  8  18 20 06 00 8D 04 01 00 
  1431)     54668.9  Rx         072A  1  05 
  1432)     54764.3  Rx         01AA  8  18 20 06 00 8D 04 01 00 
  1433)     54769.0  Rx         072A  1  05 
  1434)     54864.3  Rx         01AA  8  18 20 07 00 8D 04 01 00 
  1435)     54869.0  Rx         072A  1  05 
  1436)     54964.4  Rx         01AA  8  18 20 07 00 8D 04 01 00 
  1437)     54969.0  Rx         072A  1  05 
  1438)     55064.4  Rx         01AA  8  18 20 07 00 8D 04 01 00 
  1439)     55069.0  Rx         072A  1  05 
  1440)     55164.4  Rx         01AA  8  18 20 08 00 8D 04 01 00 
  1441)     55169.0  Rx         072A  1  05 
  1442)     55264.4  Rx         01AA  8  18 20 08 00 8D 04 01 00 
  1443)     55269.1  Rx         072A  1  05 
  1444)     55364.4  Rx         01AA  8  18 20 08 00 8D 04 01 00 
  1445)     55369.0  Rx         072A  1  05 
  1446)     55464.4  Rx         01AA  8  18 20 07 00 8D 04 01 00 
  1447)     55469.0  Rx         072A  1  05 
  1448)     55474.3  Rx         04AA  8  04 34 09 01 06 14 00 00 
  1449)     55564.4  Rx         01AA  8  18 20 07 00 8D 04 01 00 
  1450)     55569.0  Rx         072A  1  05 
  1451)     55664.4  Rx         01AA  8  18 20 07 00 8D 04 01 00 
  1452)     55669.3  Rx         02AA  8  6A 00 00 00 A5 00 00 00 
  1453)     55674.0  Rx         072A  1  05 
  1454)     55764.5  Rx         01AA  8  18 20 07 00 8D 04 01 00 
  1455)     55769.1  Rx         072A  1  05 
  1456)     55864.5  Rx         01AA  8  18 20 07 00 8D 04 01 00 
  1457)     55869.1  Rx         072A  1  05 
  1458)     55964.5  Rx         01AA  8  18 20 07 00 8D 04 01 00 
  1459)     55969.1  Rx         072A  1  05 
  1460)     56064.5  Rx         01AA  8  18 20 07 00 8D 04 01 00 
  1461)     56069.1  Rx         072A  1  05 
  1462)     56164.6  Rx         01AA  8  18 20 06 00 8D 04 01 00 
  1463)     56169.2  Rx         072A  1  05 
  1464)     56264.6  Rx         01AA  8  18 20 06 00 8D 04 01 00 
  1465)     56269.2  Rx         072A  1  05 
  1466)     56364.5  Rx         01AA  8  17 20 07 00 8D 04 01 00 
  1467)     56369.1  Rx         072A  1  05 
  1468)     56464.5  Rx         01AA  8  18 20 07 00 8D 04 01 00 
  1469)     56469.1  Rx         072A  1  05 
  1470)     56474.4  Rx         04AA  8  05 34 09 01 06 14 00 00 
  1471)     56564.5  Rx         01AA  8  18 20 07 00 8D 04 01 00 
  1472)     56569.2  Rx         072A  1  05 
  1473)     56664.6  Rx         01AA  8  18 20 06 00 8D 04 01 00 
  1474)     56669.2  Rx         072A  1  05 
  1475)     56764.6  Rx         01AA  8  18 20 07 00 8D 04 01 00 
  1476)     56769.2  Rx         072A  1  05 
  1477)     56864.6  Rx         01AA  8  18 20 07 00 8D 04 01 00 
  1478)     56869.2  Rx         072A  1  05 
  1479)     56964.6  Rx         01AA  8  18 20 07 00 8D 04 01 00 
  1480)     56969.2  Rx         072A  1  05 
  1481)     57064.7  Rx         01AA  8  18 20 07 00 8D 04 01 00 
  1482)     57069.3  Rx         072A  1  05 
  1483)     57164.7  Rx         01AA  8  18 20 07 00 8D 04 01 00 
  1484)     57169.3  Rx         072A  1  05 
  1485)     57264.7  Rx         01AA  8  18 20 06 00 8D 04 01 00 
  1486)     57269.3  Rx         072A  1  05 
  1487)     57364.8  Rx         01AA  8  18 20 07 00 8D 04 01 00 
  1488)     57369.4  Rx         072A  1  05 
  1489)     57464.8  Rx         01AA  8  18 20 07 00 8D 04 01 00 
  1490)     57469.5  Rx         072A  1  05 
  1491)     57474.7  Rx         04AA  8  06 34 09 01 06 14 00 00 
  1492)     57564.9  Rx         01AA  8  18 20 07 00 8D 04 01 00 
  1493)     57569.5  Rx         072A  1  05 
  1494)     57664.9  Rx         01AA  8  18 20 07 00 8D 04 01 00 
  1495)     57669.5  Rx         072A  1  05 
  1496)     57764.9  Rx         01AA  8  17 20 07 00 8D 04 01 00 
  1497)     57769.5  Rx         072A  1  05 
  1498)     57864.9  Rx         01AA  8  18 20 07 00 8D 04 01 00 
  1499)     57869.6  Rx         072A  1  05 
  1500)     57965.0  Rx         01AA  8  18 20 07 00 8D 04 01 00 
  1501)     57969.6  Rx         072A  1  05 
  1502)     58065.0  Rx         01AA  8  18 20 08 00 8D 04 01 00 
  1503)     58069.6  Rx         072A  1  05 
  1504)     58165.0  Rx         01AA  8  18 20 08 00 8D 04 01 00 
  1505)     58169.6  Rx         072A  1  05 
  1506)     58265.0  Rx         01AA  8  17 20 07 00 8D 04 01 00 
  1507)     58269.6  Rx         072A  1  05 
  1508)     58365.0  Rx         01AA  8  17 20 06 00 8D 04 01 00 
  1509)     58369.6  Rx         072A  1  05 
  1510)     58465.0  Rx         01AA  8  17 20 06 00 8D 04 01 00 
  1511)     58469.6  Rx         072A  1  05 
  1512)     58474.8  Rx         04AA  8  07 34 09 01 06 14 00 00 
  1513)     58565.0  Rx         01AA  8  17 20 07 00 8D 04 01 00 
  1514)     58569.6  Rx         072A  1  05 
  1515)     58665.0  Rx         01AA  8  17 20 06 00 8D 04 01 00 
  1516)     58669.6  Rx         072A  1  05 
  1517)     58765.0  Rx         01AA  8  18 20 06 00 8E 04 01 00 
  1518)     58769.6  Rx         072A  1  05 
  1519)     58865.1  Rx         01AA  8  18 20 06 00 8E 04 01 00 
  1520)     58869.7  Rx         072A  1  05 
  1521)     58965.1  Rx         01AA  8  18 20 06 00 8E 04 01 00 
  1522)     58969.7  Rx         072A  1  05 
  1523)     59065.1  Rx         01AA  8  17 20 07 00 8E 04 01 00 
  1524)     59069.7  Rx         072A  1  05 
  1525)     59165.1  Rx         01AA  8  17 20 07 00 8E 04 01 00 
  1526)     59169.7  Rx         072A  1  05 
  1527)     59265.1  Rx         01AA  8  17 20 06 00 8E 04 01 00 
  1528)     59269.8  Rx         072A  1  05 
  1529)     59365.1  Rx         01AA  8  17 20 06 00 8E 04 01 00 
  1530)     59369.7  Rx         072A  1  05 
  1531)     59465.1  Rx         01AA  8  17 20 06 00 8E 04 01 00 
  1532)     59469.7  Rx         072A  1  05 
  1533)     59475.0  Rx         04AA  8  08 34 09 01 06 14 00 00 
  1534)     59565.1  Rx         01AA  8  17 20 06 00 8E 04 01 00 
  1535)     59569.7  Rx         072A  1  05 
  1536)     59665.1  Rx         01AA  8  17 20 07 00 8E 04 01 00 
  1537)     59669.7  Rx         072A  1  05 
  1538)     59765.2  Rx         01AA  8  17 20 07 00 8E 04 01 00 
  1539)     59769.8  Rx         072A  1  05 
  1540)     59865.2  Rx         01AA  8  17 20 07 00 8E 04 01 00 
  1541)     59869.8  Rx         072A  1  05 
  1542)     59965.2  Rx         01AA  8  17 20 07 00 8E 04 01 00 
  1543)     59969.8  Rx         072A  1  05 
  1544)     60065.2  Rx         01AA  8  17 20 07 00 8E 04 01 00 
  1545)     60069.9  Rx         072A  1  05 
  1546)     60165.2  Rx         01AA  8  17 20 08 00 8E 04 01 00 
  1547)     60169.9  Rx         072A  1  05 
  1548)     60265.3  Rx         01AA  8  18 20 07 00 8E 04 01 00 
  1549)     60269.9  Rx         072A  1  05 
  1550)     60365.2  Rx         01AA  8  18 20 07 00 8E 04 01 00 
  1551)     60369.8  Rx         072A  1  05 
  1552)     60465.2  Rx         01AA  8  18 20 07 00 8E 04 01 00 
  1553)     60469.8  Rx         072A  1  05 
  1554)     60475.1  Rx         04AA  8  09 34 09 01 06 14 00 00 
  1555)     60565.2  Rx         01AA  8  17 20 07 00 8E 04 01 00 
  1556)     60569.9  Rx         072A  1  05 
  1557)     60665.3  Rx         01AA  8  17 20 08 00 8E 04 01 00 
  1558)     60670.2  Rx         02AA  8  6A 00 00 00 A5 00 00 00 
  1559)     60674.9  Rx         072A  1  05 
  1560)     60765.3  Rx         01AA  8  18 20 07 00 8E 04 01 00 
  1561)     60769.9  Rx         072A  1  05 
  1562)     60865.3  Rx         01AA  8  18 20 07 00 8E 04 01 00 
  1563)     60869.9  Rx         072A  1  05 
  1564)     60965.3  Rx         01AA  8  18 20 06 00 8E 04 01 00 
  1565)     60970.0  Rx         072A  1  05 
  1566)     61065.4  Rx         01AA  8  18 20 07 00 8E 04 01 00 
  1567)     61070.0  Rx         072A  1  05 
  1568)     61165.4  Rx         01AA  8  18 20 07 00 8E 04 01 00 
  1569)     61170.0  Rx         072A  1  05 
  1570)     61265.4  Rx         01AA  8  18 20 07 00 8E 04 01 00 
  1571)     61270.0  Rx         072A  1  05 
  1572)     61365.5  Rx         01AA  8  18 20 07 00 8E 04 01 00 
  1573)     61370.1  Rx         072A  1  05 
  1574)     61465.5  Rx         01AA  8  18 20 06 00 8E 04 01 00 
  1575)     61470.2  Rx         072A  1  05 
  1576)     61475.4  Rx         04AA  8  0A 34 09 01 06 14 00 00 
  1577)     61565.6  Rx         01AA  8  18 20 07 00 8E 04 01 00 
  1578)     61570.2  Rx         072A  1  05 
  1579)     61665.6  Rx         01AA  8  18 20 06 00 8E 04 01 00 
  1580)     61670.2  Rx         072A  1  05 
  1581)     61765.6  Rx         01AA  8  18 20 06 00 8E 04 01 00 
  1582)     61770.2  Rx         072A  1  05 
  1583)     61865.6  Rx         01AA  8  17 20 06 00 8E 04 01 00 
  1584)     61870.3  Rx         072A  1  05 
  1585)     61965.7  Rx         01AA  8  17 20 06 00 8E 04 01 00 
  1586)     61970.3  Rx         072A  1  05 
  1587)     62065.7  Rx         01AA  8  17 20 05 00 8E 04 01 00 
  1588)     62070.3  Rx         072A  1  05 
  1589)     62165.7  Rx         01AA  8  17 20 06 00 8E 04 01 00 
  1590)     62170.3  Rx         072A  1  05 
  1591)     62265.7  Rx         01AA  8  18 20 06 00 8E 04 01 00 
  1592)     62270.4  Rx         072A  1  05 
  1593)     62365.7  Rx         01AA  8  17 20 06 00 8E 04 01 00 
  1594)     62370.3  Rx         072A  1  05 
  1595)     62465.7  Rx         01AA  8  18 20 06 00 8E 04 01 00 
  1596)     62470.3  Rx         072A  1  05 
  1597)     62475.5  Rx         04AA  8  0B 34 09 01 06 14 00 00 
  1598)     62565.7  Rx         01AA  8  18 20 06 00 8E 04 01 00 
  1599)     62570.3  Rx         072A  1  05 
  1600)     62665.7  Rx         01AA  8  18 20 07 00 8E 04 01 00 
  1601)     62670.3  Rx         072A  1  05 
  1602)     62765.7  Rx         01AA  8  18 20 07 00 8E 04 01 00 
  1603)     62770.4  Rx         072A  1  05 
  1604)     62865.8  Rx         01AA  8  17 20 08 00 8E 04 01 00 
  1605)     62870.4  Rx         072A  1  05 
  1606)     62965.8  Rx         01AA  8  18 20 07 00 8E 04 01 00 
  1607)     62970.4  Rx         072A  1  05 
  1608)     63065.8  Rx         01AA  8  18 20 07 00 8E 04 01 00 
  1609)     63070.4  Rx         072A  1  05 
  1610)     63165.8  Rx         01AA  8  18 20 07 00 8E 04 01 00 
  1611)     63170.5  Rx         072A  1  05 
  1612)     63265.9  Rx         01AA  8  18 20 08 00 8E 04 01 00 
  1613)     63270.5  Rx         072A  1  05 
  1614)     63365.8  Rx         01AA  8  18 20 08 00 8E 04 01 00 
  1615)     63370.4  Rx         072A  1  05 
  1616)     63465.8  Rx         01AA  8  18 20 07 00 8E 04 01 00 
  1617)     63470.4  Rx         072A  1  05 
  1618)     63475.7  Rx         04AA  8  0C 34 09 01 06 14 00 00 
  1619)     63565.8  Rx         01AA  8  18 20 07 00 8E 04 01 00 
  1620)     63570.5  Rx         072A  1  05 
  1621)     63665.9  Rx         01AA  8  18 20 06 00 8E 04 01 00 
  1622)     63670.5  Rx         072A  1  05 
  1623)     63765.9  Rx         01AA  8  17 20 06 00 8E 04 01 00 
  1624)     63770.5  Rx         072A  1  05 
  1625)     63865.9  Rx         01AA  8  17 20 06 00 8E 04 01 00 
  1626)     63870.5  Rx         072A  1  05 
  1627)     63965.9  Rx         01AA  8  18 20 07 00 8E 04 01 00 
  1628)     63970.5  Rx         072A  1  05 
  1629)     64065.9  Rx         01AA  8  18 20 06 00 8E 04 01 00 
  1630)     64070.5  Rx         072A  1  05 
  1631)     64166.0  Rx         01AA  8  18 20 06 00 8E 04 01 00 
  1632)     64170.6  Rx         072A  1  05 
  1633)     64266.0  Rx         01AA  8  18 20 05 00 8E 04 01 00 
  1634)     64270.6  Rx         072A  1  05 
  1635)     64365.9  Rx         01AA  8  18 20 06 00 8E 04 01 00 
  1636)     64370.5  Rx         072A  1  05 
  1637)     64465.9  Rx         01AA  8  18 20 07 00 8E 04 01 00 
  1638)     64470.5  Rx         072A  1  05 
  1639)     64475.8  Rx         04AA  8  0D 34 09 01 06 14 00 00 
  1640)     64566.0  Rx         01AA  8  18 20 06 00 8E 04 01 00 
  1641)     64570.6  Rx         072A  1  05 
  1642)     64666.0  Rx         01AA  8  18 20 06 00 8E 04 01 00 
  1643)     64670.6  Rx         072A  1  05 
  1644)     64766.0  Rx         01AA  8  18 20 06 00 8F 04 01 00 
  1645)     64770.6  Rx         072A  1  05 
  1646)     64866.0  Rx         01AA  8  18 20 07 00 8F 04 01 00 
  1647)     64870.6  Rx         072A  1  05 
  1648)     64966.0  Rx         01AA  8  17 20 07 00 8F 04 01 00 
  1649)     64970.7  Rx         072A  1  05 
  1650)     65066.1  Rx         01AA  8  18 20 06 00 8F 04 01 00 
  1651)     65070.7  Rx         072A  1  05 
  1652)     65166.1  Rx         01AA  8  18 20 07 00 8F 04 01 00 
  1653)     65170.7  Rx         072A  1  05 
  1654)     65266.1  Rx         01AA  8  18 20 07 00 8F 04 01 00 
  1655)     65270.7  Rx         072A  1  05 
  1656)     65366.0  Rx         01AA  8  18 20 07 00 8F 04 01 00 
  1657)     65370.7  Rx         072A  1  05 
  1658)     65466.1  Rx         01AA  8  18 20 08 00 8F 04 01 00 
  1659)     65470.7  Rx         072A  1  05 
  1660)     65475.9  Rx         04AA  8  0E 34 09 01 06 14 00 00 
  1661)     65566.1  Rx         01AA  8  18 20 07 00 8F 04 01 00 
  1662)     65570.7  Rx         072A  1  05 
  1663)     65666.1  Rx         01AA  8  17 20 08 00 8F 04 01 00 
  1664)     65671.0  Rx         02AA  8  6A 00 00 00 A5 00 00 00 
  1665)     65675.7  Rx         072A  1  05 
  1666)     65766.1  Rx         01AA  8  17 20 08 00 8F 04 01 00 
  1667)     65770.7  Rx         072A  1  05 
  1668)     65866.2  Rx         01AA  8  17 20 07 00 8F 04 01 00 
  1669)     65870.8  Rx         072A  1  05 
  1670)     65966.2  Rx         01AA  8  17 20 07 00 8F 04 01 00 
  1671)     65970.8  Rx         072A  1  05 
  1672)     66066.2  Rx         01AA  8  17 20 06 00 8F 04 01 00 
  1673)     66070.8  Rx         072A  1  05 
  1674)     66166.2  Rx         01AA  8  17 20 06 00 8F 04 01 00 
  1675)     66170.9  Rx         072A  1  05 
  1676)     66266.2  Rx         01AA  8  18 20 07 00 8F 04 01 00 
  1677)     66270.9  Rx         072A  1  05 
  1678)     66366.2  Rx         01AA  8  17 20 07 00 8F 04 01 00 
  1679)     66370.8  Rx         072A  1  05 
  1680)     66466.2  Rx         01AA  8  18 20 07 00 8F 04 01 00 
  1681)     66470.8  Rx         072A  1  05 
  1682)     66476.1  Rx         04AA  8  0F 34 09 01 06 14 00 00 
  1683)     66566.2  Rx         01AA  8  17 20 07 00 8F 04 01 00 
  1684)     66570.8  Rx         072A  1  05 
  1685)     66666.2  Rx         01AA  8  18 20 06 00 8F 04 01 00 
  1686)     66670.8  Rx         072A  1  05 
  1687)     66766.3  Rx         01AA  8  18 20 06 00 8F 04 01 00 
  1688)     66770.9  Rx         072A  1  05 
  1689)     66866.3  Rx         01AA  8  18 20 06 00 8F 04 01 00 
  1690)     66870.9  Rx         072A  1  05 
  1691)     66966.3  Rx         01AA  8  18 20 06 00 8F 04 01 00 
  1692)     66970.9  Rx         072A  1  05 
  1693)     67066.3  Rx         01AA  8  18 20 06 00 8F 04 01 00 
  1694)     67070.9  Rx         072A  1  05 
  1695)     67166.4  Rx         01AA  8  18 20 06 00 8F 04 01 00 
  1696)     67171.0  Rx         072A  1  05 
  1697)     67266.4  Rx         01AA  8  18 20 06 00 8F 04 01 00 
  1698)     67271.0  Rx         072A  1  05 
  1699)     67366.3  Rx         01AA  8  18 20 06 00 8F 04 01 00 
  1700)     67370.9  Rx         072A  1  05 
  1701)     67466.3  Rx         01AA  8  17 20 06 00 8F 04 01 00 
  1702)     67470.9  Rx         072A  1  05 
  1703)     67476.2  Rx         04AA  8  10 34 09 01 06 14 00 00 
  1704)     67566.3  Rx         01AA  8  18 20 07 00 8F 04 01 00 
  1705)     67571.0  Rx         072A  1  05 
  1706)     67666.4  Rx         01AA  8  18 20 07 00 8F 04 01 00 
  1707)     67671.0  Rx         072A  1  05 
  1708)     67766.4  Rx         01AA  8  18 20 07 00 8F 04 01 00 
  1709)     67771.0  Rx         072A  1  05 
  1710)     67866.4  Rx         01AA  8  18 20 07 00 8F 04 01 00 
  1711)     67871.0  Rx         072A  1  05 
  1712)     67966.4  Rx         01AA  8  18 20 07 00 8F 04 01 00 
  1713)     67971.0  Rx         072A  1  05 
  1714)     68066.4  Rx         01AA  8  18 20 07 00 8F 04 01 00 
  1715)     68071.1  Rx         072A  1  05 
  1716)     68166.5  Rx         01AA  8  18 20 07 00 8F 04 01 00 
  1717)     68171.1  Rx         072A  1  05 
  1718)     68266.5  Rx         01AA  8  18 20 07 00 8F 04 01 00 
  1719)     68271.1  Rx         072A  1  05 
  1720)     68366.4  Rx         01AA  8  18 20 06 00 8F 04 01 00 
  1721)     68371.0  Rx         072A  1  05 
  1722)     68466.4  Rx         01AA  8  17 20 07 00 8F 04 01 00 
  1723)     68471.1  Rx         072A  1  05 
  1724)     68476.3  Rx         04AA  8  11 34 09 01 06 14 00 00 
  1725)     68566.5  Rx         01AA  8  18 20 07 00 8F 04 01 00 
  1726)     68571.1  Rx         072A  1  05 
  1727)     68666.5  Rx         01AA  8  17 20 06 00 8F 04 01 00 
  1728)     68671.1  Rx         072A  1  05 
