;$FILEVERSION=1.1
;$STARTTIME=44090.6475320486
;
;   C:\Users\eric.baril\Documents\NBL-e_greencubecurrent.trc
;
;   Start time: 2020-09-16 15:32:26.769.0
;   Generated by PCAN-View v4.2.5.569
;
;   Message Number
;   |         Time Offset (ms)
;   |         |        Type
;   |         |        |        ID (hex)
;   |         |        |        |     Data Length
;   |         |        |        |     |   Data Bytes (hex) ...
;   |         |        |        |     |   |
;---+--   ----+----  --+--  ----+---  +  -+ -- -- -- -- -- -- --
     1)         0.1  Rx         028C  4  00 00 00 00 
     2)         6.8  Rx         01A6  8  20 24 09 00 02 00 00 00 
     3)         7.3  Rx         02A6  8  C2 20 1C 00 00 00 00 00 
     4)         7.8  Rx         03A6  8  00 00 00 00 00 00 00 00 
     5)         8.3  Rx         04A6  8  12 00 CD E8 12 00 41 22 
     6)         8.8  Rx         0227  8  06 00 00 00 00 00 00 00 
     7)         9.7  Rx         01A8  8  00 1E 11 01 02 00 00 00 
     8)        10.2  Rx         02A8  8  E6 20 89 01 28 00 82 03 
     9)        10.7  Rx         03A8  8  00 00 00 00 00 00 00 00 
    10)        11.2  Rx         04A8  8  00 00 51 21 12 00 41 00 
    11)        11.7  Rx         01A7  8  01 00 00 00 00 00 00 00 
    12)        27.4  Rx         01A6  8  20 24 09 00 02 00 00 00 
    13)        27.9  Rx         02A6  8  CE 20 1C 00 00 00 00 00 
    14)        28.4  Rx         03A6  8  00 00 00 00 00 00 00 00 
    15)        28.9  Rx         04A6  8  12 00 CD E8 12 00 41 22 
    16)        29.4  Rx         0227  8  06 00 00 00 00 00 00 00 
    17)        29.8  Rx         02A8  8  E6 20 88 01 26 00 82 03 
    18)        30.3  Rx         03A8  8  00 00 00 00 00 00 00 00 
    19)        30.8  Rx         04A8  8  00 00 51 21 12 00 41 00 
    20)        31.3  Rx         01A7  8  01 00 00 00 00 00 00 00 
    21)        31.8  Rx         01A8  8  00 1E 11 01 02 00 00 00 
    22)        40.2  Rx         071C  1  05 
    23)        47.0  Rx         01A6  8  20 24 09 00 02 00 00 00 
    24)        47.5  Rx         02A6  8  C2 20 1D 00 00 00 00 00 
    25)        48.0  Rx         03A6  8  00 00 00 00 00 00 00 00 
    26)        48.4  Rx         04A6  8  12 00 CD E8 12 00 41 22 
    27)        48.9  Rx         0227  8  06 00 00 00 00 00 00 00 
    28)        49.9  Rx         01A8  8  00 1E 11 01 02 00 00 00 
    29)        50.4  Rx         02A8  8  CF 20 88 01 26 00 83 03 
    30)        50.9  Rx         03A8  8  00 00 00 00 00 00 00 00 
    31)        51.4  Rx         04A8  8  00 00 51 21 12 00 41 00 
    32)        51.9  Rx         01A7  8  01 00 00 00 00 00 00 00 
    33)        67.1  Rx         01A6  8  20 24 09 00 02 00 00 00 
    34)        67.5  Rx         02A6  8  CE 20 1E 00 00 00 00 00 
    35)        68.0  Rx         03A6  8  00 00 00 00 00 00 00 00 
    36)        68.5  Rx         04A6  8  12 00 CD E8 12 00 41 22 
    37)        69.0  Rx         0227  8  06 00 00 00 00 00 00 00 
    38)        69.9  Rx         01A8  8  00 1E 11 01 02 00 00 00 
    39)        70.3  Rx         02A8  8  CF 20 88 01 29 00 85 03 
    40)        70.8  Rx         03A8  8  00 00 00 00 00 00 00 00 
    41)        71.3  Rx         04A8  8  00 00 51 21 12 00 41 00 
    42)        71.8  Rx         01A7  8  01 00 00 00 00 00 00 00 
    43)        87.1  Rx         01A6  8  20 24 09 00 02 00 00 00 
    44)        87.6  Rx         02A6  8  C2 20 1E 00 00 00 00 00 
    45)        88.1  Rx         03A6  8  00 00 00 00 00 00 00 00 
    46)        88.6  Rx         04A6  8  12 00 CD E8 12 00 41 22 
    47)        89.0  Rx         0227  8  06 00 00 00 00 00 00 00 
    48)        90.1  Rx         01A8  8  00 1E 11 01 02 00 00 00 
    49)        90.6  Rx         02A8  8  CF 20 88 01 25 00 85 03 
    50)        91.1  Rx         03A8  8  00 00 00 00 00 00 00 00 
    51)        91.6  Rx         04A8  8  00 00 51 21 12 00 41 00 
    52)        92.1  Rx         01A7  8  01 00 00 00 00 00 00 00 
    53)        95.2  Rx         038C  8  22 00 A2 52 01 00 56 FF 
    54)        95.7  Rx         01AC  8  56 FF A2 52 01 00 00 00 
    55)        96.2  Rx         02AC  8  05 22 12 00 99 7B 01 00 
    56)        96.6  Rx         048C  8  40 1F CC 1C 01 00 91 00 
    57)       100.1  Rx         028C  4  00 00 00 00 
    58)       100.5  Rx         03AC  4  25 20 06 12 
    59)       107.2  Rx         01A6  8  20 24 09 00 02 00 00 00 
    60)       107.6  Rx         02A6  8  C2 20 1E 00 00 00 00 00 
    61)       108.2  Rx         03A6  8  00 00 00 00 00 00 00 00 
    62)       108.6  Rx         04A6  8  12 00 CD E8 12 00 41 22 
    63)       109.1  Rx         0227  8  06 00 00 00 00 00 00 00 
    64)       110.0  Rx         01A8  8  00 1E 11 01 02 00 00 00 
    65)       110.5  Rx         02A8  8  CF 20 88 01 25 00 84 03 
    66)       111.0  Rx         03A8  8  00 00 00 00 00 00 00 00 
    67)       111.5  Rx         04A8  8  00 00 51 21 12 00 41 00 
    68)       112.0  Rx         01A7  8  01 00 00 00 00 00 00 00 
    69)       121.2  Rx     18FB3030  8  12 00 00 00 10 33 02 21 
    70)       121.7  Rx     18FB3130  8  B1 81 12 00 22 00 00 00 
    71)       127.2  Rx         01A6  8  20 24 09 00 02 00 00 00 
    72)       127.7  Rx         02A6  8  CE 20 1E 00 00 00 00 00 
    73)       128.2  Rx         03A6  8  00 00 00 00 00 00 00 00 
    74)       128.7  Rx         04A6  8  12 00 CD E8 12 00 41 22 
    75)       129.2  Rx         0227  8  06 00 00 00 00 00 00 00 
    76)       130.1  Rx         01A8  8  00 1E 11 01 02 00 00 00 
    77)       130.6  Rx         02A8  8  DB 20 86 01 25 00 83 03 
    78)       131.1  Rx         03A8  8  00 00 00 00 00 00 00 00 
    79)       131.6  Rx         04A8  8  00 00 51 21 12 00 41 00 
    80)       132.1  Rx         01A7  8  01 00 00 00 00 00 00 00 
    81)       147.3  Rx         01A6  8  20 24 09 00 02 00 00 00 
    82)       147.8  Rx         02A6  8  CE 20 1E 00 00 00 00 00 
    83)       148.3  Rx         03A6  8  00 00 00 00 00 00 00 00 
    84)       148.8  Rx         04A6  8  12 00 CD E8 12 00 41 22 
    85)       149.3  Rx         0227  8  06 00 00 00 00 00 00 00 
    86)       150.2  Rx         01A8  8  00 1E 11 01 02 00 00 00 
    87)       150.7  Rx         02A8  8  CF 20 87 01 22 00 86 03 
    88)       151.2  Rx         03A8  8  00 00 00 00 00 00 00 00 
    89)       151.6  Rx         04A8  8  00 00 51 21 12 00 41 00 
    90)       152.1  Rx         01A7  8  01 00 00 00 00 00 00 00 
    91)       167.3  Rx         01A6  8  20 24 09 00 02 00 00 00 
    92)       167.8  Rx         02A6  8  CE 20 1E 00 00 00 00 00 
    93)       168.3  Rx         03A6  8  00 00 00 00 00 00 00 00 
    94)       168.8  Rx         04A6  8  12 00 CD E8 12 00 41 22 
    95)       169.3  Rx         0227  8  06 00 00 00 00 00 00 00 
    96)       170.3  Rx         01A8  8  00 1E 11 01 02 00 00 00 
    97)       170.8  Rx         02A8  8  CF 20 87 01 25 00 87 03 
    98)       171.3  Rx         03A8  8  00 00 00 00 00 00 00 00 
    99)       171.8  Rx         04A8  8  00 00 51 21 12 00 41 00 
   100)       172.2  Rx         01A7  8  01 00 00 00 00 00 00 00 
   101)       187.4  Rx         01A6  8  20 24 09 00 02 00 00 00 
   102)       187.9  Rx         02A6  8  CE 20 1E 00 00 00 00 00 
   103)       188.4  Rx         03A6  8  00 00 00 00 00 00 00 00 
   104)       188.9  Rx         04A6  8  12 00 CD E8 12 00 41 22 
   105)       189.4  Rx         0227  8  06 00 00 00 00 00 00 00 
   106)       190.3  Rx         01A8  8  00 1E 11 01 02 00 00 00 
   107)       190.8  Rx         02A8  8  CF 20 88 01 28 00 84 03 
   108)       191.3  Rx         03A8  8  00 00 00 00 00 00 00 00 
   109)       191.8  Rx         04A8  8  00 00 51 21 12 00 41 00 
   110)       192.3  Rx         01A7  8  01 00 00 00 00 00 00 00 
   111)       195.2  Rx         038C  8  22 00 A2 52 01 00 56 FF 
   112)       195.7  Rx         01AC  8  56 FF A2 52 01 00 00 00 
   113)       196.2  Rx         02AC  8  05 22 12 00 99 7B 01 00 
   114)       196.6  Rx         048C  8  40 1F CC 1C 01 00 91 00 
   115)       200.1  Rx         028C  4  00 00 00 00 
   116)       207.5  Rx         01A6  8  20 24 09 00 02 00 00 00 
   117)       208.0  Rx         02A6  8  CE 20 1F 00 00 00 00 00 
   118)       208.5  Rx         03A6  8  00 00 00 00 00 00 00 00 
   119)       208.9  Rx         04A6  8  12 00 CD E8 12 00 41 22 
   120)       209.4  Rx         0227  8  06 00 00 00 00 00 00 00 
   121)       210.5  Rx         01A8  8  00 1E 11 01 02 00 00 00 
   122)       210.9  Rx         02A8  8  DB 20 88 01 26 00 84 03 
   123)       211.4  Rx         03A8  8  00 00 00 00 00 00 00 00 
   124)       211.9  Rx         04A8  8  00 00 51 21 12 00 41 00 
   125)       212.4  Rx         01A7  8  01 00 00 00 00 00 00 00 
   126)       227.6  Rx         01A6  8  20 24 09 00 02 00 00 00 
   127)       228.0  Rx         02A6  8  C2 20 1F 00 00 00 00 00 
   128)       228.6  Rx         03A6  8  00 00 00 00 00 00 00 00 
   129)       229.0  Rx         04A6  8  12 00 CD E8 12 00 41 22 
   130)       229.5  Rx         0227  8  06 00 00 00 00 00 00 00 
   131)       230.5  Rx         01A8  8  00 1E 11 01 02 00 00 00 
   132)       231.0  Rx         02A8  8  CF 20 86 01 23 00 86 03 
   133)       231.5  Rx         03A8  8  00 00 00 00 00 00 00 00 
   134)       232.0  Rx         04A8  8  00 00 51 21 12 00 41 00 
   135)       232.5  Rx         01A7  8  01 00 00 00 00 00 00 00 
   136)       247.6  Rx         01A6  8  20 24 09 00 02 00 00 00 
   137)       248.1  Rx         02A6  8  CE 20 1F 00 00 00 00 00 
   138)       248.6  Rx         03A6  8  00 00 00 00 00 00 00 00 
   139)       249.1  Rx         04A6  8  12 00 CD E8 12 00 41 22 
   140)       249.6  Rx         0227  8  06 00 00 00 00 00 00 00 
   141)       250.6  Rx         01A8  8  00 1E 11 01 02 00 00 00 
   142)       251.1  Rx         02A8  8  DB 20 8A 01 21 00 83 03 
   143)       251.6  Rx         03A8  8  00 00 00 00 00 00 00 00 
   144)       252.1  Rx         04A8  8  00 00 51 21 12 00 41 00 
   145)       252.6  Rx         01A7  8  01 00 00 00 00 00 00 00 
   146)       267.7  Rx         01A6  8  20 24 09 00 02 00 00 00 
   147)       268.2  Rx         02A6  8  CE 20 1F 00 00 00 00 00 
   148)       268.7  Rx         03A6  8  00 00 00 00 00 00 00 00 
   149)       269.1  Rx         04A6  8  12 00 CD E8 12 00 41 22 
   150)       269.6  Rx         0227  8  06 00 00 00 00 00 00 00 
   151)       270.7  Rx         01A8  8  00 1E 11 01 02 00 00 00 
   152)       271.1  Rx         02A8  8  DB 20 8A 01 27 00 84 03 
   153)       271.7  Rx         03A8  8  00 00 00 00 00 00 00 00 
   154)       272.1  Rx         04A8  8  00 00 51 21 12 00 41 00 
   155)       272.6  Rx         01A7  8  01 00 00 00 00 00 00 00 
   156)       287.7  Rx         01A6  8  20 24 09 00 02 00 00 00 
   157)       288.2  Rx         02A6  8  CE 20 1F 00 00 00 00 00 
   158)       288.7  Rx         03A6  8  00 00 00 00 00 00 00 00 
   159)       289.2  Rx         04A6  8  12 00 CD E8 12 00 41 22 
   160)       289.7  Rx         0227  8  06 00 00 00 00 00 00 00 
   161)       290.8  Rx         01A8  8  00 1E 11 01 02 00 00 00 
   162)       291.3  Rx         02A8  8  DB 20 88 01 29 00 84 03 
   163)       291.8  Rx         03A8  8  00 00 00 00 00 00 00 00 
   164)       292.2  Rx         04A8  8  00 00 51 21 12 00 41 00 
   165)       292.7  Rx         01A7  8  01 00 00 00 00 00 00 00 
   166)       295.2  Rx         038C  8  22 00 A2 52 01 00 56 FF 
   167)       295.7  Rx         01AC  8  56 FF A2 52 01 00 00 00 
   168)       296.2  Rx         02AC  8  05 22 12 00 99 7B 01 00 
   169)       296.6  Rx         048C  8  40 1F CC 1C 01 00 91 00 
   170)       300.1  Rx         028C  4  00 00 00 00 
   171)       307.8  Rx         01A6  8  20 24 09 00 02 00 00 00 
   172)       308.3  Rx         02A6  8  CE 20 1F 00 00 00 00 00 
   173)       308.8  Rx         03A6  8  00 00 00 00 00 00 00 00 
   174)       309.3  Rx         04A6  8  12 00 CD E8 12 00 41 22 
   175)       309.8  Rx         0227  8  06 00 00 00 00 00 00 00 
   176)       310.8  Rx         01A8  8  00 1E 11 01 02 00 00 00 
   177)       311.3  Rx         02A8  8  E6 20 87 01 24 00 83 03 
   178)       311.8  Rx         03A8  8  00 00 00 00 00 00 00 00 
   179)       312.3  Rx         04A8  8  00 00 51 21 12 00 41 00 
   180)       312.8  Rx         01A7  8  01 00 00 00 00 00 00 00 
   181)       322.7  Rx     18FB3030  8  12 00 00 00 10 33 02 21 
   182)       323.2  Rx     18FB3130  8  B1 81 12 00 22 00 00 00 
   183)       327.9  Rx         01A6  8  20 24 09 00 02 00 00 00 
   184)       328.4  Rx         02A6  8  CE 20 1F 00 00 00 00 00 
   185)       328.9  Rx         03A6  8  00 00 00 00 00 00 00 00 
   186)       329.3  Rx         04A6  8  12 00 CD E8 12 00 41 22 
   187)       329.8  Rx         0227  8  06 00 00 00 00 00 00 00 
   188)       330.9  Rx         01A8  8  00 1E 11 01 02 00 00 00 
   189)       331.4  Rx         02A8  8  DB 20 87 01 25 00 83 03 
   190)       331.9  Rx         03A8  8  00 00 00 00 00 00 00 00 
   191)       332.4  Rx         04A8  8  00 00 51 21 12 00 41 00 
   192)       332.9  Rx         01A7  8  01 00 00 00 00 00 00 00 
   193)       347.9  Rx         01A6  8  20 24 09 00 02 00 00 00 
   194)       348.4  Rx         02A6  8  CE 20 1F 00 00 00 00 00 
   195)       348.9  Rx         03A6  8  00 00 00 00 00 00 00 00 
   196)       349.4  Rx         04A6  8  12 00 CD E8 12 00 41 22 
   197)       349.9  Rx         0227  8  06 00 00 00 00 00 00 00 
   198)       351.0  Rx         01A8  8  00 1E 11 01 02 00 00 00 
   199)       351.5  Rx         02A8  8  DB 20 8A 01 29 00 84 03 
   200)       352.0  Rx         03A8  8  00 00 00 00 00 00 00 00 
   201)       352.5  Rx         04A8  8  00 00 51 21 12 00 41 00 
   202)       353.0  Rx         01A7  8  01 00 00 00 00 00 00 00 
   203)       368.0  Rx         01A6  8  20 24 09 00 02 00 00 00 
   204)       368.5  Rx         02A6  8  CE 20 1F 00 00 00 00 00 
   205)       369.0  Rx         03A6  8  00 00 00 00 00 00 00 00 
   206)       369.5  Rx         04A6  8  12 00 CD E8 12 00 41 22 
   207)       369.9  Rx         0227  8  06 00 00 00 00 00 00 00 
   208)       371.1  Rx         01A8  8  00 1E 11 01 02 00 00 00 
   209)       371.6  Rx         02A8  8  DB 20 8A 01 28 00 85 03 
   210)       372.1  Rx         03A8  8  00 00 00 00 00 00 00 00 
   211)       372.6  Rx         04A8  8  00 00 51 21 12 00 41 00 
   212)       373.1  Rx         01A7  8  01 00 00 00 00 00 00 00 
   213)       388.1  Rx         01A6  8  20 24 09 00 02 00 00 00 
   214)       388.5  Rx         02A6  8  CE 20 1C 00 00 00 00 00 
   215)       389.0  Rx         03A6  8  00 00 00 00 00 00 00 00 
   216)       389.5  Rx         04A6  8  12 00 CD E8 12 00 41 22 
   217)       390.0  Rx         0227  8  06 00 00 00 00 00 00 00 
   218)       391.2  Rx         01A8  8  00 1E 11 01 02 00 00 00 
   219)       391.7  Rx         02A8  8  E6 20 88 01 24 00 83 03 
   220)       392.2  Rx         03A8  8  00 00 00 00 00 00 00 00 
   221)       392.6  Rx         04A8  8  00 00 51 21 12 00 41 00 
   222)       393.1  Rx         01A7  8  01 00 00 00 00 00 00 00 
   223)       395.2  Rx         038C  8  22 00 A2 52 01 00 56 FF 
   224)       395.7  Rx         01AC  8  56 FF A2 52 01 00 00 00 
   225)       396.2  Rx         02AC  8  05 22 12 00 99 7B 01 00 
   226)       396.6  Rx         048C  8  40 1F CC 1C 01 00 91 00 
   227)       400.1  Rx         028C  4  00 00 00 00 
   228)       408.1  Rx         01A6  8  20 24 09 00 02 00 00 00 
   229)       408.6  Rx         02A6  8  CE 20 1C 00 00 00 00 00 
   230)       409.1  Rx         03A6  8  00 00 00 00 00 00 00 00 
   231)       409.6  Rx         04A6  8  12 00 CD E8 12 00 41 22 
   232)       410.1  Rx         0227  8  06 00 00 00 00 00 00 00 
   233)       411.3  Rx         01A8  8  00 1E 11 01 02 00 00 00 
   234)       411.7  Rx         02A8  8  E6 20 8A 01 26 00 83 03 
   235)       412.2  Rx         03A8  8  00 00 00 00 00 00 00 00 
   236)       412.7  Rx         04A8  8  00 00 51 21 12 00 41 00 
   237)       413.2  Rx         01A7  8  01 00 00 00 00 00 00 00 
   238)       428.2  Rx         01A6  8  20 24 09 00 02 00 00 00 
   239)       428.7  Rx         02A6  8  CE 20 1D 00 00 00 00 00 
   240)       429.2  Rx         03A6  8  00 00 00 00 00 00 00 00 
   241)       429.6  Rx         04A6  8  12 00 CD E8 12 00 41 22 
   242)       430.1  Rx         0227  8  06 00 00 00 00 00 00 00 
   243)       431.4  Rx         01A8  8  00 1E 11 01 02 00 00 00 
   244)       431.9  Rx         02A8  8  E6 20 8A 01 29 00 85 03 
   245)       432.4  Rx         03A8  8  00 00 00 00 00 00 00 00 
   246)       432.9  Rx         04A8  8  00 00 51 21 12 00 41 00 
   247)       433.4  Rx         01A7  8  01 00 00 00 00 00 00 00 
   248)       448.6  Rx         01A6  8  20 24 09 00 02 00 00 00 
   249)       449.1  Rx         02A6  8  CE 20 1D 00 00 00 00 00 
   250)       449.6  Rx         03A6  8  00 00 00 00 00 00 00 00 
   251)       450.1  Rx         04A6  8  12 00 CD E8 12 00 41 22 
   252)       450.6  Rx         0227  8  06 00 00 00 00 00 00 00 
   253)       451.4  Rx         01A8  8  00 1E 11 01 02 00 00 00 
   254)       451.9  Rx         02A8  8  E6 20 8B 01 28 00 83 03 
   255)       452.4  Rx         03A8  8  00 00 00 00 00 00 00 00 
   256)       452.9  Rx         04A8  8  00 00 51 21 12 00 41 00 
   257)       453.4  Rx         01A7  8  01 00 00 00 00 00 00 00 
   258)       468.3  Rx         01A6  8  20 24 09 00 02 00 00 00 
   259)       468.8  Rx         02A6  8  CE 20 1D 00 00 00 00 00 
   260)       469.3  Rx         03A6  8  00 00 00 00 00 00 00 00 
   261)       469.8  Rx         04A6  8  12 00 CD E8 12 00 41 22 
   262)       470.3  Rx         0227  8  06 00 00 00 00 00 00 00 
   263)       471.6  Rx         01A8  8  00 1E 11 01 02 00 00 00 
   264)       472.1  Rx         02A8  8  DB 20 89 01 25 00 83 03 
   265)       472.6  Rx         03A8  8  00 00 00 00 00 00 00 00 
   266)       473.1  Rx         04A8  8  00 00 51 21 12 00 41 00 
   267)       473.6  Rx         01A7  8  01 00 00 00 00 00 00 00 
   268)       488.8  Rx         01A6  8  20 24 09 00 02 00 00 00 
   269)       489.3  Rx         02A6  8  CE 20 1E 00 00 00 00 00 
   270)       489.8  Rx         03A6  8  00 00 00 00 00 00 00 00 
   271)       490.3  Rx         04A6  8  12 00 CD E8 12 00 41 22 
   272)       490.8  Rx         0227  8  06 00 00 00 00 00 00 00 
   273)       491.6  Rx         01A8  8  00 1E 11 01 02 00 00 00 
   274)       492.1  Rx         02A8  8  E6 20 89 01 25 00 84 03 
   275)       492.6  Rx         03A8  8  00 00 00 00 00 00 00 00 
   276)       493.0  Rx         04A8  8  00 00 51 21 12 00 41 00 
   277)       493.5  Rx         01A7  8  01 00 00 00 00 00 00 00 
   278)       495.2  Rx         038C  8  22 00 A2 52 01 00 56 FF 
   279)       495.7  Rx         01AC  8  56 FF A2 52 01 00 00 00 
   280)       496.2  Rx         02AC  8  05 22 12 00 99 7B 01 00 
   281)       496.6  Rx         048C  8  40 1F CC 1C 01 00 91 00 
   282)       500.1  Rx         028C  4  00 00 00 00 
   283)       508.4  Rx         01A6  8  20 24 09 00 02 00 00 00 
   284)       508.9  Rx         02A6  8  CE 20 1E 00 00 00 00 00 
   285)       509.4  Rx         03A6  8  00 00 00 00 00 00 00 00 
   286)       509.9  Rx         04A6  8  12 00 CD E8 12 00 41 22 
   287)       510.4  Rx         0227  8  06 00 00 00 00 00 00 00 
   288)       511.7  Rx         01A8  8  00 1E 11 01 02 00 00 00 
   289)       512.1  Rx         02A8  8  DB 20 84 01 27 00 84 03 
   290)       512.6  Rx         03A8  8  00 00 00 00 00 00 00 00 
   291)       513.1  Rx         04A8  8  00 00 51 21 12 00 41 00 
   292)       513.6  Rx         01A7  8  01 00 00 00 00 00 00 00 
   293)       523.2  Rx     18FB3030  8  12 00 00 00 10 33 02 21 
   294)       523.8  Rx     18FB3130  8  B1 81 12 00 22 00 00 00 
   295)       528.9  Rx         01A6  8  20 24 09 00 02 00 00 00 
   296)       529.4  Rx         02A6  8  CE 20 1E 00 00 00 00 00 
   297)       529.9  Rx         03A6  8  00 00 00 00 00 00 00 00 
   298)       530.4  Rx         04A6  8  12 00 CD E8 12 00 41 22 
   299)       530.8  Rx         0227  8  06 00 00 00 00 00 00 00 
   300)       531.8  Rx         01A8  8  00 1E 11 01 02 00 00 00 
   301)       532.3  Rx         02A8  8  E6 20 84 01 28 00 84 03 
   302)       532.8  Rx         03A8  8  00 00 00 00 00 00 00 00 
   303)       533.3  Rx         04A8  8  00 00 51 21 12 00 41 00 
   304)       533.8  Rx         01A7  8  01 00 00 00 00 00 00 00 
   305)       548.9  Rx         01A6  8  20 24 09 00 02 00 00 00 
   306)       549.4  Rx         02A6  8  CE 20 1E 00 00 00 00 00 
   307)       549.9  Rx         03A6  8  00 00 00 00 00 00 00 00 
   308)       550.4  Rx         04A6  8  12 00 CD E8 12 00 41 22 
   309)       550.9  Rx         0227  8  06 00 00 00 00 00 00 00 
   310)       551.9  Rx         01A8  8  00 1E 11 01 02 00 00 00 
   311)       552.4  Rx         02A8  8  DB 20 81 01 27 00 85 03 
   312)       552.9  Rx         03A8  8  00 00 00 00 00 00 00 00 
   313)       553.4  Rx         04A8  8  00 00 51 21 12 00 41 00 
   314)       553.9  Rx         01A7  8  01 00 00 00 00 00 00 00 
   315)       569.1  Rx         01A6  8  20 24 09 00 02 00 00 00 
   316)       569.6  Rx         02A6  8  CE 20 1E 00 00 00 00 00 
   317)       570.1  Rx         03A6  8  00 00 00 00 00 00 00 00 
   318)       570.6  Rx         04A6  8  12 00 CD E8 12 00 41 22 
   319)       571.0  Rx         0227  8  06 00 00 00 00 00 00 00 
   320)       571.9  Rx         01A8  8  00 1E 11 01 02 00 00 00 
   321)       572.4  Rx         02A8  8  DB 20 81 01 24 00 86 03 
   322)       572.9  Rx         03A8  8  00 00 00 00 00 00 00 00 
   323)       573.4  Rx         04A8  8  00 00 51 21 12 00 41 00 
   324)       573.9  Rx         01A7  8  01 00 00 00 00 00 00 00 
   325)       588.7  Rx         01A6  8  20 24 09 00 02 00 00 00 
   326)       589.2  Rx         02A6  8  C2 20 1E 00 00 00 00 00 
   327)       589.7  Rx         03A6  8  00 00 00 00 00 00 00 00 
   328)       590.1  Rx         04A6  8  12 00 CD E8 12 00 41 22 
   329)       590.6  Rx         0227  8  06 00 00 00 00 00 00 00 
   330)       592.1  Rx         01A8  8  00 1E 11 01 02 00 00 00 
   331)       592.6  Rx         02A8  8  DB 20 81 01 26 00 83 03 
   332)       593.1  Rx         03A8  8  00 00 00 00 00 00 00 00 
   333)       593.6  Rx         04A8  8  00 00 51 21 12 00 41 00 
   334)       594.1  Rx         01A7  8  01 00 00 00 00 00 00 00 
   335)       595.2  Rx         038C  8  22 00 A2 52 01 00 56 FF 
   336)       595.7  Rx         01AC  8  56 FF A2 52 01 00 00 00 
   337)       596.2  Rx         02AC  8  05 22 12 00 99 7B 01 00 
   338)       596.6  Rx         048C  8  40 1F CC 1C 01 00 91 00 
   339)       600.1  Rx         028C  4  00 00 00 00 
   340)       600.5  Rx         03AC  4  25 20 06 12 
   341)       608.8  Rx         01A6  8  20 24 09 00 02 00 00 00 
   342)       609.2  Rx         02A6  8  CE 20 1E 00 00 00 00 00 
   343)       609.7  Rx         03A6  8  00 00 00 00 00 00 00 00 
   344)       610.2  Rx         04A6  8  12 00 CD E8 12 00 41 22 
   345)       610.7  Rx         0227  8  06 00 00 00 00 00 00 00 
   346)       612.1  Rx         01A8  8  00 1E 11 01 02 00 00 00 
   347)       612.6  Rx         02A8  8  E6 20 83 01 27 00 84 03 
   348)       613.1  Rx         03A8  8  00 00 00 00 00 00 00 00 
   349)       613.5  Rx         04A8  8  00 00 51 21 12 00 41 00 
   350)       614.0  Rx         01A7  8  01 00 00 00 00 00 00 00 
   351)       628.8  Rx         01A6  8  20 24 09 00 02 00 00 00 
   352)       629.3  Rx         02A6  8  C2 20 1D 00 00 00 00 00 
   353)       629.8  Rx         03A6  8  00 00 00 00 00 00 00 00 
   354)       630.3  Rx         04A6  8  12 00 CD E8 12 00 41 22 
   355)       630.8  Rx         0227  8  06 00 00 00 00 00 00 00 
   356)       632.3  Rx         01A8  8  00 1E 11 01 02 00 00 00 
   357)       632.7  Rx         02A8  8  E6 20 7E 01 25 00 86 03 
   358)       633.2  Rx         03A8  8  00 00 00 00 00 00 00 00 
   359)       633.7  Rx         04A8  8  00 00 51 21 12 00 41 00 
   360)       634.2  Rx         01A7  8  01 00 00 00 00 00 00 00 
   361)       649.3  Rx         01A6  8  20 24 09 00 02 00 00 00 
   362)       649.8  Rx         02A6  8  CE 20 1D 00 00 00 00 00 
   363)       650.3  Rx         03A6  8  00 00 00 00 00 00 00 00 
   364)       650.7  Rx         04A6  8  12 00 CD E8 12 00 41 22 
   365)       651.2  Rx         0227  8  06 00 00 00 00 00 00 00 
   366)       652.2  Rx         01A8  8  00 1E 11 01 02 00 00 00 
   367)       652.7  Rx         02A8  8  DB 20 7E 01 25 00 84 03 
   368)       653.2  Rx         03A8  8  00 00 00 00 00 00 00 00 
   369)       653.7  Rx         04A8  8  00 00 51 21 12 00 41 00 
   370)       654.2  Rx         01A7  8  01 00 00 00 00 00 00 00 
   371)       668.9  Rx         01A6  8  20 24 09 00 02 00 00 00 
   372)       669.4  Rx         02A6  8  C2 20 1D 00 00 00 00 00 
   373)       669.9  Rx         03A6  8  00 00 00 00 00 00 00 00 
   374)       670.4  Rx         04A6  8  12 00 CD E8 12 00 41 22 
   375)       670.9  Rx         0227  8  06 00 00 00 00 00 00 00 
   376)       672.3  Rx         01A8  8  00 1E 11 01 02 00 00 00 
   377)       672.8  Rx         02A8  8  E6 20 80 01 23 00 84 03 
   378)       673.3  Rx         03A8  8  00 00 00 00 00 00 00 00 
   379)       673.8  Rx         04A8  8  00 00 51 21 12 00 41 00 
   380)       674.3  Rx         01A7  8  01 00 00 00 00 00 00 00 
   381)       689.6  Rx         01A6  8  20 24 09 00 02 00 00 00 
   382)       690.1  Rx         02A6  8  CE 20 1C 00 00 00 00 00 
   383)       690.6  Rx         03A6  8  00 00 00 00 00 00 00 00 
   384)       691.0  Rx         04A6  8  12 00 CD E8 12 00 41 22 
   385)       691.5  Rx         0227  8  06 00 00 00 00 00 00 00 
   386)       692.5  Rx         01A8  8  00 1E 11 01 02 00 00 00 
   387)       692.9  Rx         02A8  8  E6 20 80 01 24 00 84 03 
   388)       693.4  Rx         03A8  8  00 00 00 00 00 00 00 00 
   389)       693.9  Rx         04A8  8  00 00 51 21 12 00 41 00 
   390)       694.4  Rx         01A7  8  01 00 00 00 00 00 00 00 
   391)       695.2  Rx         038C  8  22 00 A2 52 01 00 56 FF 
   392)       695.7  Rx         01AC  8  56 FF A2 52 01 00 00 00 
   393)       696.2  Rx         02AC  8  05 22 12 00 99 7B 01 00 
   394)       696.6  Rx         048C  8  40 1F CC 1C 01 00 91 00 
   395)       700.1  Rx         028C  4  00 00 00 00 
   396)       709.1  Rx         01A6  8  20 24 09 00 02 00 00 00 
   397)       709.6  Rx         02A6  8  CE 20 1B 00 00 00 00 00 
   398)       710.1  Rx         03A6  8  00 00 00 00 00 00 00 00 
   399)       710.5  Rx         04A6  8  12 00 CD E8 12 00 41 22 
   400)       711.0  Rx         0227  8  06 00 00 00 00 00 00 00 
   401)       712.6  Rx         01A8  8  00 1E 11 01 02 00 00 00 
   402)       713.0  Rx         02A8  8  E6 20 7E 01 27 00 85 03 
   403)       713.5  Rx         03A8  8  00 00 00 00 00 00 00 00 
   404)       714.0  Rx         04A8  8  00 00 51 21 12 00 41 00 
   405)       714.5  Rx         01A7  8  01 00 00 00 00 00 00 00 
   406)       724.3  Rx     18FB3030  8  12 00 00 00 10 33 02 21 
   407)       724.8  Rx     18FB3130  8  B1 81 12 00 22 00 00 00 
   408)       729.6  Rx         01A6  8  20 24 09 00 02 00 00 00 
   409)       730.1  Rx         02A6  8  CE 20 1B 00 00 00 00 00 
   410)       730.6  Rx         03A6  8  00 00 00 00 00 00 00 00 
   411)       731.1  Rx         04A6  8  12 00 CD E8 12 00 41 22 
   412)       731.6  Rx         0227  8  06 00 00 00 00 00 00 00 
   413)       732.6  Rx         01A8  8  00 1E 11 01 02 00 00 00 
   414)       733.0  Rx         02A8  8  DB 20 7D 01 24 00 84 03 
   415)       733.5  Rx         03A8  8  00 00 00 00 00 00 00 00 
   416)       734.0  Rx         04A8  8  00 00 51 21 12 00 41 00 
   417)       734.5  Rx         01A7  8  01 00 00 00 00 00 00 00 
   418)       749.2  Rx         01A6  8  20 24 09 00 02 00 00 00 
   419)       749.7  Rx         02A6  8  C2 20 1C 00 00 00 00 00 
   420)       750.2  Rx         03A6  8  00 00 00 00 00 00 00 00 
   421)       750.6  Rx         04A6  8  12 00 CD E8 12 00 41 22 
   422)       751.1  Rx         0227  8  06 00 00 00 00 00 00 00 
   423)       752.6  Rx         01A8  8  00 1E 11 01 02 00 00 00 
   424)       753.1  Rx         02A8  8  E6 20 7D 01 25 00 85 03 
   425)       753.6  Rx         03A8  8  00 00 00 00 00 00 00 00 
   426)       754.1  Rx         04A8  8  00 00 51 21 12 00 41 00 
   427)       754.6  Rx         01A7  8  01 00 00 00 00 00 00 00 
   428)       769.2  Rx         01A6  8  20 24 09 00 02 00 00 00 
   429)       769.7  Rx         02A6  8  C2 20 1C 00 00 00 00 00 
   430)       770.2  Rx         03A6  8  00 00 00 00 00 00 00 00 
   431)       770.7  Rx         04A6  8  12 00 CD E8 12 00 41 22 
   432)       771.2  Rx         0227  8  06 00 00 00 00 00 00 00 
   433)       772.7  Rx         01A8  8  00 1E 11 01 02 00 00 00 
   434)       773.2  Rx         02A8  8  E6 20 7F 01 26 00 83 03 
   435)       773.7  Rx         03A8  8  00 00 00 00 00 00 00 00 
   436)       774.2  Rx         04A8  8  00 00 51 21 12 00 41 00 
   437)       774.7  Rx         01A7  8  01 00 00 00 00 00 00 00 
   438)       789.3  Rx         01A6  8  20 24 09 00 02 00 00 00 
   439)       789.8  Rx         02A6  8  C2 20 1D 00 00 00 00 00 
   440)       790.3  Rx         03A6  8  00 00 00 00 00 00 00 00 
   441)       790.8  Rx         04A6  8  12 00 CD E8 12 00 41 22 
   442)       791.3  Rx         0227  8  06 00 00 00 00 00 00 00 
   443)       792.8  Rx         01A8  8  00 1E 11 01 02 00 00 00 
   444)       793.3  Rx         02A8  8  E6 20 81 01 26 00 83 03 
   445)       793.8  Rx         03A8  8  00 00 00 00 00 00 00 00 
   446)       794.3  Rx         04A8  8  00 00 51 21 12 00 41 00 
   447)       794.8  Rx         01A7  8  01 00 00 00 00 00 00 00 
   448)       795.2  Rx         038C  8  22 00 A5 52 01 00 56 FF 
   449)       795.7  Rx         01AC  8  56 FF A5 52 01 00 00 00 
   450)       796.2  Rx         02AC  8  05 22 12 00 99 7B 01 00 
   451)       796.6  Rx         048C  8  40 1F CC 1C 01 00 91 00 
   452)       800.1  Rx         028C  4  00 00 00 00 
   453)       809.8  Rx         01A6  8  20 24 09 00 02 00 00 00 
   454)       810.3  Rx         02A6  8  C2 20 20 00 00 00 00 00 
   455)       810.8  Rx         03A6  8  00 00 00 00 00 00 00 00 
   456)       811.3  Rx         04A6  8  12 00 CD E8 12 00 41 22 
   457)       811.8  Rx         0227  8  06 00 00 00 00 00 00 00 
   458)       812.9  Rx         01A8  8  00 1E 11 01 02 00 00 00 
   459)       813.4  Rx         02A8  8  E6 20 81 01 26 00 82 03 
   460)       813.9  Rx         03A8  8  00 00 00 00 00 00 00 00 
   461)       814.4  Rx         04A8  8  00 00 51 21 12 00 41 00 
   462)       814.9  Rx         01A7  8  01 00 00 00 00 00 00 00 
   463)       829.4  Rx         01A6  8  20 24 09 00 02 00 00 00 
   464)       829.9  Rx         02A6  8  C2 20 20 00 00 00 00 00 
   465)       830.4  Rx         03A6  8  00 00 00 00 00 00 00 00 
   466)       830.9  Rx         04A6  8  12 00 CD E8 12 00 41 22 
   467)       831.4  Rx         0227  8  06 00 00 00 00 00 00 00 
   468)       833.0  Rx         01A8  8  00 1E 11 01 02 00 00 00 
   469)       833.4  Rx         02A8  8  DB 20 82 01 27 00 86 03 
   470)       833.9  Rx         03A8  8  00 00 00 00 00 00 00 00 
   471)       834.4  Rx         04A8  8  00 00 51 21 12 00 41 00 
   472)       834.9  Rx         01A7  8  01 00 00 00 00 00 00 00 
   473)       849.5  Rx         01A6  8  20 24 09 00 02 00 00 00 
   474)       850.0  Rx         02A6  8  C2 20 1F 00 00 00 00 00 
   475)       850.5  Rx         03A6  8  00 00 00 00 00 00 00 00 
   476)       850.9  Rx         04A6  8  12 00 CD E8 12 00 41 22 
   477)       851.4  Rx         0227  8  06 00 00 00 00 00 00 00 
   478)       853.1  Rx         01A8  8  00 1E 11 01 02 00 00 00 
   479)       853.6  Rx         02A8  8  E6 20 82 01 24 00 83 03 
   480)       854.1  Rx         03A8  8  00 00 00 00 00 00 00 00 
   481)       854.5  Rx         04A8  8  00 00 51 21 12 00 41 00 
   482)       855.0  Rx         01A7  8  01 00 00 00 00 00 00 00 
   483)       869.6  Rx         01A6  8  20 24 09 00 02 00 00 00 
   484)       870.0  Rx         02A6  8  C2 20 1E 00 00 00 00 00 
   485)       870.5  Rx         03A6  8  00 00 00 00 00 00 00 00 
   486)       871.0  Rx         04A6  8  12 00 CD E8 12 00 41 22 
   487)       871.5  Rx         0227  8  06 00 00 00 00 00 00 00 
   488)       873.1  Rx         01A8  8  00 1E 11 01 02 00 00 00 
   489)       873.6  Rx         02A8  8  DB 20 85 01 28 00 82 03 
   490)       874.1  Rx         03A8  8  00 00 00 00 00 00 00 00 
   491)       874.6  Rx         04A8  8  00 00 51 21 12 00 41 00 
   492)       875.1  Rx         01A7  8  01 00 00 00 00 00 00 00 
   493)       890.1  Rx         01A6  8  20 24 09 00 02 00 00 00 
   494)       890.6  Rx         02A6  8  C2 20 1E 00 00 00 00 00 
   495)       891.1  Rx         03A6  8  00 00 00 00 00 00 00 00 
   496)       891.6  Rx         04A6  8  12 00 CD E8 12 00 41 22 
   497)       892.0  Rx         0227  8  06 00 00 00 00 00 00 00 
   498)       893.2  Rx         01A8  8  00 1E 11 01 02 00 00 00 
   499)       893.7  Rx         02A8  8  E6 20 82 01 25 00 83 03 
   500)       894.2  Rx         03A8  8  00 00 00 00 00 00 00 00 
   501)       894.7  Rx         04A8  8  00 00 51 21 12 00 41 00 
   502)       895.2  Rx         01A7  8  01 00 00 00 00 00 00 00 
   503)       895.7  Rx         01AC  8  56 FF A5 52 01 00 00 00 
   504)       896.1  Rx         038C  8  22 00 A5 52 01 00 56 FF 
   505)       896.6  Rx         02AC  8  05 22 12 00 99 7B 01 00 
   506)       897.1  Rx         048C  8  40 1F CC 1C 01 00 91 00 
   507)       900.1  Rx         028C  4  00 00 00 00 
   508)       909.7  Rx         01A6  8  20 24 09 00 02 00 00 00 
   509)       910.2  Rx         02A6  8  DA 20 1B 00 00 00 00 00 
   510)       910.7  Rx         03A6  8  00 00 00 00 00 00 00 00 
   511)       911.1  Rx         04A6  8  12 00 CD E8 12 00 41 22 
   512)       911.6  Rx         0227  8  06 00 00 00 00 00 00 00 
   513)       913.3  Rx         01A8  8  00 1E 11 01 02 00 00 00 
   514)       913.8  Rx         02A8  8  DB 20 82 01 26 00 83 03 
   515)       914.3  Rx         03A8  8  00 00 00 00 00 00 00 00 
   516)       914.7  Rx         04A8  8  00 00 51 21 12 00 41 00 
   517)       915.2  Rx         01A7  8  01 00 00 00 00 00 00 00 
   518)       925.5  Rx     18FB3030  8  12 00 00 00 10 33 02 21 
   519)       926.0  Rx     18FB3130  8  B1 81 12 00 22 00 00 00 
   520)       929.7  Rx         01A6  8  20 24 09 00 02 00 00 00 
   521)       930.2  Rx         02A6  8  DA 20 1B 00 00 00 00 00 
   522)       930.7  Rx         03A6  8  00 00 00 00 00 00 00 00 
   523)       931.2  Rx         04A6  8  12 00 CD E8 12 00 41 22 
   524)       931.7  Rx         0227  8  06 00 00 00 00 00 00 00 
   525)       933.4  Rx         01A8  8  00 1E 11 01 02 00 00 00 
   526)       933.9  Rx         02A8  8  E6 20 82 01 27 00 84 03 
   527)       934.4  Rx         03A8  8  00 00 00 00 00 00 00 00 
   528)       934.9  Rx         04A8  8  00 00 51 21 12 00 41 00 
   529)       935.4  Rx         01A7  8  01 00 00 00 00 00 00 00 
   530)       949.8  Rx         01A6  8  20 24 09 00 02 00 00 00 
   531)       950.3  Rx         02A6  8  DA 20 1C 00 00 00 00 00 
   532)       950.8  Rx         03A6  8  00 00 00 00 00 00 00 00 
   533)       951.3  Rx         04A6  8  12 00 CD E8 12 00 41 22 
   534)       951.8  Rx         0227  8  06 00 00 00 00 00 00 00 
   535)       953.4  Rx         01A8  8  00 1E 11 01 02 00 00 00 
   536)       953.9  Rx         02A8  8  E6 20 82 01 26 00 84 03 
   537)       954.4  Rx         03A8  8  00 00 00 00 00 00 00 00 
   538)       954.9  Rx         04A8  8  00 00 51 21 12 00 41 00 
   539)       955.4  Rx         01A7  8  01 00 00 00 00 00 00 00 
   540)       969.8  Rx         01A6  8  20 24 09 00 02 00 00 00 
   541)       970.3  Rx         02A6  8  DA 20 1A 00 00 00 00 00 
   542)       970.8  Rx         03A6  8  00 00 00 00 00 00 00 00 
   543)       971.3  Rx         04A6  8  12 00 CD E8 12 00 41 22 
   544)       971.8  Rx         0227  8  06 00 00 00 00 00 00 00 
   545)       973.6  Rx         01A8  8  00 1E 11 01 02 00 00 00 
   546)       974.0  Rx         02A8  8  E6 20 82 01 26 00 83 03 
   547)       974.5  Rx         03A8  8  00 00 00 00 00 00 00 00 
   548)       975.0  Rx         04A8  8  00 00 51 21 12 00 41 00 
   549)       975.5  Rx         01A7  8  01 00 00 00 00 00 00 00 
   550)       976.1  Rx     18FECA30  8  00 FF 00 00 00 00 FF FF 
   551)       989.9  Rx         01A6  8  20 24 09 00 02 00 00 00 
   552)       990.4  Rx         02A6  8  DA 20 1A 00 00 00 00 00 
   553)       990.9  Rx         03A6  8  00 00 00 00 00 00 00 00 
   554)       991.4  Rx         04A6  8  12 00 CD E8 12 00 41 22 
   555)       991.9  Rx         0227  8  06 00 00 00 00 00 00 00 
   556)       993.6  Rx         01A8  8  00 1E 11 01 02 00 00 00 
   557)       994.1  Rx         02A8  8  E6 20 82 01 26 00 84 03 
   558)       994.6  Rx         03A8  8  00 00 00 00 00 00 00 00 
   559)       995.1  Rx         04A8  8  00 00 51 21 12 00 41 00 
   560)       995.6  Rx         01A7  8  01 00 00 00 00 00 00 00 
   561)       996.0  Rx         01AC  8  56 FF A5 52 01 00 00 00 
   562)       996.5  Rx         038C  8  22 00 A5 52 01 00 56 FF 
   563)       997.0  Rx         02AC  8  05 22 12 00 99 7B 01 00 
   564)       997.5  Rx         048C  8  40 1F CC 1C 01 00 91 00 
   565)      1000.1  Rx         028C  4  00 00 00 00 
   566)      1009.1  Rx         071C  1  05 
   567)      1010.0  Rx         01A6  8  20 24 09 00 02 00 00 00 
   568)      1010.5  Rx         02A6  8  DA 20 1F 00 00 00 00 00 
   569)      1011.0  Rx         03A6  8  00 00 00 00 00 00 00 00 
   570)      1011.4  Rx         04A6  8  12 00 CD E8 12 00 41 22 
   571)      1011.9  Rx         0227  8  06 00 00 00 00 00 00 00 
   572)      1013.8  Rx         01A8  8  00 1E 11 01 02 00 00 00 
   573)      1014.3  Rx         02A8  8  E6 20 82 01 27 00 83 03 
   574)      1014.8  Rx         03A8  8  00 00 00 00 00 00 00 00 
   575)      1015.3  Rx         04A8  8  00 00 51 21 12 00 41 00 
   576)      1015.8  Rx         01A7  8  01 00 00 00 00 00 00 00 
   577)      1030.5  Rx         01A6  8  20 24 09 00 02 00 00 00 
   578)      1031.0  Rx         02A6  8  C2 20 1F 00 00 00 00 00 
   579)      1031.5  Rx         03A6  8  00 00 00 00 00 00 00 00 
   580)      1031.9  Rx         04A6  8  12 00 CD E8 12 00 41 22 
   581)      1032.4  Rx         0227  8  06 00 00 00 00 00 00 00 
   582)      1033.8  Rx         01A8  8  00 1E 11 01 02 00 00 00 
   583)      1034.2  Rx         02A8  8  E6 20 7F 01 23 00 87 03 
   584)      1034.7  Rx         03A8  8  00 00 00 00 00 00 00 00 
   585)      1035.2  Rx         04A8  8  00 00 51 21 12 00 41 00 
   586)      1035.7  Rx         01A7  8  01 00 00 00 00 00 00 00 
   587)      1050.1  Rx         01A6  8  20 24 09 00 02 00 00 00 
   588)      1050.6  Rx         02A6  8  DA 20 1F 00 00 00 00 00 
   589)      1051.1  Rx         03A6  8  00 00 00 00 00 00 00 00 
   590)      1051.6  Rx         04A6  8  12 00 CD E8 12 00 41 22 
   591)      1052.1  Rx         0227  8  06 00 00 00 00 00 00 00 
   592)      1053.9  Rx         01A8  8  00 1E 11 01 02 00 00 00 
   593)      1054.4  Rx         02A8  8  DB 20 7D 01 23 00 83 03 
   594)      1054.9  Rx         03A8  8  00 00 00 00 00 00 00 00 
   595)      1055.4  Rx         04A8  8  00 00 51 21 12 00 41 00 
   596)      1055.9  Rx         01A7  8  01 00 00 00 00 00 00 00 
   597)      1070.2  Rx         01A6  8  20 24 09 00 02 00 00 00 
   598)      1070.7  Rx         02A6  8  DA 20 1F 00 00 00 00 00 
   599)      1071.2  Rx         03A6  8  00 00 00 00 00 00 00 00 
   600)      1071.6  Rx         04A6  8  12 00 CD E8 12 00 41 22 
   601)      1072.1  Rx         0227  8  06 00 00 00 00 00 00 00 
   602)      1073.9  Rx         01A8  8  00 1E 11 01 02 00 00 00 
   603)      1074.4  Rx         02A8  8  E6 20 7D 01 27 00 84 03 
   604)      1074.9  Rx         03A8  8  00 00 00 00 00 00 00 00 
   605)      1075.4  Rx         04A8  8  00 00 51 21 12 00 41 00 
   606)      1075.9  Rx         01A7  8  01 00 00 00 00 00 00 00 
   607)      1090.2  Rx         01A6  8  20 24 09 00 02 00 00 00 
   608)      1090.7  Rx         02A6  8  DA 20 1F 00 00 00 00 00 
   609)      1091.2  Rx         03A6  8  00 00 00 00 00 00 00 00 
   610)      1091.7  Rx         04A6  8  12 00 CD E8 12 00 41 22 
   611)      1092.2  Rx         0227  8  06 00 00 00 00 00 00 00 
   612)      1094.2  Rx         01A8  8  00 1E 11 01 02 00 00 00 
   613)      1094.6  Rx         02A8  8  F2 20 7C 01 27 00 84 03 
   614)      1095.1  Rx         03A8  8  00 00 00 00 00 00 00 00 
   615)      1095.6  Rx         01AC  8  56 FF A5 52 01 00 00 00 
   616)      1096.1  Rx         038C  8  22 00 A5 52 01 00 56 FF 
   617)      1096.6  Rx         02AC  8  05 22 12 00 99 7B 01 00 
   618)      1097.0  Rx         048C  8  40 1F CC 1C 01 00 91 00 
   619)      1097.5  Rx         04A8  8  00 00 51 21 12 00 41 00 
   620)      1098.0  Rx         01A7  8  01 00 00 00 00 00 00 00 
   621)      1100.1  Rx         028C  4  00 00 00 00 
   622)      1100.5  Rx         03AC  4  25 20 06 12 
   623)      1110.7  Rx         01A6  8  20 24 09 00 02 00 00 00 
   624)      1111.2  Rx         02A6  8  CE 20 1F 00 00 00 00 00 
   625)      1111.7  Rx         03A6  8  00 00 00 00 00 00 00 00 
   626)      1112.2  Rx         04A6  8  12 00 CD E8 12 00 41 22 
   627)      1112.7  Rx         0227  8  06 00 00 00 00 00 00 00 
   628)      1114.1  Rx         01A8  8  00 1E 11 01 02 00 00 00 
   629)      1114.6  Rx         02A8  8  F2 20 7C 01 23 00 85 03 
   630)      1115.1  Rx         03A8  8  00 00 00 00 00 00 00 00 
   631)      1115.6  Rx         04A8  8  00 00 51 21 12 00 41 00 
   632)      1116.1  Rx         01A7  8  01 00 00 00 00 00 00 00 
   633)      1126.2  Rx     18FB3030  8  12 00 00 00 10 33 02 21 
   634)      1126.8  Rx     18FB3130  8  B1 81 12 00 22 00 00 00 
   635)      1130.3  Rx         01A6  8  20 24 09 00 02 00 00 00 
   636)      1130.8  Rx         02A6  8  CE 20 1F 00 00 00 00 00 
   637)      1131.3  Rx         03A6  8  00 00 00 00 00 00 00 00 
   638)      1131.8  Rx         04A6  8  12 00 CD E8 12 00 41 22 
   639)      1132.3  Rx         0227  8  06 00 00 00 00 00 00 00 
   640)      1134.3  Rx         01A8  8  00 1E 11 01 02 00 00 00 
   641)      1134.8  Rx         02A8  8  DB 20 7C 01 24 00 85 03 
   642)      1135.3  Rx         03A8  8  00 00 00 00 00 00 00 00 
   643)      1135.8  Rx         04A8  8  00 00 51 21 12 00 41 00 
   644)      1136.3  Rx         01A7  8  01 00 00 00 00 00 00 00 
   645)      1150.8  Rx         01A6  8  20 24 09 00 02 00 00 00 
   646)      1151.3  Rx         02A6  8  C2 20 1F 00 00 00 00 00 
   647)      1151.8  Rx         03A6  8  00 00 00 00 00 00 00 00 
   648)      1152.3  Rx         04A6  8  12 00 CD E8 12 00 41 22 
   649)      1152.8  Rx         0227  8  06 00 00 00 00 00 00 00 
   650)      1154.3  Rx         01A8  8  00 1E 11 01 02 00 00 00 
   651)      1154.7  Rx         02A8  8  E6 20 7B 01 27 00 85 03 
   652)      1155.2  Rx         03A8  8  00 00 00 00 00 00 00 00 
   653)      1155.7  Rx         04A8  8  00 00 51 21 12 00 41 00 
   654)      1156.2  Rx         01A7  8  01 00 00 00 00 00 00 00 
   655)      1170.5  Rx         01A6  8  20 24 09 00 02 00 00 00 
   656)      1171.0  Rx         02A6  8  DA 20 1D 00 00 00 00 00 
   657)      1171.5  Rx         03A6  8  00 00 00 00 00 00 00 00 
   658)      1171.9  Rx         04A6  8  12 00 CD E8 12 00 41 22 
   659)      1172.4  Rx         0227  8  06 00 00 00 00 00 00 00 
   660)      1174.5  Rx         01A8  8  00 1E 11 01 02 00 00 00 
   661)      1175.0  Rx         02A8  8  DB 20 7B 01 26 00 83 03 
   662)      1175.5  Rx         03A8  8  00 00 00 00 00 00 00 00 
   663)      1176.0  Rx         04A8  8  00 00 51 21 12 00 41 00 
   664)      1176.5  Rx         01A7  8  01 00 00 00 00 00 00 00 
   665)      1191.0  Rx         01A6  8  20 24 09 00 02 00 00 00 
   666)      1191.5  Rx         02A6  8  C2 20 1C 00 00 00 00 00 
   667)      1192.0  Rx         03A6  8  00 00 00 00 00 00 00 00 
   668)      1192.5  Rx         04A6  8  12 00 CD E8 12 00 41 22 
   669)      1193.0  Rx         0227  8  06 00 00 00 00 00 00 00 
   670)      1194.4  Rx         01A8  8  00 1E 11 01 02 00 00 00 
   671)      1194.9  Rx         02A8  8  F2 20 7B 01 25 00 83 03 
   672)      1195.4  Rx         01AC  8  56 FF A5 52 01 00 00 00 
   673)      1195.8  Rx         038C  8  22 00 A5 52 01 00 56 FF 
   674)      1196.3  Rx         02AC  8  05 22 12 00 99 7B 01 00 
   675)      1196.8  Rx         03A8  8  00 00 00 00 00 00 00 00 
   676)      1197.3  Rx         048C  8  40 1F CC 1C 01 00 91 00 
   677)      1197.8  Rx         04A8  8  00 00 51 21 12 00 41 00 
   678)      1198.3  Rx         01A7  8  01 00 00 00 00 00 00 00 
   679)      1200.1  Rx         028C  4  00 00 00 00 
   680)      1210.6  Rx         01A6  8  20 24 09 00 02 00 00 00 
   681)      1211.1  Rx         02A6  8  CE 20 1C 00 00 00 00 00 
   682)      1211.6  Rx         03A6  8  00 00 00 00 00 00 00 00 
   683)      1212.1  Rx         04A6  8  12 00 CD E8 12 00 41 22 
   684)      1212.6  Rx         0227  8  06 00 00 00 00 00 00 00 
   685)      1214.6  Rx         01A8  8  00 1E 11 01 02 00 00 00 
   686)      1215.1  Rx         02A8  8  DB 20 79 01 25 00 84 03 
   687)      1215.6  Rx         03A8  8  00 00 00 00 00 00 00 00 
   688)      1216.0  Rx         04A8  8  00 00 51 21 12 00 41 00 
   689)      1216.5  Rx         01A7  8  01 00 00 00 00 00 00 00 
   690)      1231.1  Rx         01A6  8  20 24 09 00 02 00 00 00 
   691)      1231.6  Rx         02A6  8  C2 20 1D 00 00 00 00 00 
   692)      1232.1  Rx         03A6  8  00 00 00 00 00 00 00 00 
   693)      1232.6  Rx         04A6  8  12 00 CD E8 12 00 41 22 
   694)      1233.1  Rx         0227  8  06 00 00 00 00 00 00 00 
   695)      1234.6  Rx         01A8  8  00 1E 11 01 02 00 00 00 
   696)      1235.1  Rx         02A8  8  DB 20 79 01 27 00 88 03 
   697)      1235.6  Rx         03A8  8  00 00 00 00 00 00 00 00 
   698)      1236.0  Rx         04A8  8  00 00 51 21 12 00 41 00 
   699)      1236.5  Rx         01A7  8  01 00 00 00 00 00 00 00 
   700)      1250.7  Rx         01A6  8  20 24 09 00 02 00 00 00 
   701)      1251.2  Rx         02A6  8  DA 20 1D 00 00 00 00 00 
   702)      1251.7  Rx         03A6  8  00 00 00 00 00 00 00 00 
   703)      1252.2  Rx         04A6  8  12 00 CD E8 12 00 41 22 
   704)      1252.7  Rx         0227  8  06 00 00 00 00 00 00 00 
   705)      1254.8  Rx         01A8  8  00 1E 11 01 02 00 00 00 
   706)      1255.3  Rx         02A8  8  E6 20 78 01 25 00 84 03 
   707)      1255.8  Rx         03A8  8  00 00 00 00 00 00 00 00 
   708)      1256.3  Rx         04A8  8  00 00 51 21 12 00 41 00 
   709)      1256.8  Rx         01A7  8  01 00 00 00 00 00 00 00 
   710)      1271.2  Rx         01A6  8  20 24 09 00 02 00 00 00 
   711)      1271.7  Rx         02A6  8  C2 20 1D 00 00 00 00 00 
   712)      1272.2  Rx         03A6  8  00 00 00 00 00 00 00 00 
   713)      1272.7  Rx         04A6  8  12 00 CD E8 12 00 41 22 
   714)      1273.2  Rx         0227  8  06 00 00 00 00 00 00 00 
   715)      1274.7  Rx         01A8  8  00 1E 11 01 02 00 00 00 
   716)      1275.2  Rx         02A8  8  DB 20 79 01 24 00 83 03 
   717)      1275.7  Rx         03A8  8  00 00 00 00 00 00 00 00 
   718)      1276.2  Rx         04A8  8  00 00 51 21 12 00 41 00 
   719)      1276.7  Rx         01A7  8  01 00 00 00 00 00 00 00 
   720)      1290.9  Rx         01A6  8  20 24 09 00 02 00 00 00 
   721)      1291.3  Rx         02A6  8  DA 20 1C 00 00 00 00 00 
   722)      1291.8  Rx         03A6  8  00 00 00 00 00 00 00 00 
   723)      1292.3  Rx         04A6  8  12 00 CD E8 12 00 41 22 
   724)      1292.8  Rx         0227  8  06 00 00 00 00 00 00 00 
   725)      1295.0  Rx         01A8  8  00 1E 11 01 02 00 00 00 
   726)      1295.5  Rx         01AC  8  56 FF A5 52 01 00 00 00 
   727)      1296.0  Rx         02A8  8  DB 20 79 01 29 00 86 03 
   728)      1296.4  Rx         02AC  8  05 22 12 00 99 7B 01 00 
   729)      1296.9  Rx         038C  8  22 00 A5 52 01 00 56 FF 
   730)      1297.4  Rx         03A8  8  00 00 00 00 00 00 00 00 
   731)      1297.9  Rx         048C  8  40 1F CC 1C 01 00 91 00 
   732)      1298.4  Rx         04A8  8  00 00 51 21 12 00 41 00 
   733)      1298.9  Rx         01A7  8  01 00 00 00 00 00 00 00 
   734)      1300.1  Rx         028C  4  00 00 00 00 
   735)      1311.3  Rx         01A6  8  20 24 09 00 02 00 00 00 
   736)      1311.8  Rx         02A6  8  CE 20 1C 00 00 00 00 00 
   737)      1312.3  Rx         03A6  8  00 00 00 00 00 00 00 00 
   738)      1312.8  Rx         04A6  8  12 00 CD E8 12 00 41 22 
   739)      1313.3  Rx         0227  8  06 00 00 00 00 00 00 00 
   740)      1314.9  Rx         01A8  8  00 1E 11 01 02 00 00 00 
   741)      1315.4  Rx         02A8  8  DB 20 7C 01 26 00 83 03 
   742)      1315.9  Rx         03A8  8  00 00 00 00 00 00 00 00 
   743)      1316.4  Rx         04A8  8  00 00 51 21 12 00 41 00 
   744)      1316.9  Rx         01A7  8  01 00 00 00 00 00 00 00 
   745)      1328.0  Rx     18FB3030  8  12 00 00 00 10 33 02 21 
   746)      1328.5  Rx     18FB3130  8  B1 81 12 00 22 00 00 00 
   747)      1331.0  Rx         01A6  8  20 24 09 00 02 00 00 00 
   748)      1331.5  Rx         02A6  8  E5 20 1E 00 00 00 00 00 
   749)      1332.0  Rx         03A6  8  00 00 00 00 00 00 00 00 
   750)      1332.4  Rx         04A6  8  12 00 CD E8 12 00 41 22 
   751)      1332.9  Rx         0227  8  06 00 00 00 00 00 00 00 
   752)      1335.2  Rx         01A8  8  00 1E 11 01 02 00 00 00 
   753)      1335.6  Rx         02A8  8  E6 20 7C 01 28 00 84 03 
   754)      1336.1  Rx         03A8  8  00 00 00 00 00 00 00 00 
   755)      1336.6  Rx         04A8  8  00 00 51 21 12 00 41 00 
   756)      1337.1  Rx         01A7  8  01 00 00 00 00 00 00 00 
   757)      1351.5  Rx         01A6  8  20 24 09 00 02 00 00 00 
   758)      1352.0  Rx         02A6  8  DA 20 1B 00 00 00 00 00 
   759)      1352.5  Rx         03A6  8  00 00 00 00 00 00 00 00 
   760)      1353.0  Rx         04A6  8  12 00 CD E8 12 00 41 22 
   761)      1353.5  Rx         0227  8  06 00 00 00 00 00 00 00 
   762)      1355.1  Rx         01A8  8  00 1E 11 01 02 00 00 00 
   763)      1355.5  Rx         02A8  8  DB 20 7D 01 28 00 84 03 
   764)      1356.0  Rx         03A8  8  00 00 00 00 00 00 00 00 
   765)      1356.5  Rx         04A8  8  00 00 51 21 12 00 41 00 
   766)      1357.0  Rx         01A7  8  01 00 00 00 00 00 00 00 
   767)      1371.1  Rx         01A6  8  20 24 09 00 02 00 00 00 
   768)      1371.6  Rx         02A6  8  E5 20 1B 00 00 00 00 00 
   769)      1372.1  Rx         03A6  8  00 00 00 00 00 00 00 00 
   770)      1372.6  Rx         04A6  8  12 00 CD E8 12 00 41 22 
   771)      1373.1  Rx         0227  8  06 00 00 00 00 00 00 00 
   772)      1375.2  Rx         01A8  8  00 1E 11 01 02 00 00 00 
   773)      1375.7  Rx         02A8  8  E6 20 78 01 24 00 82 03 
   774)      1376.2  Rx         03A8  8  00 00 00 00 00 00 00 00 
   775)      1376.6  Rx         04A8  8  00 00 51 21 12 00 41 00 
   776)      1377.1  Rx         01A7  8  01 00 00 00 00 00 00 00 
   777)      1391.8  Rx         01A6  8  20 24 09 00 02 00 00 00 
   778)      1392.3  Rx         02A6  8  DA 20 1C 00 00 00 00 00 
   779)      1392.8  Rx         03A6  8  00 00 00 00 00 00 00 00 
   780)      1393.2  Rx         04A6  8  12 00 CD E8 12 00 41 22 
   781)      1393.7  Rx         0227  8  06 00 00 00 00 00 00 00 
   782)      1395.2  Rx         038C  8  22 00 A5 52 01 00 56 FF 
   783)      1395.7  Rx         01AC  8  56 FF A5 52 01 00 00 00 
   784)      1396.2  Rx         02A8  8  DB 20 78 01 26 00 82 03 
   785)      1396.6  Rx         02AC  8  05 22 12 00 99 7B 01 00 
   786)      1397.1  Rx         03A8  8  00 00 00 00 00 00 00 00 
   787)      1397.6  Rx         048C  8  40 1F CC 1C 01 00 91 00 
   788)      1398.1  Rx         04A8  8  00 00 51 21 12 00 41 00 
   789)      1398.6  Rx         01A7  8  01 00 00 00 00 00 00 00 
   790)      1399.1  Rx         01A8  8  00 1E 11 01 02 00 00 00 
   791)      1400.1  Rx         028C  4  00 00 00 00 
   792)      1411.2  Rx         01A6  8  20 24 09 00 02 00 00 00 
   793)      1411.7  Rx         02A6  8  DA 20 1C 00 00 00 00 00 
   794)      1412.2  Rx         03A6  8  00 00 00 00 00 00 00 00 
   795)      1412.7  Rx         04A6  8  12 00 CD E8 12 00 41 22 
   796)      1413.2  Rx         0227  8  06 00 00 00 00 00 00 00 
   797)      1415.3  Rx         01A8  8  00 1E 11 01 02 00 00 00 
   798)      1415.8  Rx         02A8  8  DB 20 79 01 22 00 84 03 
   799)      1416.3  Rx         03A8  8  00 00 00 00 00 00 00 00 
   800)      1416.8  Rx         04A8  8  00 00 51 21 12 00 41 00 
   801)      1417.3  Rx         01A7  8  01 00 00 00 00 00 00 00 
   802)      1431.8  Rx         01A6  8  20 24 09 00 02 00 00 00 
   803)      1432.3  Rx         02A6  8  DA 20 1D 00 00 00 00 00 
   804)      1432.8  Rx         03A6  8  00 00 00 00 00 00 00 00 
   805)      1433.3  Rx         04A6  8  12 00 CD E8 12 00 41 22 
   806)      1433.7  Rx         0227  8  06 00 00 00 00 00 00 00 
   807)      1435.4  Rx         01A8  8  00 1E 11 01 02 00 00 00 
   808)      1435.9  Rx         02A8  8  DB 20 7A 01 28 00 86 03 
   809)      1436.4  Rx         03A8  8  00 00 00 00 00 00 00 00 
   810)      1436.9  Rx         04A8  8  00 00 51 21 12 00 41 00 
   811)      1437.3  Rx         01A7  8  01 00 00 00 00 00 00 00 
   812)      1451.3  Rx         01A6  8  20 24 09 00 02 00 00 00 
   813)      1451.8  Rx         02A6  8  E5 20 1E 00 00 00 00 00 
   814)      1452.3  Rx         03A6  8  00 00 00 00 00 00 00 00 
   815)      1452.8  Rx         04A6  8  12 00 CD E8 12 00 41 22 
   816)      1453.3  Rx         0227  8  06 00 00 00 00 00 00 00 
   817)      1455.5  Rx         01A8  8  00 1E 11 01 02 00 00 00 
   818)      1456.0  Rx         02A8  8  DB 20 7A 01 29 00 83 03 
   819)      1456.5  Rx         03A8  8  00 00 00 00 00 00 00 00 
   820)      1457.0  Rx         04A8  8  00 00 51 21 12 00 41 00 
   821)      1457.4  Rx         01A7  8  01 00 00 00 00 00 00 00 
   822)      1471.8  Rx         01A6  8  20 24 09 00 02 00 00 00 
   823)      1472.3  Rx         02A6  8  DA 20 1E 00 00 00 00 00 
   824)      1472.8  Rx         03A6  8  00 00 00 00 00 00 00 00 
   825)      1473.3  Rx         04A6  8  12 00 CD E8 12 00 41 22 
   826)      1473.8  Rx         0227  8  06 00 00 00 00 00 00 00 
   827)      1475.5  Rx         01A8  8  00 1E 11 01 02 00 00 00 
   828)      1476.0  Rx         02A8  8  E6 20 7A 01 22 00 83 03 
   829)      1476.5  Rx         03A8  8  00 00 00 00 00 00 00 00 
   830)      1477.0  Rx         04A8  8  00 00 51 21 12 00 41 00 
   831)      1477.5  Rx         01A7  8  01 00 00 00 00 00 00 00 
   832)      1491.5  Rx         01A6  8  20 24 09 00 02 00 00 00 
   833)      1492.0  Rx         02A6  8  E5 20 1F 00 00 00 00 00 
   834)      1492.5  Rx         03A6  8  00 00 00 00 00 00 00 00 
   835)      1492.9  Rx         04A6  8  12 00 CD E8 12 00 41 22 
   836)      1493.4  Rx         0227  8  06 00 00 00 00 00 00 00 
   837)      1495.2  Rx         038C  8  22 00 A5 52 01 00 56 FF 
   838)      1495.7  Rx         01AC  8  56 FF A5 52 01 00 00 00 
   839)      1496.2  Rx         02A8  8  DB 20 7A 01 24 00 83 03 
   840)      1496.6  Rx         02AC  8  05 22 12 00 99 7B 01 00 
   841)      1497.1  Rx         03A8  8  00 00 00 00 00 00 00 00 
   842)      1497.6  Rx         048C  8  40 1F CC 1C 01 00 91 00 
   843)      1498.1  Rx         04A8  8  00 00 51 21 12 00 41 00 
   844)      1498.6  Rx         01A7  8  01 00 00 00 00 00 00 00 
   845)      1499.1  Rx         01A8  8  00 1E 11 01 02 00 00 00 
   846)      1500.1  Rx         028C  4  00 00 00 00 
   847)      1512.0  Rx         01A6  8  20 24 09 00 02 00 00 00 
   848)      1512.5  Rx         02A6  8  CE 20 1C 00 00 00 00 00 
   849)      1513.0  Rx         03A6  8  00 00 00 00 00 00 00 00 
   850)      1513.5  Rx         04A6  8  12 00 CD E8 12 00 41 22 
   851)      1514.0  Rx         0227  8  06 00 00 00 00 00 00 00 
   852)      1515.7  Rx         01A8  8  00 1E 11 01 02 00 00 00 
   853)      1516.2  Rx         02A8  8  DB 20 76 01 28 00 85 03 
   854)      1516.7  Rx         03A8  8  00 00 00 00 00 00 00 00 
   855)      1517.2  Rx         04A8  8  00 00 51 21 12 00 41 00 
   856)      1517.7  Rx         01A7  8  01 00 00 00 00 00 00 00 
   857)      1528.4  Rx     18FB3030  8  12 00 00 00 10 33 02 21 
   858)      1529.2  Rx     18FB3130  8  B1 81 12 00 22 00 00 00 
   859)      1531.6  Rx         01A6  8  20 24 09 00 02 00 00 00 
   860)      1532.1  Rx         02A6  8  CE 20 1C 00 00 00 00 00 
   861)      1532.6  Rx         03A6  8  00 00 00 00 00 00 00 00 
   862)      1533.1  Rx         04A6  8  12 00 CD E8 12 00 41 22 
   863)      1533.5  Rx         0227  8  06 00 00 00 00 00 00 00 
   864)      1535.8  Rx         01A8  8  00 1E 11 01 02 00 00 00 
   865)      1536.3  Rx         02A8  8  DB 20 78 01 29 00 85 03 
   866)      1536.8  Rx         03A8  8  00 00 00 00 00 00 00 00 
   867)      1537.3  Rx         04A8  8  00 00 51 21 12 00 41 00 
   868)      1537.8  Rx         01A7  8  01 00 00 00 00 00 00 00 
   869)      1552.1  Rx         01A6  8  20 24 09 00 02 00 00 00 
   870)      1552.6  Rx         02A6  8  DA 20 1B 00 00 00 00 00 
   871)      1553.1  Rx         03A6  8  00 00 00 00 00 00 00 00 
   872)      1553.6  Rx         04A6  8  12 00 CD E8 12 00 41 22 
   873)      1554.1  Rx         0227  8  06 00 00 00 00 00 00 00 
   874)      1555.9  Rx         01A8  8  00 1E 11 01 02 00 00 00 
   875)      1556.4  Rx         02A8  8  E6 20 78 01 26 00 85 03 
   876)      1556.9  Rx         03A8  8  00 00 00 00 00 00 00 00 
   877)      1557.3  Rx         04A8  8  00 00 51 21 12 00 41 00 
   878)      1557.8  Rx         01A7  8  01 00 00 00 00 00 00 00 
   879)      1571.7  Rx         01A6  8  20 24 09 00 02 00 00 00 
   880)      1572.2  Rx         02A6  8  CE 20 1B 00 00 00 00 00 
   881)      1572.7  Rx         03A6  8  00 00 00 00 00 00 00 00 
   882)      1573.2  Rx         04A6  8  12 00 CD E8 12 00 41 22 
   883)      1573.7  Rx         0227  8  06 00 00 00 00 00 00 00 
   884)      1576.0  Rx         01A8  8  00 1E 11 01 02 00 00 00 
   885)      1576.5  Rx         02A8  8  DB 20 78 01 22 00 84 03 
   886)      1577.0  Rx         03A8  8  00 00 00 00 00 00 00 00 
   887)      1577.4  Rx         04A8  8  00 00 51 21 12 00 41 00 
   888)      1577.9  Rx         01A7  8  01 00 00 00 00 00 00 00 
   889)      1592.3  Rx         01A6  8  20 24 09 00 02 00 00 00 
   890)      1592.8  Rx         02A6  8  E5 20 1A 00 00 00 00 00 
   891)      1593.3  Rx         03A6  8  00 00 00 00 00 00 00 00 
   892)      1593.8  Rx         04A6  8  12 00 CD E8 12 00 41 22 
   893)      1594.3  Rx         0227  8  06 00 00 00 00 00 00 00 
   894)      1595.2  Rx         038C  8  22 00 A5 52 01 00 56 FF 
   895)      1595.7  Rx         01AC  8  56 FF A5 52 01 00 00 00 
   896)      1596.1  Rx         02A8  8  E6 20 79 01 28 00 84 03 
   897)      1596.6  Rx         02AC  8  05 22 12 00 99 7B 01 00 
   898)      1597.1  Rx         03A8  8  00 00 00 00 00 00 00 00 
   899)      1597.6  Rx         048C  8  40 1F CC 1C 01 00 91 00 
   900)      1598.1  Rx         04A8  8  00 00 51 21 12 00 41 00 
   901)      1598.6  Rx         01A7  8  01 00 00 00 00 00 00 00 
   902)      1599.1  Rx         01A8  8  00 1E 11 01 02 00 00 00 
   903)      1600.1  Rx         028C  4  00 00 00 00 
   904)      1600.4  Rx         03AC  4  25 20 06 12 
   905)      1611.8  Rx         01A6  8  20 24 09 00 02 00 00 00 
   906)      1612.3  Rx         02A6  8  CE 20 1B 00 00 00 00 00 
   907)      1612.8  Rx         03A6  8  00 00 00 00 00 00 00 00 
   908)      1613.3  Rx         04A6  8  12 00 CD E8 12 00 41 22 
   909)      1613.8  Rx         0227  8  06 00 00 00 00 00 00 00 
   910)      1616.1  Rx         01A8  8  00 1E 11 01 02 00 00 00 
   911)      1616.6  Rx         02A8  8  DB 20 79 01 27 00 85 03 
   912)      1617.1  Rx         03A8  8  00 00 00 00 00 00 00 00 
   913)      1617.6  Rx         04A8  8  00 00 51 21 12 00 41 00 
   914)      1618.1  Rx         01A7  8  01 00 00 00 00 00 00 00 
   915)      1631.9  Rx         01A6  8  20 24 09 00 02 00 00 00 
   916)      1632.4  Rx         02A6  8  CE 20 1B 00 00 00 00 00 
   917)      1632.9  Rx         03A6  8  00 00 00 00 00 00 00 00 
   918)      1633.4  Rx         04A6  8  12 00 CD E8 12 00 41 22 
   919)      1633.9  Rx         0227  8  06 00 00 00 00 00 00 00 
   920)      1636.2  Rx         01A8  8  00 1E 11 01 02 00 00 00 
   921)      1636.7  Rx         02A8  8  DB 20 78 01 24 00 88 03 
   922)      1637.2  Rx         03A8  8  00 00 00 00 00 00 00 00 
   923)      1637.7  Rx         04A8  8  00 00 51 21 12 00 41 00 
   924)      1638.2  Rx         01A7  8  01 00 00 00 00 00 00 00 
   925)      1652.0  Rx         01A6  8  20 24 09 00 02 00 00 00 
   926)      1652.5  Rx         02A6  8  CE 20 1C 00 00 00 00 00 
   927)      1653.0  Rx         03A6  8  00 00 00 00 00 00 00 00 
   928)      1653.4  Rx         04A6  8  12 00 CD E8 12 00 41 22 
   929)      1653.9  Rx         0227  8  06 00 00 00 00 00 00 00 
   930)      1656.3  Rx         01A8  8  00 1E 11 01 02 00 00 00 
   931)      1656.8  Rx         02A8  8  CF 20 78 01 24 00 84 03 
   932)      1657.3  Rx         03A8  8  00 00 00 00 00 00 00 00 
   933)      1657.8  Rx         04A8  8  00 00 51 21 12 00 41 00 
   934)      1658.3  Rx         01A7  8  01 00 00 00 00 00 00 00 
   935)      1672.1  Rx         01A6  8  20 24 09 00 02 00 00 00 
   936)      1672.5  Rx         02A6  8  E5 20 1D 00 00 00 00 00 
   937)      1673.0  Rx         03A6  8  00 00 00 00 00 00 00 00 
   938)      1673.5  Rx         04A6  8  12 00 CD E8 12 00 41 22 
   939)      1674.0  Rx         0227  8  06 00 00 00 00 00 00 00 
   940)      1676.5  Rx         01A8  8  00 1E 11 01 02 00 00 00 
   941)      1677.0  Rx         02A8  8  CF 20 79 01 26 00 84 03 
   942)      1677.5  Rx         03A8  8  00 00 00 00 00 00 00 00 
   943)      1678.0  Rx         04A8  8  00 00 51 21 12 00 41 00 
   944)      1678.5  Rx         01A7  8  01 00 00 00 00 00 00 00 
   945)      1692.1  Rx         01A6  8  20 24 09 00 02 00 00 00 
   946)      1692.6  Rx         02A6  8  CE 20 1D 00 00 00 00 00 
   947)      1693.1  Rx         03A6  8  00 00 00 00 00 00 00 00 
   948)      1693.6  Rx         04A6  8  12 00 CD E8 12 00 41 22 
   949)      1694.0  Rx         0227  8  06 00 00 00 00 00 00 00 
   950)      1695.2  Rx         038C  8  22 00 A5 52 01 00 56 FF 
   951)      1695.7  Rx         01AC  8  56 FF A5 52 01 00 00 00 
   952)      1696.1  Rx         02AC  8  05 22 12 00 99 7B 01 00 
   953)      1696.6  Rx         02A8  8  CF 20 78 01 28 00 86 03 
   954)      1697.1  Rx         03A8  8  00 00 00 00 00 00 00 00 
   955)      1697.6  Rx         048C  8  40 1F CC 1C 01 00 91 00 
   956)      1698.1  Rx         04A8  8  00 00 51 21 12 00 41 00 
   957)      1698.6  Rx         01A7  8  01 00 00 00 00 00 00 00 
   958)      1699.1  Rx         01A8  8  00 1E 11 01 02 00 00 00 
   959)      1700.1  Rx         028C  4  00 00 00 00 
   960)      1712.2  Rx         01A6  8  20 24 09 00 02 00 00 00 
   961)      1712.6  Rx         02A6  8  CE 20 1D 00 00 00 00 00 
   962)      1713.1  Rx         03A6  8  00 00 00 00 00 00 00 00 
   963)      1713.6  Rx         04A6  8  12 00 CD E8 12 00 41 22 
   964)      1714.1  Rx         0227  8  06 00 00 00 00 00 00 00 
   965)      1716.5  Rx         01A8  8  00 1E 11 01 02 00 00 00 
   966)      1717.0  Rx         02A8  8  CF 20 78 01 26 00 84 03 
   967)      1717.5  Rx         03A8  8  00 00 00 00 00 00 00 00 
   968)      1718.0  Rx         04A8  8  00 00 51 21 12 00 41 00 
   969)      1718.5  Rx         01A7  8  01 00 00 00 00 00 00 00 
   970)      1729.5  Rx     18FB3030  8  12 00 00 00 10 33 02 21 
   971)      1730.1  Rx     18FB3130  8  B1 81 12 00 22 00 00 00 
   972)      1732.2  Rx         01A6  8  20 24 09 00 02 00 00 00 
   973)      1732.7  Rx         02A6  8  C2 20 1D 00 00 00 00 00 
   974)      1733.2  Rx         03A6  8  00 00 00 00 00 00 00 00 
   975)      1733.7  Rx         04A6  8  12 00 CD E8 12 00 41 22 
   976)      1734.2  Rx         0227  8  06 00 00 00 00 00 00 00 
   977)      1736.6  Rx         01A8  8  00 1E 11 01 02 00 00 00 
   978)      1737.1  Rx         02A8  8  CF 20 79 01 23 00 84 03 
   979)      1737.6  Rx         03A8  8  00 00 00 00 00 00 00 00 
   980)      1738.1  Rx         04A8  8  00 00 51 21 12 00 41 00 
   981)      1738.6  Rx         01A7  8  01 00 00 00 00 00 00 00 
   982)      1752.3  Rx         01A6  8  20 24 09 00 02 00 00 00 
   983)      1752.8  Rx         02A6  8  E5 20 1B 00 00 00 00 00 
   984)      1753.3  Rx         03A6  8  00 00 00 00 00 00 00 00 
   985)      1753.8  Rx         04A6  8  12 00 CD E8 12 00 41 22 
   986)      1754.3  Rx         0227  8  06 00 00 00 00 00 00 00 
   987)      1756.7  Rx         01A8  8  00 1E 11 01 02 00 00 00 
   988)      1757.2  Rx         02A8  8  CF 20 7A 01 26 00 83 03 
   989)      1757.7  Rx         03A8  8  00 00 00 00 00 00 00 00 
   990)      1758.2  Rx         04A8  8  00 00 51 21 12 00 41 00 
   991)      1758.7  Rx         01A7  8  01 00 00 00 00 00 00 00 
   992)      1772.3  Rx         01A6  8  20 24 09 00 02 00 00 00 
   993)      1772.8  Rx         02A6  8  C2 20 1C 00 00 00 00 00 
   994)      1773.3  Rx         03A6  8  00 00 00 00 00 00 00 00 
   995)      1773.8  Rx         04A6  8  12 00 CD E8 12 00 41 22 
   996)      1774.3  Rx         0227  8  06 00 00 00 00 00 00 00 
   997)      1776.8  Rx         01A8  8  00 1E 11 01 02 00 00 00 
   998)      1777.3  Rx         02A8  8  CF 20 7A 01 27 00 82 03 
   999)      1777.8  Rx         03A8  8  00 00 00 00 00 00 00 00 
  1000)      1778.3  Rx         04A8  8  00 00 51 21 12 00 41 00 
  1001)      1778.8  Rx         01A7  8  01 00 00 00 00 00 00 00 
  1002)      1792.4  Rx         01A6  8  20 24 09 00 02 00 00 00 
  1003)      1792.9  Rx         02A6  8  C2 20 1C 00 00 00 00 00 
  1004)      1793.4  Rx         03A6  8  00 00 00 00 00 00 00 00 
  1005)      1793.9  Rx         04A6  8  12 00 CD E8 12 00 41 22 
  1006)      1794.4  Rx         0227  8  06 00 00 00 00 00 00 00 
  1007)      1795.2  Rx         038C  8  22 00 A4 52 01 00 54 FF 
  1008)      1795.7  Rx         01AC  8  54 FF A4 52 01 00 00 00 
  1009)      1796.1  Rx         02AC  8  05 22 12 00 99 7B 01 00 
  1010)      1796.6  Rx         048C  8  40 1F CC 1C 01 00 91 00 
  1011)      1797.1  Rx         02A8  8  CF 20 78 01 26 00 83 03 
  1012)      1797.6  Rx         03A8  8  00 00 00 00 00 00 00 00 
  1013)      1798.1  Rx         04A8  8  00 00 51 21 12 00 41 00 
  1014)      1798.6  Rx         01A7  8  01 00 00 00 00 00 00 00 
  1015)      1799.1  Rx         01A8  8  00 1E 11 01 02 00 00 00 
  1016)      1800.1  Rx         028C  4  00 00 00 00 
  1017)      1812.5  Rx         01A6  8  20 24 09 00 02 00 00 00 
  1018)      1813.0  Rx         02A6  8  C2 20 1B 00 00 00 00 00 
  1019)      1813.5  Rx         03A6  8  00 00 00 00 00 00 00 00 
  1020)      1813.9  Rx         04A6  8  12 00 CD E8 12 00 41 22 
  1021)      1814.4  Rx         0227  8  06 00 00 00 00 00 00 00 
  1022)      1817.0  Rx         01A8  8  00 1E 11 01 02 00 00 00 
  1023)      1817.4  Rx         02A8  8  CF 20 78 01 26 00 84 03 
  1024)      1817.9  Rx         03A8  8  00 00 00 00 00 00 00 00 
  1025)      1818.4  Rx         04A8  8  00 00 51 21 12 00 41 00 
  1026)      1818.9  Rx         01A7  8  01 00 00 00 00 00 00 00 
  1027)      1832.6  Rx         01A6  8  20 24 09 00 02 00 00 00 
  1028)      1833.0  Rx         02A6  8  E5 20 1A 00 00 00 00 00 
  1029)      1833.5  Rx         03A6  8  00 00 00 00 00 00 00 00 
  1030)      1834.0  Rx         04A6  8  12 00 CD E8 12 00 41 22 
  1031)      1834.5  Rx         0227  8  06 00 00 00 00 00 00 00 
  1032)      1837.1  Rx         01A8  8  00 1E 11 01 02 00 00 00 
  1033)      1837.5  Rx         02A8  8  CF 20 7A 01 24 00 87 03 
  1034)      1838.0  Rx         03A8  8  00 00 00 00 00 00 00 00 
  1035)      1838.5  Rx         04A8  8  00 00 51 21 12 00 41 00 
  1036)      1839.0  Rx         01A7  8  01 00 00 00 00 00 00 00 
  1037)      1852.6  Rx         01A6  8  20 24 09 00 02 00 00 00 
  1038)      1853.1  Rx         02A6  8  C2 20 1A 00 00 00 00 00 
  1039)      1853.6  Rx         03A6  8  00 00 00 00 00 00 00 00 
  1040)      1854.1  Rx         04A6  8  12 00 CD E8 12 00 41 22 
  1041)      1854.5  Rx         0227  8  06 00 00 00 00 00 00 00 
  1042)      1857.1  Rx         01A8  8  00 1E 11 01 02 00 00 00 
  1043)      1857.6  Rx         02A8  8  CF 20 78 01 24 00 83 03 
  1044)      1858.1  Rx         03A8  8  00 00 00 00 00 00 00 00 
  1045)      1858.6  Rx         04A8  8  00 00 51 21 12 00 41 00 
  1046)      1859.1  Rx         01A7  8  01 00 00 00 00 00 00 00 
  1047)      1872.7  Rx         01A6  8  20 24 09 00 02 00 00 00 
  1048)      1873.1  Rx         02A6  8  C2 20 1B 00 00 00 00 00 
  1049)      1873.6  Rx         03A6  8  00 00 00 00 00 00 00 00 
  1050)      1874.1  Rx         04A6  8  12 00 CD E8 12 00 41 22 
  1051)      1874.6  Rx         0227  8  06 00 00 00 00 00 00 00 
  1052)      1877.3  Rx         01A8  8  00 1E 11 01 02 00 00 00 
  1053)      1877.8  Rx         02A8  8  CF 20 78 01 27 00 82 03 
  1054)      1878.3  Rx         03A8  8  00 00 00 00 00 00 00 00 
  1055)      1878.8  Rx         04A8  8  00 00 51 21 12 00 41 00 
  1056)      1879.3  Rx         01A7  8  01 00 00 00 00 00 00 00 
  1057)      1892.7  Rx         01A6  8  20 24 09 00 02 00 00 00 
  1058)      1893.2  Rx         02A6  8  C2 20 1B 00 00 00 00 00 
  1059)      1893.7  Rx         03A6  8  00 00 00 00 00 00 00 00 
  1060)      1894.2  Rx         04A6  8  12 00 CD E8 12 00 41 22 
  1061)      1894.7  Rx         0227  8  06 00 00 00 00 00 00 00 
  1062)      1895.2  Rx         038C  8  22 00 A4 52 01 00 54 FF 
  1063)      1895.7  Rx         01AC  8  54 FF A4 52 01 00 00 00 
  1064)      1896.2  Rx         02AC  8  05 22 12 00 99 7B 01 00 
  1065)      1896.6  Rx         048C  8  40 1F CC 1C 01 00 91 00 
  1066)      1897.3  Rx         01A8  8  00 1E 11 01 02 00 00 00 
  1067)      1897.8  Rx         02A8  8  CF 20 7D 01 24 00 85 03 
  1068)      1898.3  Rx         03A8  8  00 00 00 00 00 00 00 00 
  1069)      1898.8  Rx         04A8  8  00 00 51 21 12 00 41 00 
  1070)      1899.3  Rx         01A7  8  01 00 00 00 00 00 00 00 
  1071)      1900.1  Rx         028C  4  00 00 00 00 
  1072)      1912.8  Rx         01A6  8  20 24 09 00 02 00 00 00 
  1073)      1913.3  Rx         02A6  8  C2 20 1C 00 00 00 00 00 
  1074)      1913.8  Rx         03A6  8  00 00 00 00 00 00 00 00 
  1075)      1914.3  Rx         04A6  8  12 00 CD E8 12 00 41 22 
  1076)      1914.8  Rx         0227  8  06 00 00 00 00 00 00 00 
  1077)      1917.4  Rx         01A8  8  00 1E 11 01 02 00 00 00 
  1078)      1917.8  Rx         02A8  8  CF 20 7F 01 26 00 84 03 
  1079)      1918.3  Rx         03A8  8  00 00 00 00 00 00 00 00 
  1080)      1918.8  Rx         04A8  8  00 00 51 21 12 00 41 00 
  1081)      1919.3  Rx         01A7  8  01 00 00 00 00 00 00 00 
  1082)      1930.5  Rx     18FB3030  8  12 00 00 00 10 33 02 21 
  1083)      1931.0  Rx     18FB3130  8  B1 81 12 00 22 00 00 00 
  1084)      1932.9  Rx         01A6  8  20 24 09 00 02 00 00 00 
  1085)      1933.3  Rx         02A6  8  C2 20 1D 00 00 00 00 00 
  1086)      1933.8  Rx         03A6  8  00 00 00 00 00 00 00 00 
  1087)      1934.3  Rx         04A6  8  12 00 CD E8 12 00 41 22 
  1088)      1934.8  Rx         0227  8  06 00 00 00 00 00 00 00 
  1089)      1937.4  Rx         01A8  8  00 1E 11 01 02 00 00 00 
  1090)      1937.9  Rx         02A8  8  CF 20 7F 01 26 00 84 03 
  1091)      1938.4  Rx         03A8  8  00 00 00 00 00 00 00 00 
  1092)      1938.9  Rx         04A8  8  00 00 51 21 12 00 41 00 
  1093)      1939.4  Rx         01A7  8  01 00 00 00 00 00 00 00 
  1094)      1952.9  Rx         01A6  8  20 24 09 00 02 00 00 00 
  1095)      1953.4  Rx         02A6  8  C2 20 1D 00 00 00 00 00 
  1096)      1953.9  Rx         03A6  8  00 00 00 00 00 00 00 00 
  1097)      1954.4  Rx         04A6  8  12 00 CD E8 12 00 41 22 
  1098)      1954.9  Rx         0227  8  06 00 00 00 00 00 00 00 
  1099)      1957.6  Rx         01A8  8  00 1E 11 01 02 00 00 00 
  1100)      1958.1  Rx         02A8  8  CF 20 7E 01 26 00 84 03 
  1101)      1958.6  Rx         03A8  8  00 00 00 00 00 00 00 00 
  1102)      1959.1  Rx         04A8  8  00 00 51 21 12 00 41 00 
  1103)      1959.5  Rx         01A7  8  01 00 00 00 00 00 00 00 
  1104)      1973.0  Rx         01A6  8  20 24 09 00 02 00 00 00 
  1105)      1973.5  Rx         02A6  8  C2 20 1E 00 00 00 00 00 
  1106)      1974.0  Rx         03A6  8  00 00 00 00 00 00 00 00 
  1107)      1974.4  Rx         04A6  8  12 00 CD E8 12 00 41 22 
  1108)      1974.9  Rx         0227  8  06 00 00 00 00 00 00 00 
  1109)      1977.5  Rx     18FECA30  8  00 FF 00 00 00 00 FF FF 
  1110)      1978.0  Rx         02A8  8  CF 20 7E 01 27 00 83 03 
  1111)      1978.5  Rx         03A8  8  00 00 00 00 00 00 00 00 
  1112)      1979.0  Rx         04A8  8  00 00 51 21 12 00 41 00 
  1113)      1979.5  Rx         01A7  8  01 00 00 00 00 00 00 00 
  1114)      1980.0  Rx         01A8  8  00 1E 11 01 02 00 00 00 
  1115)      1993.1  Rx         01A6  8  20 24 09 00 02 00 00 00 
  1116)      1993.5  Rx         02A6  8  C2 20 1C 00 00 00 00 00 
  1117)      1994.0  Rx         03A6  8  00 00 00 00 00 00 00 00 
  1118)      1994.5  Rx         04A6  8  12 00 CD E8 12 00 41 22 
  1119)      1995.0  Rx         0227  8  06 00 00 00 00 00 00 00 
  1120)      1995.5  Rx         01AC  8  54 FF A4 52 01 00 00 00 
  1121)      1996.0  Rx         038C  8  22 00 A4 52 01 00 54 FF 
  1122)      1996.4  Rx         02AC  8  05 22 12 00 99 7B 01 00 
  1123)      1996.9  Rx         048C  8  40 1F CC 1C 01 00 91 00 
  1124)      1997.7  Rx         01A8  8  00 1E 11 01 02 00 00 00 
  1125)      1998.1  Rx         02A8  8  CF 20 7D 01 28 00 84 03 
  1126)      1998.6  Rx         03A8  8  00 00 00 00 00 00 00 00 
  1127)      1999.1  Rx         04A8  8  00 00 51 21 12 00 41 00 
  1128)      1999.6  Rx         01A7  8  01 00 00 00 00 00 00 00 
  1129)      2000.1  Rx         028C  4  00 00 00 00 
  1130)      2013.5  Rx         01A6  8  20 24 09 00 02 00 00 00 
  1131)      2014.0  Rx         02A6  8  C2 20 1C 00 00 00 00 00 
  1132)      2014.5  Rx         03A6  8  00 00 00 00 00 00 00 00 
  1133)      2015.0  Rx         04A6  8  12 00 CD E8 12 00 41 22 
  1134)      2015.5  Rx         0227  8  06 00 00 00 00 00 00 00 
  1135)      2017.8  Rx         01A8  8  00 1E 11 01 02 00 00 00 
  1136)      2018.2  Rx         02A8  8  DB 20 7F 01 26 00 84 03 
  1137)      2018.7  Rx         03A8  8  00 00 00 00 00 00 00 00 
  1138)      2019.2  Rx         04A8  8  00 00 51 21 12 00 41 00 
  1139)      2019.7  Rx         01A7  8  01 00 00 00 00 00 00 00 
  1140)      2029.1  Rx         071C  1  05 
  1141)      2033.2  Rx         01A6  8  20 24 09 00 02 00 00 00 
  1142)      2033.7  Rx         02A6  8  C2 20 1D 00 00 00 00 00 
  1143)      2034.2  Rx         03A6  8  00 00 00 00 00 00 00 00 
  1144)      2034.6  Rx         04A6  8  12 00 CD E8 12 00 41 22 
  1145)      2035.1  Rx         0227  8  06 00 00 00 00 00 00 00 
  1146)      2038.0  Rx         01A8  8  00 1E 11 01 02 00 00 00 
  1147)      2038.4  Rx         02A8  8  CF 20 7F 01 26 00 84 03 
  1148)      2038.9  Rx         03A8  8  00 00 00 00 00 00 00 00 
  1149)      2039.4  Rx         04A8  8  00 00 51 21 12 00 41 00 
  1150)      2039.9  Rx         01A7  8  01 00 00 00 00 00 00 00 
  1151)      2053.2  Rx         01A6  8  20 24 09 00 02 00 00 00 
  1152)      2053.7  Rx         02A6  8  C2 20 1D 00 00 00 00 00 
  1153)      2054.2  Rx         03A6  8  00 00 00 00 00 00 00 00 
  1154)      2054.7  Rx         04A6  8  12 00 CD E8 12 00 41 22 
  1155)      2055.2  Rx         0227  8  06 00 00 00 00 00 00 00 
  1156)      2057.9  Rx         01A8  8  00 1E 11 01 02 00 00 00 
  1157)      2058.4  Rx         02A8  8  DB 20 7D 01 27 00 85 03 
  1158)      2058.9  Rx         03A8  8  00 00 00 00 00 00 00 00 
  1159)      2059.4  Rx         04A8  8  00 00 51 21 12 00 41 00 
  1160)      2059.9  Rx         01A7  8  01 00 00 00 00 00 00 00 
  1161)      2073.3  Rx         01A6  8  20 24 09 00 02 00 00 00 
  1162)      2073.8  Rx         02A6  8  C2 20 20 00 00 00 00 00 
  1163)      2074.3  Rx         03A6  8  00 00 00 00 00 00 00 00 
  1164)      2074.8  Rx         04A6  8  12 00 CD E8 12 00 41 22 
  1165)      2075.3  Rx         0227  8  06 00 00 00 00 00 00 00 
  1166)      2078.0  Rx         01A8  8  00 1E 11 01 02 00 00 00 
  1167)      2078.5  Rx         02A8  8  CF 20 7B 01 27 00 84 03 
  1168)      2079.0  Rx         03A8  8  00 00 00 00 00 00 00 00 
  1169)      2079.5  Rx         04A8  8  00 00 51 21 12 00 41 00 
  1170)      2079.9  Rx         01A7  8  01 00 00 00 00 00 00 00 
  1171)      2093.9  Rx         01A6  8  20 24 09 00 02 00 00 00 
  1172)      2094.4  Rx         02A6  8  C2 20 20 00 00 00 00 00 
  1173)      2094.9  Rx         03A6  8  00 00 00 00 00 00 00 00 
  1174)      2095.4  Rx         01AC  8  54 FF A4 52 01 00 00 00 
  1175)      2095.9  Rx         038C  8  22 00 A4 52 01 00 54 FF 
  1176)      2096.4  Rx         02AC  8  05 22 12 00 99 7B 01 00 
  1177)      2096.8  Rx         048C  8  40 1F CC 1C 01 00 91 00 
  1178)      2097.3  Rx         04A6  8  12 00 CD E8 12 00 41 22 
  1179)      2097.8  Rx         0227  8  06 00 00 00 00 00 00 00 
  1180)      2098.3  Rx         02A8  8  CF 20 7B 01 28 00 87 03 
  1181)      2098.8  Rx         03A8  8  00 00 00 00 00 00 00 00 
  1182)      2099.3  Rx         04A8  8  00 00 51 21 12 00 41 00 
  1183)      2099.8  Rx         01A7  8  01 00 00 00 00 00 00 00 
  1184)      2100.2  Rx         01A8  8  00 1E 11 01 02 00 00 00 
  1185)      2100.6  Rx         028C  4  00 00 00 00 
  1186)      2100.9  Rx         03AC  4  25 20 06 12 
  1187)      2113.4  Rx         01A6  8  20 24 09 00 02 00 00 00 
  1188)      2113.9  Rx         02A6  8  C2 20 20 00 00 00 00 00 
  1189)      2114.4  Rx         03A6  8  00 00 00 00 00 00 00 00 
  1190)      2114.9  Rx         04A6  8  12 00 CD E8 12 00 41 22 
  1191)      2115.4  Rx         0227  8  06 00 00 00 00 00 00 00 
  1192)      2118.2  Rx         01A8  8  00 1E 11 01 02 00 00 00 
  1193)      2118.6  Rx         02A8  8  CF 20 79 01 26 00 84 03 
  1194)      2119.1  Rx         03A8  8  00 00 00 00 00 00 00 00 
  1195)      2119.6  Rx         04A8  8  00 00 51 21 12 00 41 00 
  1196)      2120.1  Rx         01A7  8  01 00 00 00 00 00 00 00 
  1197)      2131.4  Rx     18FB3030  8  12 00 00 00 10 33 02 21 
  1198)      2131.9  Rx     18FB3130  8  B1 81 12 00 22 00 00 00 
  1199)      2134.0  Rx         01A6  8  20 24 09 00 02 00 00 00 
  1200)      2134.5  Rx         02A6  8  C2 20 20 00 00 00 00 00 
  1201)      2135.0  Rx         03A6  8  00 00 00 00 00 00 00 00 
  1202)      2135.4  Rx         04A6  8  12 00 CD E8 12 00 41 22 
  1203)      2135.9  Rx         0227  8  06 00 00 00 00 00 00 00 
  1204)      2138.3  Rx         01A8  8  00 1E 11 01 02 00 00 00 
  1205)      2138.7  Rx         02A8  8  DB 20 79 01 27 00 83 03 
  1206)      2139.2  Rx         03A8  8  00 00 00 00 00 00 00 00 
  1207)      2139.7  Rx         04A8  8  00 00 51 21 12 00 41 00 
  1208)      2140.2  Rx         01A7  8  01 00 00 00 00 00 00 00 
  1209)      2153.9  Rx         01A6  8  20 24 09 00 02 00 00 00 
  1210)      2154.4  Rx         02A6  8  C2 20 20 00 00 00 00 00 
  1211)      2154.9  Rx         03A6  8  00 00 00 00 00 00 00 00 
  1212)      2155.4  Rx         04A6  8  12 00 CD E8 12 00 41 22 
  1213)      2155.9  Rx         0227  8  06 00 00 00 00 00 00 00 
  1214)      2158.3  Rx         01A8  8  00 1E 11 01 02 00 00 00 
  1215)      2158.8  Rx         02A8  8  CF 20 77 01 26 00 84 03 
  1216)      2159.3  Rx         03A8  8  00 00 00 00 00 00 00 00 
  1217)      2159.8  Rx         04A8  8  00 00 51 21 12 00 41 00 
  1218)      2160.3  Rx         01A7  8  01 00 00 00 00 00 00 00 
  1219)      2174.0  Rx         01A6  8  20 24 09 00 02 00 00 00 
  1220)      2174.5  Rx         02A6  8  C2 20 20 00 00 00 00 00 
  1221)      2175.0  Rx         03A6  8  00 00 00 00 00 00 00 00 
  1222)      2175.5  Rx         04A6  8  12 00 CD E8 12 00 41 22 
  1223)      2176.0  Rx         0227  8  06 00 00 00 00 00 00 00 
  1224)      2178.4  Rx         01A8  8  00 1E 11 01 02 00 00 00 
  1225)      2178.9  Rx         02A8  8  CF 20 76 01 25 00 85 03 
  1226)      2179.4  Rx         03A8  8  00 00 00 00 00 00 00 00 
  1227)      2179.9  Rx         04A8  8  00 00 51 21 12 00 41 00 
  1228)      2180.4  Rx         01A7  8  01 00 00 00 00 00 00 00 
  1229)      2193.7  Rx         01A6  8  20 24 09 00 02 00 00 00 
  1230)      2194.2  Rx         02A6  8  C2 20 1F 00 00 00 00 00 
  1231)      2194.7  Rx         03A6  8  00 00 00 00 00 00 00 00 
  1232)      2195.1  Rx         04A6  8  12 00 CD E8 12 00 41 22 
  1233)      2195.6  Rx         01AC  8  54 FF A4 52 01 00 00 00 
  1234)      2196.1  Rx         0227  8  06 00 00 00 00 00 00 00 
  1235)      2196.6  Rx         02AC  8  05 22 12 00 99 7B 01 00 
  1236)      2197.1  Rx         038C  8  22 00 A4 52 01 00 54 FF 
  1237)      2197.5  Rx         048C  8  40 1F CC 1C 01 00 91 00 
  1238)      2198.5  Rx         01A8  8  00 1E 11 01 02 00 00 00 
  1239)      2198.9  Rx         02A8  8  CF 20 76 01 24 00 84 03 
  1240)      2199.4  Rx         03A8  8  00 00 00 00 00 00 00 00 
  1241)      2199.9  Rx         04A8  8  00 00 51 21 12 00 41 00 
  1242)      2200.4  Rx         01A7  8  01 00 00 00 00 00 00 00 
  1243)      2200.8  Rx         028C  4  00 00 00 00 
  1244)      2214.2  Rx         01A6  8  20 24 09 00 02 00 00 00 
  1245)      2214.7  Rx         02A6  8  C2 20 1F 00 00 00 00 00 
  1246)      2215.2  Rx         03A6  8  00 00 00 00 00 00 00 00 
  1247)      2215.7  Rx         04A6  8  12 00 CD E8 12 00 41 22 
  1248)      2216.2  Rx         0227  8  06 00 00 00 00 00 00 00 
  1249)      2218.6  Rx         01A8  8  00 1E 11 01 02 00 00 00 
  1250)      2219.1  Rx         02A8  8  DB 20 78 01 23 00 84 03 
  1251)      2219.6  Rx         03A8  8  00 00 00 00 00 00 00 00 
  1252)      2220.1  Rx         04A8  8  00 00 51 21 12 00 41 00 
  1253)      2220.6  Rx         01A7  8  01 00 00 00 00 00 00 00 
  1254)      2233.8  Rx         01A6  8  20 24 09 00 02 00 00 00 
  1255)      2234.3  Rx         02A6  8  C2 20 1F 00 00 00 00 00 
  1256)      2234.8  Rx         03A6  8  00 00 00 00 00 00 00 00 
  1257)      2235.3  Rx         04A6  8  12 00 CD E8 12 00 41 22 
  1258)      2235.8  Rx         0227  8  06 00 00 00 00 00 00 00 
  1259)      2238.6  Rx         01A8  8  00 1E 11 01 02 00 00 00 
  1260)      2239.1  Rx         02A8  8  DB 20 79 01 28 00 83 03 
  1261)      2239.6  Rx         03A8  8  00 00 00 00 00 00 00 00 
  1262)      2240.1  Rx         04A8  8  00 00 51 21 12 00 41 00 
  1263)      2240.6  Rx         01A7  8  01 00 00 00 00 00 00 00 
  1264)      2254.3  Rx         01A6  8  20 24 09 00 02 00 00 00 
  1265)      2254.8  Rx         02A6  8  C2 20 1F 00 00 00 00 00 
  1266)      2255.3  Rx         03A6  8  00 00 00 00 00 00 00 00 
  1267)      2255.7  Rx         04A6  8  12 00 CD E8 12 00 41 22 
  1268)      2256.2  Rx         0227  8  06 00 00 00 00 00 00 00 
  1269)      2258.8  Rx         01A8  8  00 1E 11 01 02 00 00 00 
  1270)      2259.3  Rx         02A8  8  CF 20 79 01 27 00 84 03 
  1271)      2259.8  Rx         03A8  8  00 00 00 00 00 00 00 00 
  1272)      2260.3  Rx         04A8  8  00 00 51 21 12 00 41 00 
  1273)      2260.8  Rx         01A7  8  01 00 00 00 00 00 00 00 
  1274)      2273.9  Rx         01A6  8  20 24 09 00 02 00 00 00 
  1275)      2274.4  Rx         02A6  8  C2 20 1F 00 00 00 00 00 
  1276)      2274.9  Rx         03A6  8  00 00 00 00 00 00 00 00 
  1277)      2275.4  Rx         04A6  8  12 00 CD E8 12 00 41 22 
  1278)      2275.9  Rx         0227  8  06 00 00 00 00 00 00 00 
  1279)      2278.8  Rx         01A8  8  00 1E 11 01 02 00 00 00 
  1280)      2279.3  Rx         02A8  8  DB 20 79 01 21 00 83 03 
  1281)      2279.8  Rx         03A8  8  00 00 00 00 00 00 00 00 
  1282)      2280.3  Rx         04A8  8  00 00 51 21 12 00 41 00 
  1283)      2280.8  Rx         01A7  8  01 00 00 00 00 00 00 00 
  1284)      2294.5  Rx         01A6  8  20 24 09 00 02 00 00 00 
  1285)      2294.9  Rx         02A6  8  C2 20 1D 00 00 00 00 00 
  1286)      2295.4  Rx         01AC  8  54 FF A4 52 01 00 00 00 
  1287)      2295.9  Rx         038C  8  22 00 A4 52 01 00 54 FF 
  1288)      2296.4  Rx         02AC  8  05 22 12 00 99 7B 01 00 
  1289)      2296.9  Rx         03A6  8  00 00 00 00 00 00 00 00 
  1290)      2297.3  Rx         048C  8  40 1F CC 1C 01 00 91 00 
  1291)      2297.8  Rx         04A6  8  12 00 CD E8 12 00 41 22 
  1292)      2298.3  Rx         0227  8  06 00 00 00 00 00 00 00 
  1293)      2299.0  Rx         01A8  8  00 1E 11 01 02 00 00 00 
  1294)      2299.5  Rx         02A8  8  CF 20 79 01 24 00 86 03 
  1295)      2300.0  Rx         03A8  8  00 00 00 00 00 00 00 00 
  1296)      2300.3  Rx         028C  4  00 00 00 00 
  1297)      2300.8  Rx         04A8  8  00 00 51 21 12 00 41 00 
  1298)      2301.3  Rx         01A7  8  01 00 00 00 00 00 00 00 
  1299)      2314.4  Rx         01A6  8  20 24 09 00 02 00 00 00 
  1300)      2314.9  Rx         02A6  8  C2 20 1D 00 00 00 00 00 
  1301)      2315.4  Rx         03A6  8  00 00 00 00 00 00 00 00 
  1302)      2315.9  Rx         04A6  8  12 00 CD E8 12 00 41 22 
  1303)      2316.4  Rx         0227  8  06 00 00 00 00 00 00 00 
  1304)      2319.0  Rx         01A8  8  00 1E 11 01 02 00 00 00 
  1305)      2319.4  Rx         02A8  8  DB 20 77 01 28 00 83 03 
  1306)      2319.9  Rx         03A8  8  00 00 00 00 00 00 00 00 
  1307)      2320.4  Rx         04A8  8  00 00 51 21 12 00 41 00 
  1308)      2320.9  Rx         01A7  8  01 00 00 00 00 00 00 00 
  1309)      2332.2  Rx     18FB3030  8  12 00 00 00 10 33 02 21 
  1310)      2332.8  Rx     18FB3130  8  B1 81 12 00 22 00 00 00 
  1311)      2334.5  Rx         01A6  8  20 24 09 00 02 00 00 00 
  1312)      2335.0  Rx         02A6  8  C2 20 1D 00 00 00 00 00 
  1313)      2335.5  Rx         03A6  8  00 00 00 00 00 00 00 00 
  1314)      2336.0  Rx         04A6  8  12 00 CD E8 12 00 41 22 
  1315)      2336.5  Rx         0227  8  06 00 00 00 00 00 00 00 
  1316)      2339.1  Rx         01A8  8  00 1E 11 01 02 00 00 00 
  1317)      2339.6  Rx         02A8  8  CF 20 78 01 26 00 82 03 
  1318)      2340.1  Rx         03A8  8  00 00 00 00 00 00 00 00 
  1319)      2340.5  Rx         04A8  8  00 00 51 21 12 00 41 00 
  1320)      2341.0  Rx         01A7  8  01 00 00 00 00 00 00 00 
  1321)      2354.2  Rx         01A6  8  20 24 09 00 02 00 00 00 
  1322)      2354.7  Rx         02A6  8  C2 20 1E 00 00 00 00 00 
  1323)      2355.2  Rx         03A6  8  00 00 00 00 00 00 00 00 
  1324)      2355.6  Rx         04A6  8  12 00 CD E8 12 00 41 22 
  1325)      2356.1  Rx         0227  8  06 00 00 00 00 00 00 00 
  1326)      2359.1  Rx         01A8  8  00 1E 11 01 02 00 00 00 
  1327)      2359.6  Rx         02A8  8  DB 20 78 01 25 00 84 03 
  1328)      2360.1  Rx         03A8  8  00 00 00 00 00 00 00 00 
  1329)      2360.6  Rx         04A8  8  00 00 51 21 12 00 41 00 
  1330)      2361.1  Rx         01A7  8  01 00 00 00 00 00 00 00 
  1331)      2374.7  Rx         01A6  8  20 24 09 00 02 00 00 00 
  1332)      2375.2  Rx         02A6  8  C2 20 1E 00 00 00 00 00 
  1333)      2375.7  Rx         03A6  8  00 00 00 00 00 00 00 00 
  1334)      2376.2  Rx         04A6  8  12 00 CD E8 12 00 41 22 
  1335)      2376.6  Rx         0227  8  06 00 00 00 00 00 00 00 
  1336)      2379.4  Rx         01A8  8  00 1E 11 01 02 00 00 00 
  1337)      2379.9  Rx         02A8  8  CF 20 7D 01 24 00 84 03 
  1338)      2380.4  Rx         03A8  8  00 00 00 00 00 00 00 00 
  1339)      2380.9  Rx         04A8  8  00 00 51 21 12 00 41 00 
  1340)      2381.4  Rx         01A7  8  01 00 00 00 00 00 00 00 
  1341)      2394.3  Rx         01A6  8  20 24 09 00 02 00 00 00 
  1342)      2394.8  Rx         02A6  8  CE 20 1E 00 00 00 00 00 
  1343)      2395.3  Rx         038C  8  22 00 A4 52 01 00 54 FF 
  1344)      2395.7  Rx         01AC  8  54 FF A4 52 01 00 00 00 
  1345)      2396.2  Rx         02AC  8  05 22 12 00 99 7B 01 00 
  1346)      2396.7  Rx         03A6  8  00 00 00 00 00 00 00 00 
  1347)      2397.2  Rx         048C  8  40 1F CC 1C 01 00 91 00 
  1348)      2397.7  Rx         04A6  8  12 00 CD E8 12 00 41 22 
  1349)      2398.2  Rx         0227  8  06 00 00 00 00 00 00 00 
  1350)      2399.3  Rx         01A8  8  00 1E 11 01 02 00 00 00 
  1351)      2399.8  Rx         02A8  8  DB 20 7E 01 28 00 83 03 
  1352)      2400.1  Rx         028C  4  00 00 00 00 
  1353)      2400.6  Rx         03A8  8  00 00 00 00 00 00 00 00 
  1354)      2401.1  Rx         04A8  8  00 00 51 21 12 00 41 00 
  1355)      2401.6  Rx         01A7  8  01 00 00 00 00 00 00 00 
  1356)      2414.3  Rx         01A6  8  20 24 09 00 02 00 00 00 
  1357)      2414.8  Rx         02A6  8  C2 20 1C 00 00 00 00 00 
  1358)      2415.3  Rx         03A6  8  00 00 00 00 00 00 00 00 
  1359)      2415.8  Rx         04A6  8  12 00 CD E8 12 00 41 22 
  1360)      2416.3  Rx         0227  8  06 00 00 00 00 00 00 00 
  1361)      2419.5  Rx         01A8  8  00 1E 11 01 02 00 00 00 
  1362)      2420.0  Rx         02A8  8  DB 20 7E 01 26 00 84 03 
  1363)      2420.5  Rx         03A8  8  00 00 00 00 00 00 00 00 
  1364)      2421.0  Rx         04A8  8  00 00 51 21 12 00 41 00 
  1365)      2421.5  Rx         01A7  8  01 00 00 00 00 00 00 00 
  1366)      2434.4  Rx         01A6  8  20 24 09 00 02 00 00 00 
  1367)      2434.9  Rx         02A6  8  C2 20 1C 00 00 00 00 00 
  1368)      2435.4  Rx         03A6  8  00 00 00 00 00 00 00 00 
  1369)      2435.9  Rx         04A6  8  12 00 CD E8 12 00 41 22 
  1370)      2436.4  Rx         0227  8  06 00 00 00 00 00 00 00 
  1371)      2439.4  Rx         01A8  8  00 1E 11 01 02 00 00 00 
  1372)      2439.9  Rx         02A8  8  CF 20 7F 01 25 00 83 03 
  1373)      2440.4  Rx         03A8  8  00 00 00 00 00 00 00 00 
  1374)      2440.9  Rx         04A8  8  00 00 51 21 12 00 41 00 
  1375)      2441.4  Rx         01A7  8  01 00 00 00 00 00 00 00 
  1376)      2454.9  Rx         01A6  8  20 24 09 00 02 00 00 00 
  1377)      2455.4  Rx         02A6  8  C2 20 1C 00 00 00 00 00 
  1378)      2455.9  Rx         03A6  8  00 00 00 00 00 00 00 00 
  1379)      2456.4  Rx         04A6  8  12 00 CD E8 12 00 41 22 
  1380)      2456.9  Rx         0227  8  06 00 00 00 00 00 00 00 
  1381)      2459.7  Rx         01A8  8  00 1E 11 01 02 00 00 00 
  1382)      2460.1  Rx         02A8  8  DB 20 7F 01 25 00 84 03 
  1383)      2460.6  Rx         03A8  8  00 00 00 00 00 00 00 00 
  1384)      2461.1  Rx         04A8  8  00 00 51 21 12 00 41 00 
  1385)      2461.6  Rx         01A7  8  01 00 00 00 00 00 00 00 
  1386)      2474.9  Rx         01A6  8  20 24 09 00 02 00 00 00 
  1387)      2475.4  Rx         02A6  8  C2 20 1D 00 00 00 00 00 
  1388)      2475.9  Rx         03A6  8  00 00 00 00 00 00 00 00 
  1389)      2476.4  Rx         04A6  8  12 00 CD E8 12 00 41 22 
  1390)      2476.9  Rx         0227  8  06 00 00 00 00 00 00 00 
  1391)      2479.6  Rx         01A8  8  00 1E 11 01 02 00 00 00 
  1392)      2480.1  Rx         02A8  8  CF 20 7F 01 28 00 84 03 
  1393)      2480.6  Rx         03A8  8  00 00 00 00 00 00 00 00 
  1394)      2481.1  Rx         04A8  8  00 00 51 21 12 00 41 00 
  1395)      2481.6  Rx         01A7  8  01 00 00 00 00 00 00 00 
  1396)      2494.6  Rx         01A6  8  20 24 09 00 02 00 00 00 
  1397)      2495.1  Rx         02A6  8  CE 20 1D 00 00 00 00 00 
  1398)      2495.5  Rx         01AC  8  54 FF A4 52 01 00 00 00 
  1399)      2496.0  Rx         038C  8  22 00 A4 52 01 00 54 FF 
  1400)      2496.5  Rx         02AC  8  05 22 12 00 99 7B 01 00 
  1401)      2497.0  Rx         03A6  8  00 00 00 00 00 00 00 00 
  1402)      2497.5  Rx         048C  8  40 1F CC 1C 01 00 91 00 
  1403)      2497.9  Rx         04A6  8  12 00 CD E8 12 00 41 22 
  1404)      2498.4  Rx         0227  8  06 00 00 00 00 00 00 00 
  1405)      2499.8  Rx         01A8  8  00 1E 11 01 02 00 00 00 
  1406)      2500.2  Rx         028C  4  00 00 00 00 
  1407)      2500.6  Rx         02A8  8  DB 20 80 01 29 00 87 03 
  1408)      2501.1  Rx         03A8  8  00 00 00 00 00 00 00 00 
  1409)      2501.6  Rx         04A8  8  00 00 51 21 12 00 41 00 
  1410)      2502.1  Rx         01A7  8  01 00 00 00 00 00 00 00 
  1411)      2514.7  Rx         01A6  8  20 24 09 00 02 00 00 00 
  1412)      2515.1  Rx         02A6  8  CE 20 1E 00 00 00 00 00 
  1413)      2515.7  Rx         03A6  8  00 00 00 00 00 00 00 00 
  1414)      2516.1  Rx         04A6  8  12 00 CD E8 12 00 41 22 
  1415)      2516.6  Rx         0227  8  06 00 00 00 00 00 00 00 
  1416)      2519.8  Rx         01A8  8  00 1E 11 01 02 00 00 00 
  1417)      2520.2  Rx         02A8  8  CF 20 80 01 26 00 85 03 
  1418)      2520.7  Rx         03A8  8  00 00 00 00 00 00 00 00 
  1419)      2521.2  Rx         04A8  8  00 00 51 21 12 00 41 00 
  1420)      2521.7  Rx         01A7  8  01 00 00 00 00 00 00 00 
  1421)      2533.8  Rx     18FB3030  8  12 00 00 00 10 33 02 21 
  1422)      2534.3  Rx     18FB3130  8  B1 81 12 00 22 00 00 00 
  1423)      2534.8  Rx         02A6  8  CE 20 1E 00 00 00 00 00 
  1424)      2535.3  Rx         03A6  8  00 00 00 00 00 00 00 00 
  1425)      2535.8  Rx         04A6  8  12 00 CD E8 12 00 41 22 
  1426)      2536.3  Rx         0227  8  06 00 00 00 00 00 00 00 
  1427)      2536.8  Rx         01A6  8  20 24 09 00 02 00 00 00 
  1428)      2540.0  Rx         01A8  8  00 1E 11 01 02 00 00 00 
  1429)      2540.5  Rx         02A8  8  DB 20 82 01 26 00 83 03 
  1430)      2541.0  Rx         03A8  8  00 00 00 00 00 00 00 00 
  1431)      2541.4  Rx         04A8  8  00 00 51 21 12 00 41 00 
  1432)      2541.9  Rx         01A7  8  01 00 00 00 00 00 00 00 
  1433)      2554.8  Rx         01A6  8  20 24 09 00 02 00 00 00 
  1434)      2555.3  Rx         02A6  8  DA 20 1B 00 00 00 00 00 
  1435)      2555.8  Rx         03A6  8  00 00 00 00 00 00 00 00 
  1436)      2556.3  Rx         04A6  8  12 00 CD E8 12 00 41 22 
  1437)      2556.7  Rx         0227  8  06 00 00 00 00 00 00 00 
  1438)      2559.9  Rx         01A8  8  00 1E 11 01 02 00 00 00 
  1439)      2560.4  Rx         02A8  8  DB 20 84 01 28 00 84 03 
  1440)      2560.9  Rx         03A8  8  00 00 00 00 00 00 00 00 
  1441)      2561.4  Rx         04A8  8  00 00 51 21 12 00 41 00 
  1442)      2561.9  Rx         01A7  8  01 00 00 00 00 00 00 00 
  1443)      2574.8  Rx         01A6  8  20 24 09 00 02 00 00 00 
  1444)      2575.3  Rx         02A6  8  DA 20 1C 00 00 00 00 00 
  1445)      2575.8  Rx         03A6  8  00 00 00 00 00 00 00 00 
  1446)      2576.3  Rx         04A6  8  12 00 CD E8 12 00 41 22 
  1447)      2576.8  Rx         0227  8  06 00 00 00 00 00 00 00 
  1448)      2580.2  Rx         01A8  8  00 1E 11 01 02 00 00 00 
  1449)      2580.6  Rx         02A8  8  DB 20 84 01 28 00 86 03 
  1450)      2581.1  Rx         03A8  8  00 00 00 00 00 00 00 00 
  1451)      2581.6  Rx         04A8  8  00 00 51 21 12 00 41 00 
  1452)      2582.1  Rx         01A7  8  01 00 00 00 00 00 00 00 
  1453)      2594.9  Rx         01A6  8  20 24 09 00 02 00 00 00 
  1454)      2595.4  Rx         01AC  8  54 FF A4 52 01 00 00 00 
  1455)      2595.9  Rx         02A6  8  DA 20 1C 00 00 00 00 00 
  1456)      2596.3  Rx         02AC  8  05 22 12 00 99 7B 01 00 
  1457)      2596.8  Rx         038C  8  22 00 A4 52 01 00 54 FF 
  1458)      2597.3  Rx         03A6  8  00 00 00 00 00 00 00 00 
  1459)      2597.8  Rx         048C  8  40 1F CC 1C 01 00 91 00 
  1460)      2598.3  Rx         04A6  8  12 00 CD E8 12 00 41 22 
  1461)      2598.8  Rx         0227  8  06 00 00 00 00 00 00 00 
  1462)      2600.1  Rx         01A8  8  00 1E 11 01 02 00 00 00 
  1463)      2600.4  Rx         028C  4  00 00 00 00 
  1464)      2600.9  Rx         02A8  8  DB 20 88 01 26 00 84 03 
  1465)      2601.4  Rx         03A8  8  00 00 00 00 00 00 00 00 
  1466)      2601.8  Rx         03AC  4  25 20 06 12 
  1467)      2602.2  Rx         04A8  8  00 00 51 21 12 00 41 00 
  1468)      2602.7  Rx         01A7  8  01 00 00 00 00 00 00 00 
  1469)      2615.0  Rx         01A6  8  20 24 09 00 02 00 00 00 
  1470)      2615.4  Rx         02A6  8  CE 20 1D 00 00 00 00 00 
  1471)      2615.9  Rx         03A6  8  00 00 00 00 00 00 00 00 
  1472)      2616.4  Rx         04A6  8  12 00 CD E8 12 00 41 22 
  1473)      2616.9  Rx         0227  8  06 00 00 00 00 00 00 00 
  1474)      2620.3  Rx         01A8  8  00 1E 11 01 02 00 00 00 
  1475)      2620.7  Rx         02A8  8  E6 20 88 01 28 00 84 03 
  1476)      2621.2  Rx         03A8  8  00 00 00 00 00 00 00 00 
  1477)      2621.7  Rx         04A8  8  00 00 51 21 12 00 41 00 
  1478)      2622.2  Rx         01A7  8  01 00 00 00 00 00 00 00 
  1479)      2635.4  Rx         01A6  8  20 24 09 00 02 00 00 00 
  1480)      2635.9  Rx         02A6  8  C2 20 1D 00 00 00 00 00 
  1481)      2636.4  Rx         03A6  8  00 00 00 00 00 00 00 00 
  1482)      2636.9  Rx         04A6  8  12 00 CD E8 12 00 41 22 
  1483)      2637.4  Rx         0227  8  06 00 00 00 00 00 00 00 
  1484)      2640.3  Rx         01A8  8  00 1E 11 01 02 00 00 00 
  1485)      2640.7  Rx         02A8  8  E6 20 8D 01 20 00 83 03 
  1486)      2641.2  Rx         03A8  8  00 00 00 00 00 00 00 00 
  1487)      2641.7  Rx         04A8  8  00 00 51 21 12 00 41 00 
  1488)      2642.2  Rx         01A7  8  01 00 00 00 00 00 00 00 
  1489)      2655.1  Rx         01A6  8  20 24 09 00 02 00 00 00 
  1490)      2655.6  Rx         02A6  8  CE 20 1D 00 00 00 00 00 
  1491)      2656.1  Rx         03A6  8  00 00 00 00 00 00 00 00 
  1492)      2656.5  Rx         04A6  8  12 00 CD E8 12 00 41 22 
  1493)      2657.0  Rx         0227  8  06 00 00 00 00 00 00 00 
  1494)      2660.5  Rx         01A8  8  00 1E 11 01 02 00 00 00 
  1495)      2660.9  Rx         02A8  8  E6 20 8C 01 24 00 83 03 
  1496)      2661.5  Rx         03A8  8  00 00 00 00 00 00 00 00 
  1497)      2661.9  Rx         04A8  8  00 00 51 21 12 00 41 00 
  1498)      2662.4  Rx         01A7  8  01 00 00 00 00 00 00 00 
  1499)      2675.2  Rx         01A6  8  20 24 09 00 02 00 00 00 
  1500)      2675.7  Rx         02A6  8  CE 20 1E 00 00 00 00 00 
  1501)      2676.2  Rx         03A6  8  00 00 00 00 00 00 00 00 
  1502)      2676.6  Rx         04A6  8  12 00 CD E8 12 00 41 22 
  1503)      2677.1  Rx         0227  8  06 00 00 00 00 00 00 00 
  1504)      2680.4  Rx         01A8  8  00 1E 11 01 02 00 00 00 
  1505)      2680.9  Rx         02A8  8  E6 20 8C 01 27 00 84 03 
  1506)      2681.4  Rx         03A8  8  00 00 00 00 00 00 00 00 
  1507)      2681.9  Rx         04A8  8  00 00 51 21 12 00 41 00 
  1508)      2682.4  Rx         01A7  8  01 00 00 00 00 00 00 00 
  1509)      2695.2  Rx         038C  8  22 00 A4 52 01 00 54 FF 
  1510)      2695.6  Rx         01AC  8  54 FF A4 52 01 00 00 00 
  1511)      2696.1  Rx         02A6  8  DA 20 1E 00 00 00 00 00 
  1512)      2696.6  Rx         02AC  8  05 22 12 00 99 7B 01 00 
  1513)      2697.1  Rx         03A6  8  00 00 00 00 00 00 00 00 
  1514)      2697.6  Rx         048C  8  40 1F CC 1C 01 00 91 00 
