;$FILEVERSION=1.1
;$STARTTIME=43971.4525877199
;
;   C:\Users\eric.baril\Documents\UPSregen_CAN2_J1939.trc
;
;   Start time: 2020-05-20 10:51:43.579.0
;   Generated by PCAN-View v4.2.5.569
;
;   Message Number
;   |         Time Offset (ms)
;   |         |        Type
;   |         |        |        ID (hex)
;   |         |        |        |     Data Length
;   |         |        |        |     |   Data Bytes (hex) ...
;   |         |        |        |     |   |
;---+--   ----+----  --+--  ----+---  +  -+ -- -- -- -- -- -- --
     1)      4120.6  Error      0004  4  01 02 01 00
     2)      4120.6  Error      0008  4  01 13 09 00
     3)      5107.5  Error      0004  4  01 02 0A 00
     4)      5107.5  Error      0008  4  01 13 12 00
     5)      5122.8  Rx     14FDEE60  8  00 00 00 00 00 00 FF FF 
     6)      5122.8  Error      0000  4  00 00 11 00
     7)      5129.6  Rx     14FDED03  8  01 01 01 00 00 00 00 00 
     8)      5129.6  Error      0000  4  00 00 10 00
     9)      5130.2  Rx     14FDEC03  8  00 00 00 00 00 00 00 00 
    10)      5130.2  Error      0000  4  00 00 0F 00
    11)      5130.7  Rx     14FDFD03  8  00 00 00 00 00 02 00 00 
    12)      5130.8  Error      0000  4  00 00 0E 00
    13)      5131.3  Rx     14FDFC03  8  00 00 00 00 00 00 00 00 
    14)      5131.4  Error      0000  4  00 00 0D 00
    15)      5133.0  Rx     14FDEB60  8  25 C9 82 5C 98 26 00 0F 
    16)      5133.0  Error      0000  4  00 00 0C 00
    17)      5146.1  Rx     14FDFE5E  8  00 00 00 00 00 00 FF FF 
    18)      5146.1  Error      0000  4  00 00 0B 00
    19)      5156.1  Rx     14FDFB5E  8  25 C9 72 5C 97 25 C1 2F 
    20)      5156.2  Error      0000  4  00 00 0A 00
    21)      5159.0  Rx     18FF9A66  8  00 00 00 00 00 00 00 00 
    22)      5159.0  Error      0000  4  00 00 09 00
    23)      5164.9  Rx     1C426A03  8  04 00 8A 00 08 00 00 37 
    24)      5164.9  Error      0000  4  00 00 08 00
    25)      5165.5  Rx     1C426F03  8  04 00 00 00 00 00 00 00 
    26)      5165.5  Error      0000  4  00 00 07 00
    27)      5174.0  Rx     14FDEE60  8  00 00 00 00 00 00 FF FF 
    28)      5174.0  Error      0000  4  00 00 06 00
    29)      5184.1  Rx     14FDEB60  8  25 C9 82 5C 98 26 00 0F 
    30)      5184.1  Error      0000  4  00 00 05 00
    31)      5193.2  Rx     14FDFE5E  8  00 00 00 00 00 00 FF FF 
    32)      5193.2  Error      0000  4  00 00 04 00
    33)      5203.3  Rx     14FDFB5E  8  25 C9 72 5C 97 25 C1 2F 
    34)      5203.3  Error      0000  4  00 00 03 00
    35)      5209.9  Rx     18FF9A66  8  00 00 00 00 00 00 00 00 
    36)      5209.9  Error      0000  4  00 00 02 00
    37)      5225.2  Rx     14FDEE60  8  00 00 00 00 00 00 FF FF 
    38)      5225.2  Error      0000  4  00 00 01 00
    39)      5235.3  Rx     14FDEB60  8  25 C9 82 5C 98 26 00 0F 
    40)      5235.3  Error      0000  4  00 00 00 00
    41)      5241.5  Rx     14FDFE5E  8  00 00 00 00 00 00 FF FF 
    42)      5251.6  Rx     14FDFB5E  8  25 C9 72 5C 97 25 C1 2F 
    43)      5260.7  Rx     18FF9A66  8  00 00 00 00 00 00 00 00 
    44)      5268.1  Rx     1C426A03  8  04 00 8A 00 08 00 00 37 
    45)      5268.6  Rx     1C426F03  8  04 00 00 00 00 00 00 00 
    46)      5269.2  Rx     14FDED03  8  00 01 00 00 00 00 00 00 
    47)      5269.8  Rx     14FDEC03  8  00 00 00 00 00 00 00 00 
    48)      5270.4  Rx     14FDFD03  8  00 00 00 00 00 02 00 00 
    49)      5271.0  Rx     14FDFC03  8  00 00 00 00 00 00 00 00 
    50)      5276.4  Rx     14FDEE60  8  00 00 00 00 00 00 FF FF 
    51)      5286.6  Rx     14FDEB60  8  25 C9 82 5C 98 26 00 0F 
    52)      5292.7  Rx     14FDFE5E  8  00 00 00 00 00 00 FF FF 
    53)      5302.8  Rx     14FDFB5E  8  25 C9 72 5C 97 25 C1 2F 
    54)      5311.7  Rx     18FF9A66  8  00 00 00 00 00 00 00 00 
    55)      5327.6  Rx     14FDEE60  8  00 00 00 00 00 00 FF FF 
    56)      5337.7  Rx     14FDEB60  8  25 C9 82 5C 98 26 00 0F 
    57)      5343.9  Rx     14FDFE5E  8  00 00 00 00 00 00 FF FF 
    58)      5354.0  Rx     14FDFB5E  8  25 C9 72 5C 97 25 C1 2F 
    59)      5362.8  Rx     18FF9A66  8  00 00 00 00 00 00 00 00 
    60)      5370.8  Rx     1C426A03  8  02 00 8A 00 08 00 00 37 
    61)      5371.4  Rx     1C426F03  8  04 00 00 00 00 00 00 00 
    62)      5378.8  Rx     14FDEE60  8  00 00 00 00 00 00 FF FF 
    63)      5388.9  Rx     14FDEB60  8  25 C9 82 5C 98 26 00 0F 
    64)      5395.1  Rx     14FDFE5E  8  00 00 00 00 00 00 FF FF 
    65)      5405.2  Rx     14FDFB5E  8  25 C9 72 5C 97 25 C1 2F 
    66)      5406.8  Rx     14FDED03  8  00 01 00 00 00 00 00 00 
    67)      5407.3  Rx     14FDEC03  8  00 00 00 00 00 00 00 00 
    68)      5407.9  Rx     14FDFD03  8  00 00 00 00 00 02 00 00 
    69)      5408.5  Rx     14FDFC03  8  00 00 00 00 00 00 00 00 
    70)      5414.0  Rx     18FF9A66  8  00 00 00 00 00 00 00 00 
    71)      5430.0  Rx     14FDEE60  8  00 00 00 00 00 00 FF FF 
    72)      5440.1  Rx     14FDEB60  8  25 C9 82 5C 98 26 00 0F 
    73)      5452.2  Rx     14FDFE5E  8  00 00 00 00 00 00 FF FF 
    74)      5462.3  Rx     14FDFB5E  8  25 C9 72 5C 97 25 C1 2F 
    75)      5464.8  Rx     18FF9A66  8  00 00 00 00 00 00 00 00 
    76)      5474.7  Rx     1C426A03  8  02 00 8A 00 08 00 00 37 
    77)      5475.2  Rx     1C426F03  8  03 00 00 00 00 00 00 00 
    78)      5481.2  Rx     14FDEE60  8  00 00 00 00 00 00 FF FF 
    79)      5491.3  Rx     14FDEB60  8  25 C9 82 5C 98 26 00 0F 
    80)      5499.3  Rx     14FDFE5E  8  00 00 00 00 00 00 FF FF 
    81)      5509.4  Rx     14FDFB5E  8  25 C9 72 5C 97 25 C1 2F 
    82)      5515.8  Rx     18FF9A66  8  00 00 00 00 00 00 00 00 
    83)      5532.4  Rx     14FDEE60  8  00 00 00 00 00 00 FF FF 
    84)      5542.5  Rx     14FDEB60  8  25 C9 82 5C 98 26 00 0F 
    85)      5544.0  Rx     14FDED03  8  00 01 00 00 00 00 00 00 
    86)      5544.5  Rx     14FDEC03  8  00 00 00 00 00 00 00 00 
    87)      5545.1  Rx     14FDFD03  8  00 00 00 00 00 02 00 00 
    88)      5545.7  Rx     14FDFC03  8  00 00 00 00 00 00 00 00 
    89)      5548.8  Rx     14FDFE5E  8  00 00 00 00 00 00 FF FF 
    90)      5551.8  Rx     18EF0031  8  F2 31 FF FF DF FF FF FF 
    91)      5554.3  Rx     18E00031  8  FF FF FF FF FF F0 FF FF 
    92)      5558.9  Rx     14FDFB5E  8  25 C9 72 5C 97 25 C1 2F 
    93)      5567.0  Rx     18FF9A66  8  00 00 00 00 00 00 00 00 
    94)      5578.5  Rx     1C426A03  8  02 00 8A 00 08 00 00 37 
    95)      5579.1  Rx     1C426F03  8  01 00 00 00 00 00 00 00 
    96)      5583.6  Rx     14FDEE60  8  00 00 00 00 00 00 FF FF 
    97)      5593.7  Rx     14FDEB60  8  25 C9 82 5C 98 26 00 0F 
    98)      5605.8  Rx     14FDFE5E  8  00 00 00 00 00 00 FF FF 
    99)      5615.9  Rx     14FDFB5E  8  25 C9 72 5C 97 25 C1 2F 
   100)      5617.9  Rx     18FF9A66  8  00 00 00 00 00 00 00 00 
   101)      5634.8  Rx     14FDEE60  8  00 00 00 00 00 00 FF FF 
   102)      5644.9  Rx     14FDEB60  8  25 C9 82 5C 98 26 00 0F 
   103)      5653.0  Rx     14FDFE5E  8  00 00 00 00 00 00 FF FF 
   104)      5663.0  Rx     14FDFB5E  8  25 C9 72 5C 97 25 C1 2F 
   105)      5669.1  Rx     18FF9A66  8  00 00 00 00 00 00 00 00 
   106)      5682.2  Rx     1C426A03  8  02 00 8A 00 08 00 00 37 
   107)      5682.8  Rx     1C426F03  8  03 00 00 00 00 00 00 00 
   108)      5683.3  Rx     14FDED03  8  01 01 01 00 00 00 00 00 
   109)      5683.9  Rx     14FDEC03  8  00 00 00 00 00 00 00 00 
   110)      5684.5  Rx     14FDFD03  8  00 00 00 00 00 02 00 00 
   111)      5685.1  Rx     14FDFC03  8  00 00 00 00 00 00 00 00 
   112)      5686.1  Rx     14FDEE60  8  00 00 00 00 00 00 FF FF 
   113)      5696.2  Rx     14FDEB60  8  25 C9 82 5C 98 26 00 0F 
   114)      5702.3  Rx     14FDFE5E  8  00 00 00 00 00 00 FF FF 
   115)      5712.4  Rx     14FDFB5E  8  25 C9 72 5C 97 25 C1 2F 
   116)      5719.7  Rx     18FF9A66  8  00 00 00 00 00 00 00 00 
   117)      5744.1  Rx     14FDEE60  8  00 00 00 00 00 00 FF FF 
   118)      5753.5  Rx     14FDFE5E  8  00 00 00 00 00 00 FF FF 
   119)      5754.3  Rx     14FDEB60  8  25 C9 82 5C 98 26 00 0F 
   120)      5763.6  Rx     14FDFB5E  8  25 C9 72 5C 97 25 C1 2F 
   121)      5770.9  Rx     18FF9A66  8  00 00 00 00 00 00 00 00 
   122)      5785.2  Rx     1C426A03  8  02 00 8A 00 08 00 00 37 
   123)      5785.8  Rx     1C426F03  8  03 00 00 00 00 00 00 00 
   124)      5791.2  Rx     14FDEE60  8  00 00 00 00 00 00 FF FF 
   125)      5801.3  Rx     14FDEB60  8  25 C9 82 5C 98 26 00 0F 
   126)      5804.7  Rx     14FDFE5E  8  00 00 00 00 00 00 FF FF 
   127)      5814.8  Rx     14FDFB5E  8  25 C9 72 5C 97 25 C1 2F 
   128)      5818.9  Rx     14FDED03  8  01 01 01 00 00 00 00 00 
   129)      5819.5  Rx     14FDEC03  8  00 00 00 00 00 00 00 00 
   130)      5820.1  Rx     14FDFD03  8  00 00 00 00 00 02 00 00 
   131)      5820.7  Rx     14FDFC03  8  00 00 00 00 00 00 00 00 
   132)      5821.9  Rx     18FF9A66  8  00 00 00 00 00 00 00 00 
   133)      5839.6  Rx     14FDEE60  8  00 00 00 00 00 00 FF FF 
   134)      5849.7  Rx     14FDEB60  8  25 C9 82 5C 98 26 00 0F 
   135)      5855.9  Rx     14FDFE5E  8  00 00 00 00 00 00 FF FF 
   136)      5866.0  Rx     14FDFB5E  8  25 C9 72 5C 97 25 C1 2F 
   137)      5873.2  Rx     18FF9A66  8  00 00 00 00 00 00 00 00 
   138)      5888.0  Rx     0CFF6503  8  05 20 37 00 00 00 00 00 
   139)      5888.6  Rx     0CFF6B03  8  71 02 00 00 00 00 00 00 
   140)      5889.1  Rx     1C426A03  8  04 00 8A 00 08 00 00 37 
   141)      5889.7  Rx     1C426F03  8  02 00 00 00 00 00 00 00 
   142)      5890.3  Rx     1C426B03  8  01 07 07 01 0F 02 01 1E 
   143)      5890.9  Rx     14FDEE60  8  00 00 00 00 00 00 FF FF 
   144)      5901.0  Rx     14FDEB60  8  25 C9 82 5C 98 26 00 0F 
   145)      5914.1  Rx     14FDFE5E  8  00 00 00 00 00 00 FF FF 
   146)      5924.0  Rx     18FF9A66  8  00 00 00 00 00 00 00 00 
   147)      5924.5  Rx     14FDFB5E  8  25 C9 72 5C 97 25 C1 2F 
   148)      5942.0  Rx     14FDEE60  8  00 00 00 00 00 00 FF FF 
   149)      5952.1  Rx     14FDEB60  8  25 C9 82 5C 98 26 00 0F 
   150)      5957.3  Rx     14FDED03  8  01 01 01 00 00 00 00 00 
   151)      5957.9  Rx     14FDEC03  8  00 00 00 00 00 00 00 00 
   152)      5958.5  Rx     14FDFD03  8  00 00 00 00 00 02 00 00 
   153)      5959.1  Rx     14FDFC03  8  00 00 00 00 00 00 00 00 
   154)      5961.3  Rx     14FDFE5E  8  00 00 00 00 00 00 FF FF 
   155)      5971.4  Rx     14FDFB5E  8  25 C9 72 5C 97 25 C1 2F 
   156)      5974.8  Rx     18FF9A66  8  00 00 00 00 00 00 00 00 
   157)      5991.9  Rx     1C426A03  8  06 00 8A 00 08 00 00 37 
   158)      5992.5  Rx     1C426F03  8  04 00 00 00 00 00 00 00 
   159)      6000.2  Rx     14FDEE60  8  00 00 00 00 00 00 FF FF 
   160)      6010.3  Rx     14FDEB60  8  25 C9 82 5C 98 26 00 0F 
   161)      6017.6  Rx     14FDFE5E  8  00 00 00 00 00 00 FF FF 
   162)      6026.1  Rx     18FF9A66  8  00 00 00 00 00 00 00 00 
   163)      6027.7  Rx     14FDFB5E  8  25 C9 72 5C 97 25 C1 2F 
   164)      6047.3  Rx     14FDEE60  8  00 00 00 00 00 00 FF FF 
   165)      6057.4  Rx     14FDEB60  8  25 C9 82 5C 98 26 00 0F 
   166)      6064.7  Rx     14FDFE5E  8  00 00 00 00 00 00 FF FF 
   167)      6074.8  Rx     14FDFB5E  8  25 C9 72 5C 97 25 C1 2F 
   168)      6076.8  Rx     18FF9A66  8  00 00 00 00 00 00 00 00 
   169)      6078.0  Rx     1C426C03  8  08 01 1F 07 01 20 02 01 
   170)      6078.6  Rx     1C426D03  8  21 08 01 22 02 01 23 07 
   171)      6079.2  Rx     1C426E03  8  01 24 03 01 40 01 00 00 
   172)      6095.7  Rx     14FDEE60  8  00 00 00 00 00 00 FF FF 
   173)      6096.2  Rx     1C426A03  8  04 00 8A 00 08 00 00 37 
   174)      6096.8  Rx     1C426F03  8  04 00 00 00 00 00 00 00 
   175)      6097.4  Rx     14FDED03  8  01 01 01 00 00 00 00 00 
   176)      6098.0  Rx     14FDEC03  8  00 00 00 00 00 00 00 00 
   177)      6098.6  Rx     14FDFD03  8  00 00 00 00 00 02 00 00 
   178)      6099.2  Rx     14FDFC03  8  00 00 00 00 00 00 00 00 
   179)      6105.8  Rx     14FDEB60  8  25 C9 82 5C 98 26 00 0F 
   180)      6112.0  Rx     14FDFE5E  8  00 00 00 00 00 00 FF FF 
   181)      6122.1  Rx     14FDFB5E  8  25 C9 72 5C 97 25 C1 2F 
   182)      6128.1  Rx     18FF9A66  8  00 00 00 00 00 00 00 00 
   183)      6146.9  Rx     14FDEE60  8  00 00 00 00 00 00 FF FF 
   184)      6157.0  Rx     14FDEB60  8  25 C9 82 5C 98 26 00 0F 
   185)      6163.2  Rx     14FDFE5E  8  00 00 00 00 00 00 FF FF 
   186)      6173.3  Rx     14FDFB5E  8  25 C9 72 5C 97 25 C1 2F 
   187)      6179.1  Rx     18FF9A66  8  00 00 00 00 00 00 00 00 
   188)      6198.1  Rx     14FDEE60  8  00 00 00 00 00 00 FF FF 
   189)      6199.0  Rx     1C426A03  8  06 00 8A 00 08 00 00 37 
   190)      6199.6  Rx     1C426F03  8  03 00 00 00 00 00 00 00 
   191)      6208.2  Rx     14FDEB60  8  25 C9 82 5C 98 26 00 0F 
   192)      6220.3  Rx     14FDFE5E  8  00 00 00 00 00 00 FF FF 
   193)      6229.8  Rx     18FF9A66  8  00 00 00 00 00 00 00 00 
   194)      6230.4  Rx     14FDFB5E  8  25 C9 72 5C 97 25 C1 2F 
   195)      6233.3  Rx     14FDED03  8  00 01 00 00 00 00 00 00 
   196)      6233.9  Rx     14FDEC03  8  00 00 00 00 00 00 00 00 
   197)      6234.5  Rx     14FDFD03  8  00 00 00 00 00 02 00 00 
   198)      6235.1  Rx     14FDFC03  8  00 00 00 00 00 00 00 00 
   199)      6249.3  Rx     14FDEE60  8  00 00 00 00 00 00 FF FF 
   200)      6259.4  Rx     14FDEB60  8  25 C9 82 5C 98 26 00 0F 
   201)      6267.4  Rx     14FDFE5E  8  00 00 00 00 00 00 FF FF 
   202)      6277.5  Rx     14FDFB5E  8  25 C9 72 5C 97 25 C1 2F 
   203)      6281.2  Rx     18FF9A66  8  00 00 00 00 00 00 00 00 
   204)      6302.6  Rx     1C426A03  8  06 00 8A 00 08 00 00 37 
   205)      6303.2  Rx     1C426F03  8  03 00 00 00 00 00 00 00 
   206)      6309.5  Rx     14FDEE60  8  00 00 00 00 00 00 FF FF 
   207)      6316.8  Rx     14FDFE5E  8  00 00 00 00 00 00 FF FF 
   208)      6319.6  Rx     14FDEB60  8  25 C9 82 5C 98 26 00 0F 
   209)      6326.9  Rx     14FDFB5E  8  25 C9 72 5C 97 25 C1 2F 
   210)      6332.1  Rx     18FF9A66  8  00 00 00 00 00 00 00 00 
   211)      6356.6  Rx     14FDEE60  8  00 00 00 00 00 00 FF FF 
   212)      6366.7  Rx     14FDEB60  8  25 C9 82 5C 98 26 00 0F 
   213)      6368.0  Rx     14FDFE5E  8  00 00 00 00 00 00 FF FF 
   214)      6372.2  Rx     14FDED03  8  00 01 00 00 00 00 00 00 
   215)      6372.8  Rx     14FDEC03  8  00 00 00 00 00 00 00 00 
   216)      6373.4  Rx     14FDFD03  8  00 00 00 00 00 02 00 00 
   217)      6373.9  Rx     14FDFC03  8  00 00 00 00 00 00 00 00 
   218)      6378.2  Rx     14FDFB5E  8  25 C9 72 5C 97 25 C1 2F 
   219)      6382.9  Rx     18FF9A66  8  00 00 00 00 00 00 00 00 
   220)      6403.7  Rx     14FDEE60  8  00 00 00 00 00 00 FF FF 
   221)      6405.5  Rx     1C426A03  8  04 00 8A 00 08 00 00 37 
   222)      6406.0  Rx     1C426F03  8  03 00 00 00 00 00 00 00 
   223)      6413.8  Rx     14FDEB60  8  25 C9 82 5C 98 26 00 0F 
   224)      6419.2  Rx     14FDFE5E  8  00 00 00 00 00 00 FF FF 
   225)      6429.3  Rx     14FDFB5E  8  25 C9 72 5C 97 25 C1 2F 
   226)      6433.9  Rx     18FF9A66  8  00 00 00 00 00 00 00 00 
   227)      6454.1  Rx     14FDEE60  8  00 00 00 00 00 00 FF FF 
   228)      6464.2  Rx     14FDEB60  8  25 C9 82 5C 98 26 00 0F 
   229)      6470.4  Rx     14FDFE5E  8  00 00 00 00 00 00 FF FF 
   230)      6480.5  Rx     14FDFB5E  8  25 C9 72 5C 97 25 C1 2F 
   231)      6485.2  Rx     18FF9A66  8  00 00 00 00 00 00 00 00 
   232)      6505.3  Rx     14FDEE60  8  00 00 00 00 00 00 FF FF 
   233)      6508.8  Rx     1C426A03  8  06 00 8A 00 08 00 00 37 
   234)      6509.4  Rx     1C426F03  8  04 00 00 00 00 00 00 00 
   235)      6510.0  Rx     14FDED03  8  00 01 00 00 00 00 00 00 
   236)      6510.6  Rx     14FDEC03  8  00 00 00 00 00 00 00 00 
   237)      6511.2  Rx     14FDFD03  8  00 00 00 00 00 02 00 00 
   238)      6511.8  Rx     14FDFC03  8  00 00 00 00 00 00 00 00 
   239)      6515.5  Rx     14FDEB60  8  25 C9 82 5C 98 26 00 0F 
   240)      6521.6  Rx     14FDFE5E  8  00 00 00 00 00 00 FF FF 
   241)      6531.7  Rx     14FDFB5E  8  25 C9 72 5C 97 25 C1 2F 
   242)      6536.0  Rx     18FF9A66  8  00 00 00 00 00 00 00 00 
   243)      6553.0  Rx     18EF0031  8  F2 31 FF FF DF FF FF FF 
   244)      6554.9  Rx     18E00031  8  FF FF FF FF FF F0 FF FF 
   245)      6556.5  Rx     14FDEE60  8  00 00 00 00 00 00 FF FF 
   246)      6566.6  Rx     14FDEB60  8  25 C9 82 5C 98 26 00 0F 
   247)      6578.7  Rx     14FDFE5E  8  00 00 00 00 00 00 FF FF 
   248)      6586.9  Rx     18FF9A66  8  00 00 00 00 00 00 00 00 
   249)      6588.8  Rx     14FDFB5E  8  25 C9 72 5C 97 25 C1 2F 
   250)      6613.0  Rx     1C426A03  8  02 00 8A 00 08 00 00 37 
   251)      6613.5  Rx     1C426F03  8  04 00 00 00 00 00 00 00 
   252)      6614.1  Rx     14FDEE60  8  00 00 00 00 00 00 FF FF 
   253)      6623.7  Rx     14FDEB60  8  25 C9 82 5C 98 26 00 0F 
   254)      6625.8  Rx     14FDFE5E  8  00 00 00 00 00 00 FF FF 
   255)      6635.9  Rx     14FDFB5E  8  25 C9 72 5C 97 25 C1 2F 
   256)      6638.1  Rx     18FF9A66  8  00 00 00 00 00 00 00 00 
   257)      6647.0  Rx     14FDED03  8  01 01 01 00 00 00 00 00 
   258)      6647.6  Rx     14FDEC03  8  00 00 00 00 00 00 00 00 
   259)      6648.1  Rx     14FDFD03  8  00 00 00 00 00 02 00 00 
   260)      6648.7  Rx     14FDFC03  8  00 00 00 00 00 00 00 00 
   261)      6660.7  Rx     14FDEE60  8  00 00 00 00 00 00 FF FF 
   262)      6670.8  Rx     14FDEB60  8  25 C9 82 5C 98 26 00 0F 
   263)      6675.2  Rx     14FDFE5E  8  00 00 00 00 00 00 FF FF 
   264)      6685.3  Rx     14FDFB5E  8  25 C9 72 5C 97 25 C1 2F 
   265)      6689.4  Rx     18FF9A66  8  00 00 00 00 00 00 00 00 
   266)      6710.1  Rx     14FDEE60  8  00 00 00 00 00 00 FF FF 
   267)      6716.2  Rx     1C426A03  8  02 00 8A 00 08 00 00 37 
   268)      6716.8  Rx     1C426F03  8  04 00 00 00 00 00 00 00 
   269)      6720.2  Rx     14FDEB60  8  25 C9 82 5C 98 26 00 0F 
   270)      6726.4  Rx     14FDFE5E  8  00 00 00 00 00 00 FF FF 
   271)      6736.5  Rx     14FDFB5E  8  25 C9 72 5C 97 25 C1 2F 
   272)      6740.0  Rx     18FF9A66  8  00 00 00 00 00 00 00 00 
   273)      6761.3  Rx     14FDEE60  8  00 00 00 00 00 00 FF FF 
   274)      6771.4  Rx     14FDEB60  8  25 C9 82 5C 98 26 00 0F 
   275)      6784.6  Rx     14FDFE5E  8  00 00 00 00 00 00 FF FF 
   276)      6785.1  Rx     14FDED03  8  01 01 01 00 00 00 00 00 
   277)      6785.7  Rx     14FDEC03  8  00 00 00 00 00 00 00 00 
   278)      6786.3  Rx     14FDFD03  8  00 00 00 00 00 02 00 00 
   279)      6786.9  Rx     14FDFC03  8  00 00 00 00 00 00 00 00 
   280)      6791.1  Rx     18FF9A66  8  00 00 00 00 00 00 00 00 
   281)      6794.7  Rx     14FDFB5E  8  25 C9 72 5C 97 25 C1 2F 
   282)      6818.4  Rx     14FDEE60  8  00 00 00 00 00 00 FF FF 
   283)      6819.8  Rx     1C426A03  8  04 00 8A 00 08 00 00 37 
   284)      6820.4  Rx     1C426F03  8  03 00 00 00 00 00 00 00 
   285)      6828.5  Rx     14FDEB60  8  25 C9 82 5C 98 26 00 0F 
   286)      6831.7  Rx     14FDFE5E  8  00 00 00 00 00 00 FF FF 
   287)      6841.7  Rx     14FDFB5E  8  25 C9 72 5C 97 25 C1 2F 
   288)      6842.3  Rx     18FF9A66  8  00 00 00 00 00 00 00 00 
   289)      6865.5  Rx     14FDEE60  8  00 00 00 00 00 00 FF FF 
   290)      6875.6  Rx     14FDEB60  8  25 C9 82 5C 98 26 00 0F 
   291)      6880.0  Rx     14FDFE5E  8  00 00 00 00 00 00 FF FF 
   292)      6888.7  Rx     0CFF6503  8  05 20 37 00 00 00 00 00 
   293)      6889.3  Rx     0CFF6B03  8  71 02 00 00 00 00 00 00 
   294)      6889.9  Rx     1C426B03  8  01 07 07 01 0F 02 01 1E 
   295)      6890.4  Rx     14FDFB5E  8  25 C9 72 5C 97 25 C1 2F 
   296)      6893.1  Rx     18FF9A66  8  00 00 00 00 00 00 00 00 
   297)      6914.9  Rx     14FDEE60  8  00 00 00 00 00 00 FF FF 
   298)      6922.6  Rx     1C426A03  8  02 00 8A 00 08 00 00 37 
   299)      6923.2  Rx     1C426F03  8  03 00 00 00 00 00 00 00 
   300)      6923.8  Rx     14FDED03  8  01 01 01 00 00 00 00 00 
   301)      6924.3  Rx     14FDEC03  8  00 00 00 00 00 00 00 00 
   302)      6924.9  Rx     14FDFD03  8  00 00 00 00 00 02 00 00 
   303)      6925.5  Rx     14FDEB60  8  25 C9 82 5C 98 26 00 0F 
   304)      6926.1  Rx     14FDFC03  8  00 00 00 00 00 00 00 00 
   305)      6931.3  Rx     14FDFE5E  8  00 00 00 00 00 00 FF FF 
   306)      6941.3  Rx     14FDFB5E  8  25 C9 72 5C 97 25 C1 2F 
   307)      6944.1  Rx     18FF9A66  8  00 00 00 00 00 00 00 00 
   308)      6972.0  Rx     14FDEE60  8  00 00 00 00 00 00 FF FF 
   309)      6982.1  Rx     14FDEB60  8  25 C9 82 5C 98 26 00 0F 
   310)      6989.3  Rx     14FDFE5E  8  00 00 00 00 00 00 FF FF 
   311)      6995.2  Rx     18FF9A66  8  00 00 00 00 00 00 00 00 
   312)      6999.4  Rx     14FDFB5E  8  25 C9 72 5C 97 25 C1 2F 
   313)      7019.1  Rx     14FDEE60  8  00 00 00 00 00 00 FF FF 
   314)      7025.5  Rx     1C426A03  8  04 00 8A 00 08 00 00 37 
   315)      7026.0  Rx     1C426F03  8  03 00 00 00 00 00 00 00 
   316)      7029.2  Rx     14FDEB60  8  25 C9 82 5C 98 26 00 0F 
   317)      7036.4  Rx     14FDFE5E  8  00 00 00 00 00 00 FF FF 
   318)      7046.0  Rx     18FF9A66  8  00 00 00 00 00 00 00 00 
   319)      7046.6  Rx     14FDFB5E  8  25 C9 72 5C 97 25 C1 2F 
   320)      7061.0  Rx     14FDED03  8  01 01 01 00 00 00 00 00 
   321)      7061.5  Rx     14FDEC03  8  00 00 00 00 00 00 00 00 
   322)      7062.1  Rx     14FDFD03  8  00 00 00 00 00 02 00 00 
   323)      7062.7  Rx     14FDFC03  8  00 00 00 00 00 00 00 00 
   324)      7075.4  Rx     14FDEE60  8  00 00 00 00 00 00 FF FF 
   325)      7084.8  Rx     14FDFE5E  8  00 00 00 00 00 00 FF FF 
   326)      7085.5  Rx     14FDEB60  8  25 C9 82 5C 98 26 00 0F 
   327)      7094.2  Rx     1C426C03  8  08 01 1F 07 01 20 02 01 
   328)      7094.7  Rx     1C426D03  8  21 08 01 22 02 01 23 07 
   329)      7095.3  Rx     14FDFB5E  8  25 C9 72 5C 97 25 C1 2F 
   330)      7095.8  Rx     1C426E03  8  01 24 03 01 40 01 00 00 
   331)      7097.1  Rx     18FF9A66  8  00 00 00 00 00 00 00 00 
   332)      7122.5  Rx     14FDEE60  8  00 00 00 00 00 00 FF FF 
   333)      7129.4  Rx     1C426A03  8  04 00 8A 00 08 00 00 37 
   334)      7130.0  Rx     1C426F03  8  04 00 00 00 00 00 00 00 
   335)      7132.6  Rx     14FDEB60  8  25 C9 82 5C 98 26 00 0F 
   336)      7136.0  Rx     14FDFE5E  8  00 00 00 00 00 00 FF FF 
   337)      7146.1  Rx     14FDFB5E  8  25 C9 72 5C 97 25 C1 2F 
   338)      7148.0  Rx     18FF9A66  8  00 00 00 00 00 00 00 00 
   339)      7170.9  Rx     14FDEE60  8  00 00 00 00 00 00 FF FF 
   340)      7180.9  Rx     14FDEB60  8  25 C9 82 5C 98 26 00 0F 
   341)      7187.2  Rx     14FDFE5E  8  00 00 00 00 00 00 FF FF 
   342)      7197.3  Rx     14FDFB5E  8  25 C9 72 5C 97 25 C1 2F 
   343)      7197.9  Rx     14FDED03  8  00 01 00 00 00 00 00 00 
   344)      7198.5  Rx     14FDEC03  8  00 00 00 00 00 00 00 00 
   345)      7199.0  Rx     14FDFD03  8  00 00 00 00 00 02 00 00 
   346)      7199.6  Rx     14FDFC03  8  00 00 00 00 00 00 00 00 
   347)      7200.2  Rx     18FF9A66  8  00 00 00 00 00 00 00 00 
   348)      7222.1  Rx     14FDEE60  8  00 00 00 00 00 00 FF FF 
   349)      7232.2  Rx     14FDEB60  8  25 C9 82 5C 98 26 00 0F 
   350)      7232.7  Rx     1C426A03  8  04 00 8A 00 08 00 00 37 
   351)      7233.3  Rx     1C426F03  8  03 00 00 00 00 00 00 00 
   352)      7246.3  Rx     14FDFE5E  8  00 00 00 00 00 00 FF FF 
   353)      7250.0  Rx     18FF9A66  8  00 00 00 00 00 00 00 00 
   354)      7256.5  Rx     14FDFB5E  8  25 C9 72 5C 97 25 C1 2F 
   355)      7273.3  Rx     14FDEE60  8  00 00 00 00 00 00 FF FF 
   356)      7283.3  Rx     14FDEB60  8  25 C9 82 5C 98 26 00 0F 
   357)      7293.5  Rx     14FDFE5E  8  00 00 00 00 00 00 FF FF 
   358)      7301.1  Rx     18FF9A66  8  00 00 00 00 00 00 00 00 
   359)      7303.6  Rx     14FDFB5E  8  25 C9 72 5C 97 25 C1 2F 
   360)      7324.5  Rx     14FDEE60  8  00 00 00 00 00 00 FF FF 
   361)      7334.6  Rx     14FDEB60  8  25 C9 82 5C 98 26 00 0F 
   362)      7335.9  Rx     1C426A03  8  09 00 8A 00 08 00 00 37 
   363)      7336.5  Rx     1C426F03  8  03 00 00 00 00 00 00 00 
   364)      7337.1  Rx     14FDED03  8  00 01 00 00 00 00 00 00 
   365)      7337.7  Rx     14FDEC03  8  00 00 00 00 00 00 00 00 
   366)      7338.3  Rx     14FDFD03  8  00 00 00 00 00 02 00 00 
   367)      7338.9  Rx     14FDFC03  8  00 00 00 00 00 00 00 00 
   368)      7340.8  Rx     14FDFE5E  8  00 00 00 00 00 00 FF FF 
   369)      7350.9  Rx     14FDFB5E  8  25 C9 72 5C 97 25 C1 2F 
   370)      7352.2  Rx     18FF9A66  8  00 00 00 00 00 00 00 00 
   371)      7375.7  Rx     14FDEE60  8  00 00 00 00 00 00 FF FF 
   372)      7385.8  Rx     14FDEB60  8  25 C9 82 5C 98 26 00 0F 
   373)      7392.0  Rx     14FDFE5E  8  00 00 00 00 00 00 FF FF 
   374)      7402.1  Rx     14FDFB5E  8  25 C9 72 5C 97 25 C1 2F 
   375)      7403.2  Rx     18FF9A66  8  00 00 00 00 00 00 00 00 
