;$FILEVERSION=1.1
;$STARTTIME=43971.4235107407
;
;   C:\Users\eric.baril\Documents\UPSregen_rpt1.trc
;
;   Start time: 2020-05-20 10:09:51.328.0
;   Generated by PCAN-View v4.2.5.569
;
;   Message Number
;   |         Time Offset (ms)
;   |         |        Type
;   |         |        |        ID (hex)
;   |         |        |        |     Data Length
;   |         |        |        |     |   Data Bytes (hex) ...
;   |         |        |        |     |   |
;---+--   ----+----  --+--  ----+---  +  -+ -- -- -- -- -- -- --
     1)         5.4  Rx         020B  8  00 00 00 00 00 00 00 00 
     2)         5.9  Rx         020C  8  00 00 00 00 00 00 00 00 
     3)         6.4  Rx         020D  8  00 00 00 00 00 00 00 00 
     4)        10.3  Rx         018B  8  00 00 00 00 00 00 00 00 
     5)        10.7  Rx         028B  8  DC 00 D1 1F C8 00 DC 00 
     6)        22.3  Rx         020B  8  00 00 00 00 00 00 00 00 
     7)        22.8  Rx         020C  8  00 00 00 00 00 00 00 00 
     8)        23.3  Rx         020D  8  00 00 00 00 00 00 00 00 
     9)        24.6  Rx         018C  8  00 00 00 00 00 00 00 00 
    10)        25.1  Rx         028C  8  C8 00 D8 1F B4 00 C8 00 
    11)        39.4  Rx         020B  8  00 00 00 00 00 00 00 00 
    12)        39.9  Rx         020C  8  00 00 00 00 00 00 00 00 
    13)        40.4  Rx         020D  8  00 00 00 00 00 00 00 00 
    14)        55.8  Rx         020B  8  00 00 00 00 00 00 00 00 
    15)        56.3  Rx         020C  8  00 00 00 00 00 00 00 00 
    16)        56.8  Rx         020D  8  00 00 00 00 00 00 00 00 
    17)        73.9  Rx         020B  8  00 00 00 00 00 00 00 00 
    18)        74.4  Rx         020C  8  00 00 00 00 00 00 00 00 
    19)        74.9  Rx         020D  8  00 00 00 00 00 00 00 00 
    20)        91.0  Rx         020B  8  00 00 00 00 00 00 00 00 
    21)        91.5  Rx         018D  8  00 00 00 00 00 00 00 00 
    22)        92.0  Rx         020C  8  00 00 00 00 00 00 00 00 
    23)        92.5  Rx         020D  8  00 00 00 00 00 00 00 00 
    24)        92.9  Rx         028D  8  C8 00 C6 1F C8 00 C8 00 
    25)       108.3  Rx         020B  8  00 00 00 00 00 00 00 00 
    26)       108.8  Rx         020C  8  00 00 00 00 00 00 00 00 
    27)       109.3  Rx         020D  8  00 00 00 00 00 00 00 00 
    28)       110.3  Rx         018B  8  00 00 00 00 00 00 00 00 
    29)       110.8  Rx         028B  8  DC 00 D1 1F C8 00 DC 00 
    30)       124.5  Rx         018C  8  00 00 00 00 00 00 00 00 
    31)       125.0  Rx         028C  8  C8 00 D8 1F B4 00 C8 00 
    32)       125.5  Rx         020B  8  00 00 00 00 00 00 00 00 
    33)       126.0  Rx         020C  8  00 00 00 00 00 00 00 00 
    34)       126.5  Rx         020D  8  00 00 00 00 00 00 00 00 
    35)       141.6  Rx         020B  8  00 00 00 00 00 00 00 00 
    36)       142.1  Rx         020C  8  00 00 00 00 00 00 00 00 
    37)       142.6  Rx         020D  8  00 00 00 00 00 00 00 00 
    38)       160.2  Rx         020B  8  00 00 00 00 00 00 00 00 
    39)       160.7  Rx         020C  8  00 00 00 00 00 00 00 00 
    40)       161.2  Rx         020D  8  00 00 00 00 00 00 00 00 
    41)       177.3  Rx         020B  8  00 00 00 00 00 00 00 00 
    42)       177.8  Rx         020C  8  00 00 00 00 00 00 00 00 
    43)       178.3  Rx         020D  8  00 00 00 00 00 00 00 00 
    44)       191.1  Rx         018D  8  00 00 00 00 00 00 00 00 
    45)       191.6  Rx         028D  8  C8 00 C6 1F D2 00 C8 00 
    46)       194.6  Rx         020B  8  00 00 00 00 00 00 00 00 
    47)       195.1  Rx         020C  8  00 00 00 00 00 00 00 00 
    48)       195.6  Rx         020D  8  00 00 00 00 00 00 00 00 
    49)       210.3  Rx         018B  8  00 00 00 00 00 00 00 00 
    50)       210.8  Rx         028B  8  DC 00 D1 1F C8 00 DC 00 
    51)       211.5  Rx         020B  8  00 00 00 00 00 00 00 00 
    52)       212.0  Rx         020C  8  00 00 00 00 00 00 00 00 
    53)       212.5  Rx         020D  8  00 00 00 00 00 00 00 00 
    54)       224.5  Rx         018C  8  00 00 00 00 00 00 00 00 
    55)       225.0  Rx         028C  8  C8 00 D8 1F B4 00 C8 00 
    56)       227.3  Rx         020B  8  00 00 00 00 00 00 00 00 
    57)       227.8  Rx         020C  8  00 00 00 00 00 00 00 00 
    58)       228.3  Rx         020D  8  00 00 00 00 00 00 00 00 
    59)       245.9  Rx         020B  8  00 00 00 00 00 00 00 00 
    60)       246.4  Rx         020C  8  00 00 00 00 00 00 00 00 
    61)       246.9  Rx         020D  8  00 00 00 00 00 00 00 00 
    62)       263.8  Rx         020B  8  00 00 00 00 00 00 00 00 
    63)       264.3  Rx         020C  8  00 00 00 00 00 00 00 00 
    64)       264.8  Rx         020D  8  00 00 00 00 00 00 00 00 
    65)       280.3  Rx         020B  8  00 00 00 00 00 00 00 00 
    66)       280.8  Rx         020C  8  00 00 00 00 00 00 00 00 
    67)       281.3  Rx         020D  8  00 00 00 00 00 00 00 00 
    68)       291.2  Rx         018D  8  00 00 00 00 00 00 00 00 
    69)       291.6  Rx         028D  8  C8 00 C6 1F D2 00 C8 00 
    70)       296.9  Rx         020B  8  00 00 00 00 00 00 00 00 
    71)       297.4  Rx         020C  8  00 00 00 00 00 00 00 00 
    72)       297.9  Rx         020D  8  00 00 00 00 00 00 00 00 
    73)       310.3  Rx         018B  8  00 00 00 00 00 00 00 00 
    74)       310.8  Rx         028B  8  DC 00 D4 1F BE 00 DC 00 
    75)       313.4  Rx         020B  8  00 00 00 00 00 00 00 00 
    76)       314.0  Rx         020C  8  00 00 00 00 00 00 00 00 
    77)       314.5  Rx         020D  8  00 00 00 00 00 00 00 00 
    78)       324.5  Rx         018C  8  00 00 00 00 00 00 00 00 
    79)       325.0  Rx         028C  8  C8 00 D8 1F B4 00 C8 00 
    80)       332.1  Rx         020B  8  00 00 00 00 00 00 00 00 
    81)       332.6  Rx         020C  8  00 00 00 00 00 00 00 00 
    82)       333.1  Rx         020D  8  00 00 00 00 00 00 00 00 
    83)       349.6  Rx         020B  8  00 00 00 00 00 00 00 00 
    84)       350.1  Rx         020C  8  00 00 00 00 00 00 00 00 
    85)       350.6  Rx         020D  8  00 00 00 00 00 00 00 00 
    86)       366.4  Rx         020B  8  00 00 00 00 00 00 00 00 
    87)       366.9  Rx         020C  8  00 00 00 00 00 00 00 00 
    88)       367.4  Rx         020D  8  00 00 00 00 00 00 00 00 
    89)       382.8  Rx         020B  8  00 00 00 00 00 00 00 00 
    90)       383.4  Rx         020C  8  00 00 00 00 00 00 00 00 
    91)       383.9  Rx         020D  8  00 00 00 00 00 00 00 00 
    92)       391.2  Rx         018D  8  00 00 00 00 00 00 00 00 
    93)       391.6  Rx         028D  8  C8 00 C2 1F D2 00 C8 00 
    94)       399.5  Rx         020B  8  00 00 00 00 00 00 00 00 
    95)       400.0  Rx         020C  8  00 00 00 00 00 00 00 00 
    96)       400.5  Rx         020D  8  00 00 00 00 00 00 00 00 
    97)       410.3  Rx         018B  8  00 00 00 00 00 00 00 00 
    98)       410.8  Rx         028B  8  DC 00 D4 1F C8 00 DC 00 
    99)       418.5  Rx         020B  8  00 00 00 00 00 00 00 00 
   100)       419.0  Rx         020C  8  00 00 00 00 00 00 00 00 
   101)       419.5  Rx         020D  8  00 00 00 00 00 00 00 00 
   102)       424.6  Rx         018C  8  00 00 00 00 00 00 00 00 
   103)       425.0  Rx         028C  8  C8 00 D8 1F B4 00 C8 00 
   104)       435.4  Rx         020B  8  00 00 00 00 00 00 00 00 
   105)       435.9  Rx         020C  8  00 00 00 00 00 00 00 00 
   106)       436.4  Rx         020D  8  00 00 00 00 00 00 00 00 
   107)       452.0  Rx         020B  8  00 00 00 00 00 00 00 00 
   108)       452.5  Rx         020C  8  00 00 00 00 00 00 00 00 
   109)       453.0  Rx         020D  8  00 00 00 00 00 00 00 00 
   110)       469.0  Rx         020B  8  00 00 00 00 00 00 00 00 
   111)       469.5  Rx         020C  8  00 00 00 00 00 00 00 00 
   112)       470.0  Rx         020D  8  00 00 00 00 00 00 00 00 
   113)       485.8  Rx         020B  8  00 00 00 00 00 00 00 00 
   114)       486.3  Rx         020C  8  00 00 00 00 00 00 00 00 
   115)       486.8  Rx         020D  8  00 00 00 00 00 00 00 00 
   116)       491.2  Rx         018D  8  00 00 00 00 00 00 00 00 
   117)       491.7  Rx         028D  8  C8 00 C6 1F C8 00 C8 00 
   118)       504.1  Rx         020B  8  00 00 00 00 00 00 00 00 
   119)       504.6  Rx         020C  8  00 00 00 00 00 00 00 00 
   120)       505.1  Rx         020D  8  00 00 00 00 00 00 00 00 
   121)       510.4  Rx         018B  8  00 00 00 00 00 00 00 00 
   122)       510.9  Rx         028B  8  DC 00 D1 1F BE 00 DC 00 
   123)       521.4  Rx         020B  8  00 00 00 00 00 00 00 00 
   124)       522.0  Rx         020C  8  00 00 00 00 00 00 00 00 
   125)       522.5  Rx         020D  8  00 00 00 00 00 00 00 00 
   126)       524.6  Rx         018C  8  00 00 00 00 00 00 00 00 
   127)       525.1  Rx         028C  8  C8 00 DC 1F B4 00 C8 00 
   128)       538.0  Rx         020B  8  00 00 00 00 00 00 00 00 
   129)       538.5  Rx         020C  8  00 00 00 00 00 00 00 00 
   130)       539.0  Rx         020D  8  00 00 00 00 00 00 00 00 
   131)       555.2  Rx         020B  8  00 00 00 00 00 00 00 00 
   132)       555.7  Rx         020C  8  00 00 00 00 00 00 00 00 
   133)       556.2  Rx         020D  8  00 00 00 00 00 00 00 00 
   134)       571.9  Rx         020B  8  00 00 00 00 00 00 00 00 
   135)       572.4  Rx         020C  8  00 00 00 00 00 00 00 00 
   136)       572.9  Rx         020D  8  00 00 00 00 00 00 00 00 
   137)       590.0  Rx         020B  8  00 00 00 00 00 00 00 00 
   138)       590.5  Rx         020C  8  00 00 00 00 00 00 00 00 
   139)       591.0  Rx         020D  8  00 00 00 00 00 00 00 00 
   140)       591.5  Rx         018D  8  00 00 00 00 00 00 00 00 
   141)       592.0  Rx         028D  8  C8 00 C2 1F C8 00 C8 00 
   142)       607.3  Rx         020B  8  00 00 00 00 00 00 00 00 
   143)       607.8  Rx         020C  8  00 00 00 00 00 00 00 00 
   144)       608.3  Rx         020D  8  00 00 00 00 00 00 00 00 
   145)       610.4  Rx         018B  8  00 00 00 00 00 00 00 00 
   146)       610.9  Rx         028B  8  DC 00 D1 1F C8 00 DC 00 
   147)       624.6  Rx         018C  8  00 00 00 00 00 00 00 00 
   148)       625.1  Rx         020B  8  00 00 00 00 00 00 00 00 
   149)       625.6  Rx         020C  8  00 00 00 00 00 00 00 00 
   150)       626.1  Rx         020D  8  00 00 00 00 00 00 00 00 
   151)       626.6  Rx         028C  8  C8 00 DC 1F B4 00 C8 00 
   152)       641.6  Rx         020B  8  00 00 00 00 00 00 00 00 
   153)       642.1  Rx         020C  8  00 00 00 00 00 00 00 00 
   154)       642.6  Rx         020D  8  00 00 00 00 00 00 00 00 
   155)       657.7  Rx         020B  8  00 00 00 00 00 00 00 00 
   156)       658.2  Rx         020C  8  00 00 00 00 00 00 00 00 
   157)       658.7  Rx         020D  8  00 00 00 00 00 00 00 00 
   158)       676.1  Rx         020B  8  00 00 00 00 00 00 00 00 
   159)       676.6  Rx         020C  8  00 00 00 00 00 00 00 00 
   160)       677.1  Rx         020D  8  00 00 00 00 00 00 00 00 
   161)       691.2  Rx         018D  8  00 00 00 00 00 00 00 00 
   162)       691.7  Rx         028D  8  C8 00 C2 1F C8 00 C8 00 
   163)       693.2  Rx         020B  8  00 00 00 00 00 00 00 00 
   164)       693.7  Rx         020C  8  00 00 00 00 00 00 00 00 
   165)       694.2  Rx         020D  8  00 00 00 00 00 00 00 00 
   166)       710.4  Rx         018B  8  00 00 00 00 00 00 00 00 
   167)       710.9  Rx         028B  8  DC 00 D4 1F C8 00 DC 00 
   168)       711.4  Rx         020B  8  00 00 00 00 00 00 00 00 
   169)       711.9  Rx         020C  8  00 00 00 00 00 00 00 00 
   170)       712.4  Rx         020D  8  00 00 00 00 00 00 00 00 
   171)       724.6  Rx         018C  8  00 00 00 00 00 00 00 00 
   172)       725.1  Rx         028C  8  C8 00 D8 1F B4 00 C8 00 
   173)       727.6  Rx         020B  8  00 00 00 00 00 00 00 00 
   174)       728.2  Rx         020C  8  00 00 00 00 00 00 00 00 
   175)       728.7  Rx         020D  8  00 00 00 00 00 00 00 00 
   176)       743.5  Rx         020B  8  00 00 00 00 00 00 00 00 
   177)       744.0  Rx         020C  8  00 00 00 00 00 00 00 00 
   178)       744.5  Rx         020D  8  00 00 00 00 00 00 00 00 
   179)       762.1  Rx         020B  8  00 00 00 00 00 00 00 00 
   180)       762.6  Rx         020C  8  00 00 00 00 00 00 00 00 
   181)       763.1  Rx         020D  8  00 00 00 00 00 00 00 00 
   182)       779.6  Rx         020B  8  00 00 00 00 00 00 00 00 
   183)       780.1  Rx         020C  8  00 00 00 00 00 00 00 00 
   184)       780.6  Rx         020D  8  00 00 00 00 00 00 00 00 
   185)       791.2  Rx         018D  8  00 00 00 00 00 00 00 00 
   186)       791.7  Rx         028D  8  C8 00 C2 1F C8 00 C8 00 
   187)       796.6  Rx         020B  8  00 00 00 00 00 00 00 00 
   188)       797.1  Rx         020C  8  00 00 00 00 00 00 00 00 
   189)       797.6  Rx         020D  8  00 00 00 00 00 00 00 00 
   190)       810.4  Rx         018B  8  00 00 00 00 00 00 00 00 
   191)       810.9  Rx         028B  8  DC 00 D1 1F C8 00 DC 00 
   192)       813.6  Rx         020B  8  00 00 00 00 00 00 00 00 
   193)       814.1  Rx         020C  8  00 00 00 00 00 00 00 00 
   194)       814.6  Rx         020D  8  00 00 00 00 00 00 00 00 
   195)       824.6  Rx         018C  8  00 00 00 00 00 00 00 00 
   196)       825.1  Rx         028C  8  C8 00 DC 1F B4 00 C8 00 
   197)       829.8  Rx         020B  8  00 00 00 00 00 00 00 00 
   198)       830.3  Rx         020C  8  00 00 00 00 00 00 00 00 
   199)       830.8  Rx         020D  8  00 00 00 00 00 00 00 00 
   200)       848.3  Rx         020B  8  00 00 00 00 00 00 00 00 
   201)       848.8  Rx         020C  8  00 00 00 00 00 00 00 00 
   202)       849.3  Rx         020D  8  00 00 00 00 00 00 00 00 
   203)       865.9  Rx         020B  8  00 00 00 00 00 00 00 00 
   204)       866.4  Rx         020C  8  00 00 00 00 00 00 00 00 
   205)       866.9  Rx         020D  8  00 00 00 00 00 00 00 00 
   206)       882.6  Rx         020B  8  00 00 00 00 00 00 00 00 
   207)       883.1  Rx         020C  8  00 00 00 00 00 00 00 00 
   208)       883.6  Rx         020D  8  00 00 00 00 00 00 00 00 
   209)       891.0  Rx         018D  8  00 00 00 00 00 00 00 00 
   210)       891.5  Rx         028D  8  C8 00 C6 1F C8 00 C8 00 
   211)       899.2  Rx         020B  8  00 00 00 00 00 00 00 00 
   212)       899.7  Rx         020C  8  00 00 00 00 00 00 00 00 
   213)       900.2  Rx         020D  8  00 00 00 00 00 00 00 00 
   214)       910.4  Rx         018B  8  00 00 00 00 00 00 00 00 
   215)       910.9  Rx         028B  8  DC 00 D1 1F C8 00 DC 00 
   216)       915.4  Rx         020B  8  00 00 00 00 00 00 00 00 
   217)       915.9  Rx         020C  8  00 00 00 00 00 00 00 00 
   218)       916.4  Rx         020D  8  00 00 00 00 00 00 00 00 
   219)       924.6  Rx         018C  8  00 00 00 00 00 00 00 00 
   220)       925.1  Rx         028C  8  C8 00 DC 1F B4 00 C8 00 
   221)       934.2  Rx         020B  8  00 00 00 00 00 00 00 00 
   222)       934.7  Rx         020C  8  00 00 00 00 00 00 00 00 
   223)       935.2  Rx         020D  8  00 00 00 00 00 00 00 00 
   224)       951.6  Rx         020B  8  00 00 00 00 00 00 00 00 
   225)       952.1  Rx         020C  8  00 00 00 00 00 00 00 00 
   226)       952.6  Rx         020D  8  00 00 00 00 00 00 00 00 
   227)       968.7  Rx         020B  8  00 00 00 00 00 00 00 00 
   228)       969.2  Rx         020C  8  00 00 00 00 00 00 00 00 
   229)       969.7  Rx         020D  8  00 00 00 00 00 00 00 00 
   230)       985.1  Rx         020B  8  00 00 00 00 00 00 00 00 
   231)       985.6  Rx         020C  8  00 00 00 00 00 00 00 00 
   232)       986.1  Rx         020D  8  00 00 00 00 00 00 00 00 
   233)       991.1  Rx         018D  8  00 00 00 00 00 00 00 00 
   234)       991.5  Rx         028D  8  C8 00 C2 1F C8 00 C8 00 
   235)      1001.5  Rx         020B  8  00 00 00 00 00 00 00 00 
   236)      1002.0  Rx         020C  8  00 00 00 00 00 00 00 00 
   237)      1002.5  Rx         020D  8  00 00 00 00 00 00 00 00 
   238)      1010.5  Rx         018B  8  00 00 00 00 00 00 00 00 
   239)      1010.9  Rx         028B  8  DC 00 D4 1F C8 00 DC 00 
   240)      1020.8  Rx         020B  8  00 00 00 00 00 00 00 00 
   241)      1021.3  Rx         020C  8  00 00 00 00 00 00 00 00 
   242)      1021.8  Rx         020D  8  00 00 00 00 00 00 00 00 
   243)      1024.6  Rx         018C  8  00 00 00 00 00 00 00 00 
   244)      1025.1  Rx         028C  8  C8 00 DC 1F B4 00 C8 00 
   245)      1037.5  Rx         020B  8  00 00 00 00 00 00 00 00 
   246)      1038.0  Rx         020C  8  00 00 00 00 00 00 00 00 
   247)      1038.5  Rx         020D  8  00 00 00 00 00 00 00 00 
   248)      1054.1  Rx         020B  8  00 00 00 00 00 00 00 00 
   249)      1054.6  Rx         020C  8  00 00 00 00 00 00 00 00 
   250)      1055.1  Rx         020D  8  00 00 00 00 00 00 00 00 
   251)      1071.6  Rx         020B  8  00 00 00 00 00 00 00 00 
   252)      1072.1  Rx         020C  8  00 00 00 00 00 00 00 00 
   253)      1072.6  Rx         020D  8  00 00 00 00 00 00 00 00 
   254)      1088.0  Rx         020B  8  00 00 00 00 00 00 00 00 
   255)      1088.5  Rx         020C  8  00 00 00 00 00 00 00 00 
   256)      1089.0  Rx         020D  8  00 00 00 00 00 00 00 00 
   257)      1091.1  Rx         018D  8  00 00 00 00 00 00 00 00 
   258)      1091.6  Rx         028D  8  C8 00 C2 1F C8 00 C8 00 
   259)      1106.1  Rx         020B  8  00 00 00 00 00 00 00 00 
   260)      1106.6  Rx         020C  8  00 00 00 00 00 00 00 00 
   261)      1107.1  Rx         020D  8  00 00 00 00 00 00 00 00 
   262)      1110.5  Rx         018B  8  00 00 00 00 00 00 00 00 
   263)      1111.0  Rx         028B  8  DC 00 D1 1F BE 00 DC 00 
   264)      1123.6  Rx         020B  8  00 00 00 00 00 00 00 00 
   265)      1124.1  Rx         020C  8  00 00 00 00 00 00 00 00 
   266)      1124.6  Rx         020D  8  00 00 00 00 00 00 00 00 
   267)      1125.1  Rx         018C  8  00 00 00 00 00 00 00 00 
   268)      1125.6  Rx         028C  8  C8 00 D8 1F B4 00 C8 00 
   269)      1140.2  Rx         020B  8  00 00 00 00 00 00 00 00 
   270)      1140.7  Rx         020C  8  00 00 00 00 00 00 00 00 
   271)      1141.2  Rx         020D  8  00 00 00 00 00 00 00 00 
   272)      1157.2  Rx         020B  8  00 00 00 00 00 00 00 00 
   273)      1157.7  Rx         020C  8  00 00 00 00 00 00 00 00 
   274)      1158.2  Rx         020D  8  00 00 00 00 00 00 00 00 
   275)      1173.8  Rx         020B  8  00 00 00 00 00 00 00 00 
   276)      1174.3  Rx         020C  8  00 00 00 00 00 00 00 00 
   277)      1174.8  Rx         020D  8  00 00 00 00 00 00 00 00 
   278)      1191.1  Rx         018D  8  00 00 00 00 00 00 00 00 
   279)      1191.5  Rx         028D  8  C8 00 C2 1F D2 00 C8 00 
   280)      1192.1  Rx         020B  8  00 00 00 00 00 00 00 00 
   281)      1192.6  Rx         020C  8  00 00 00 00 00 00 00 00 
   282)      1193.1  Rx         020D  8  00 00 00 00 00 00 00 00 
   283)      1209.1  Rx         020B  8  00 00 00 00 00 00 00 00 
   284)      1209.6  Rx         020C  8  00 00 00 00 00 00 00 00 
   285)      1210.1  Rx         020D  8  00 00 00 00 00 00 00 00 
   286)      1210.6  Rx         018B  8  00 00 00 00 00 00 00 00 
   287)      1211.0  Rx         028B  8  DC 00 D1 1F C8 00 DC 00 
   288)      1224.7  Rx         018C  8  00 00 00 00 00 00 00 00 
   289)      1225.1  Rx         028C  8  C8 00 DC 1F B4 00 C8 00 
   290)      1226.7  Rx         020B  8  00 00 00 00 00 00 00 00 
   291)      1227.2  Rx         020C  8  00 00 00 00 00 00 00 00 
   292)      1227.7  Rx         020D  8  00 00 00 00 00 00 00 00 
   293)      1243.6  Rx         020B  8  00 00 00 00 00 00 00 00 
   294)      1244.1  Rx         020C  8  00 00 00 00 00 00 00 00 
   295)      1244.6  Rx         020D  8  00 00 00 00 00 00 00 00 
   296)      1259.5  Rx         020B  8  00 00 00 00 00 00 00 00 
   297)      1260.1  Rx         020C  8  00 00 00 00 00 00 00 00 
   298)      1260.6  Rx         020D  8  00 00 00 00 00 00 00 00 
   299)      1278.3  Rx         020B  8  00 00 00 00 00 00 00 00 
   300)      1278.8  Rx         020C  8  00 00 00 00 00 00 00 00 
   301)      1279.3  Rx         020D  8  00 00 00 00 00 00 00 00 
   302)      1291.1  Rx         018D  8  00 00 00 00 00 00 00 00 
   303)      1291.6  Rx         028D  8  C8 00 C2 1F D2 00 C8 00 
   304)      1295.4  Rx         020B  8  00 00 00 00 00 00 00 00 
   305)      1295.9  Rx         020C  8  00 00 00 00 00 00 00 00 
   306)      1296.4  Rx         020D  8  00 00 00 00 00 00 00 00 
   307)      1310.4  Rx         018B  8  00 00 00 00 00 00 00 00 
   308)      1310.8  Rx         028B  8  DC 00 D4 1F C8 00 DC 00 
   309)      1312.5  Rx         020B  8  00 00 00 00 00 00 00 00 
   310)      1313.0  Rx         020C  8  00 00 00 00 00 00 00 00 
   311)      1313.5  Rx         020D  8  00 00 00 00 00 00 00 00 
   312)      1324.7  Rx         018C  8  00 00 00 00 00 00 00 00 
   313)      1325.2  Rx         028C  8  C8 00 D8 1F B4 00 C8 00 
   314)      1329.6  Rx         020B  8  00 00 00 00 00 00 00 00 
   315)      1330.1  Rx         020C  8  00 00 00 00 00 00 00 00 
   316)      1330.6  Rx         020D  8  00 00 00 00 00 00 00 00 
   317)      1345.6  Rx         020B  8  00 00 00 00 00 00 00 00 
   318)      1346.1  Rx         020C  8  00 00 00 00 00 00 00 00 
   319)      1346.6  Rx         020D  8  00 00 00 00 00 00 00 00 
   320)      1363.5  Rx         020B  8  00 00 00 00 00 00 00 00 
   321)      1364.1  Rx         020C  8  00 00 00 00 00 00 00 00 
   322)      1364.6  Rx         020D  8  00 00 00 00 00 00 00 00 
   323)      1381.4  Rx         020B  8  00 00 00 00 00 00 00 00 
   324)      1381.9  Rx         020C  8  00 00 00 00 00 00 00 00 
   325)      1382.4  Rx         020D  8  00 00 00 00 00 00 00 00 
   326)      1391.1  Rx         018D  8  00 00 00 00 00 00 00 00 
   327)      1391.6  Rx         028D  8  C8 00 C2 1F C8 00 C8 00 
   328)      1398.7  Rx         020B  8  00 00 00 00 00 00 00 00 
   329)      1399.2  Rx         020C  8  00 00 00 00 00 00 00 00 
   330)      1399.7  Rx         020D  8  00 00 00 00 00 00 00 00 
   331)      1410.4  Rx         018B  8  00 00 00 00 00 00 00 00 
   332)      1410.9  Rx         028B  8  DC 00 D1 1F C8 00 DC 00 
   333)      1415.3  Rx         020B  8  00 00 00 00 00 00 00 00 
   334)      1415.8  Rx         020C  8  00 00 00 00 00 00 00 00 
   335)      1416.3  Rx         020D  8  00 00 00 00 00 00 00 00 
   336)      1424.7  Rx         018C  8  00 00 00 00 00 00 00 00 
   337)      1425.2  Rx         028C  8  C8 00 D8 1F B4 00 C8 00 
   338)      1431.6  Rx         020B  8  00 00 00 00 00 00 00 00 
   339)      1432.1  Rx         020C  8  00 00 00 00 00 00 00 00 
   340)      1432.6  Rx         020D  8  00 00 00 00 00 00 00 00 
   341)      1450.2  Rx         020B  8  00 00 00 00 00 00 00 00 
   342)      1450.7  Rx         020C  8  00 00 00 00 00 00 00 00 
   343)      1451.2  Rx         020D  8  00 00 00 00 00 00 00 00 
   344)      1467.6  Rx         020B  8  00 00 00 00 00 00 00 00 
   345)      1468.1  Rx         020C  8  00 00 00 00 00 00 00 00 
   346)      1468.6  Rx         020D  8  00 00 00 00 00 00 00 00 
   347)      1484.6  Rx         020B  8  00 00 00 00 00 00 00 00 
   348)      1485.1  Rx         020C  8  00 00 00 00 00 00 00 00 
   349)      1485.6  Rx         020D  8  00 00 00 00 00 00 00 00 
   350)      1491.1  Rx         018D  8  00 00 00 00 00 00 00 00 
   351)      1491.6  Rx         028D  8  C8 00 C2 1F D2 00 C8 00 
   352)      1501.1  Rx         020B  8  00 00 00 00 00 00 00 00 
   353)      1501.6  Rx         020C  8  00 00 00 00 00 00 00 00 
   354)      1502.1  Rx         020D  8  00 00 00 00 00 00 00 00 
   355)      1510.4  Rx         018B  8  00 00 00 00 00 00 00 00 
   356)      1510.9  Rx         028B  8  DC 00 D1 1F C8 00 DC 00 
   357)      1517.3  Rx         020B  8  00 00 00 00 00 00 00 00 
   358)      1517.8  Rx         020C  8  00 00 00 00 00 00 00 00 
   359)      1518.3  Rx         020D  8  00 00 00 00 00 00 00 00 
   360)      1524.7  Rx         018C  8  00 00 00 00 00 00 00 00 
   361)      1525.2  Rx         028C  8  C8 00 DC 1F B4 00 C8 00 
   362)      1537.0  Rx         020B  8  00 00 00 00 00 00 00 00 
   363)      1537.5  Rx         020C  8  00 00 00 00 00 00 00 00 
   364)      1538.0  Rx         020D  8  00 00 00 00 00 00 00 00 
   365)      1553.6  Rx         020B  8  00 00 00 00 00 00 00 00 
   366)      1554.1  Rx         020C  8  00 00 00 00 00 00 00 00 
   367)      1554.6  Rx         020D  8  00 00 00 00 00 00 00 00 
   368)      1570.1  Rx         020B  8  00 00 00 00 00 00 00 00 
   369)      1570.6  Rx         020C  8  00 00 00 00 00 00 00 00 
   370)      1571.1  Rx         020D  8  00 00 00 00 00 00 00 00 
