;$FILEVERSION=1.1
;$STARTTIME=43971.4537178125
;
;   C:\Users\eric.baril\Documents\UPSregen_CAN1_125k.trc
;
;   Start time: 2020-05-20 10:53:21.219.0
;   Generated by PCAN-View v4.2.5.569
;
;   Message Number
;   |         Time Offset (ms)
;   |         |        Type
;   |         |        |        ID (hex)
;   |         |        |        |     Data Length
;   |         |        |        |     |   Data Bytes (hex) ...
;   |         |        |        |     |   |
;---+--   ----+----  --+--  ----+---  +  -+ -- -- -- -- -- -- --
     1)         3.9  Rx         024C  0  
     2)        10.2  Rx         0704  1  05 
     3)        11.2  Rx         0120  8  3F 00 00 00 00 02 00 00 
     4)        12.1  Rx         0121  8  00 00 88 C6 00 00 3B 23 
     5)        13.1  Rx         0122  8  00 00 04 00 00 00 00 00 
     6)        13.9  Rx         01C8  5  F6 03 F7 03 00 
     7)        14.5  Rx         075B  1  05 
     8)        21.1  Rx         0710  1  05 
     9)        28.6  Rx         0120  8  3F 00 00 00 00 02 00 00 
    10)        29.5  Rx         0121  8  00 00 88 C6 00 00 3B 23 
    11)        30.5  Rx         0122  8  00 00 04 00 00 00 00 00 
    12)        42.8  Rx         01CA  5  E8 03 EA 03 00 
    13)        45.4  Rx         0120  8  3F 00 00 00 00 02 00 00 
    14)        46.4  Rx         0110  8  02 00 00 00 00 00 00 00 
    15)        47.3  Rx         0121  8  00 00 88 C6 00 00 3B 23 
    16)        48.3  Rx         0122  8  00 00 04 00 00 00 00 00 
    17)        49.0  Rx         01CC  5  EF 03 E7 03 00 
    18)        53.5  Rx         0080  0  
    19)        55.0  Rx         0298  8  00 00 00 00 7C 0F 00 00 
    20)        55.9  Rx         0184  8  00 08 A8 0F A8 0F 00 00 
    21)        56.9  Rx         0284  8  19 79 19 79 05 00 07 00 
    22)        57.8  Rx         0290  8  7C 0F 00 00 01 00 00 00 
    23)        58.8  Rx         0291  8  00 00 69 0F 00 00 00 00 
    24)        59.8  Rx         0294  8  69 0F 69 0F 00 00 00 00 
    25)        60.8  Rx         0295  8  01 00 00 00 00 00 00 00 
    26)        61.8  Rx         0120  8  3F 00 00 00 00 02 00 00 
    27)        62.7  Rx         0121  8  00 00 88 C6 00 00 3B 23 
    28)        63.7  Rx         0122  8  00 00 04 00 00 00 00 00 
    29)        64.7  Rx         02DB  8  00 00 00 00 00 00 00 00 
    30)        65.4  Rx         01C8  5  F3 03 F6 03 00 
    31)        65.9  Rx         0210  1  00 
    32)        66.9  Rx         0310  8  4B 00 00 00 00 00 00 00 
    33)        67.3  Rx         0211  1  00 
    34)        68.3  Rx         0311  8  00 00 00 00 00 00 00 00 
    35)        68.8  Rx         0214  1  00 
    36)        69.8  Rx         0314  8  00 00 00 00 00 00 78 00 
    37)        70.3  Rx         0215  1  00 
    38)        71.2  Rx         0315  8  00 00 00 00 00 00 00 00 
    39)        71.7  Rx         0218  1  00 
    40)        72.7  Rx         0318  8  00 00 00 00 00 00 6E 00 
    41)        73.2  Rx         025B  2  30 00 
    42)        74.2  Rx         035B  8  00 00 00 00 00 00 00 00 
    43)        75.2  Rx         0384  8  00 00 00 00 00 00 00 00 
    44)        76.2  Rx         03DB  8  00 00 00 00 00 00 00 00 
    45)        77.2  Rx         045B  8  00 00 00 00 00 00 00 00 
    46)        78.2  Rx         0484  8  00 00 00 00 00 00 00 00 
    47)        79.2  Rx         04DB  8  00 00 00 00 00 00 00 00 
    48)        79.9  Rx         055B  4  00 00 00 00 
    49)        80.9  Rx         0120  8  3F 00 00 00 00 02 00 00 
    50)        81.8  Rx         0121  8  00 00 88 C6 00 00 3B 23 
    51)        82.8  Rx         0122  8  00 00 04 00 00 00 00 00 
    52)        94.0  Rx         01CA  5  E8 03 E9 03 00 
    53)        96.5  Rx         0110  8  02 00 00 00 00 00 00 00 
    54)        97.3  Rx         01CC  5  EF 03 E8 03 00 
    55)        98.3  Rx         0120  8  3F 00 00 00 00 02 00 00 
    56)        99.2  Rx         0121  8  00 00 88 C6 00 00 3B 23 
    57)       100.2  Rx         0122  8  00 00 04 00 00 00 00 00 
    58)       110.1  Rx         0704  1  05 
    59)       114.5  Rx         0120  8  3F 00 00 00 00 02 00 00 
    60)       115.4  Rx         0121  8  00 00 88 C6 00 00 3B 23 
    61)       116.4  Rx         0122  8  00 00 04 00 00 00 00 00 
    62)       117.2  Rx         01C8  5  F5 03 F7 03 00 
    63)       131.3  Rx         0120  8  3F 00 00 00 00 02 00 00 
    64)       132.2  Rx         0121  8  00 00 88 C6 00 00 3B 23 
    65)       133.2  Rx         0122  8  00 00 04 00 00 00 00 00 
    66)       139.4  Rx         0080  0  
    67)       141.0  Rx         0294  8  69 0F 69 0F 00 00 00 00 
    68)       141.9  Rx         0184  8  00 08 A8 0F A8 0F 00 00 
    69)       142.9  Rx         0284  8  19 79 19 79 05 00 07 00 
    70)       143.8  Rx         0290  8  7C 0F 00 00 01 00 00 00 
    71)       144.8  Rx         0291  8  00 00 69 0F 00 00 00 00 
    72)       145.6  Rx         01CA  5  E6 03 ED 03 00 
    73)       146.6  Rx         0295  8  01 00 00 00 00 00 00 00 
    74)       147.6  Rx         0120  8  3F 00 00 00 00 02 00 00 
    75)       148.5  Rx         0110  8  02 00 00 00 00 00 00 00 
    76)       149.5  Rx         0121  8  00 00 88 C6 00 00 3B 23 
    77)       150.5  Rx         0122  8  00 00 04 00 00 00 00 00 
    78)       151.2  Rx         01CC  5  EE 03 E5 03 00 
    79)       151.7  Rx         0210  1  00 
    80)       152.7  Rx         0298  8  00 00 00 00 7C 0F 00 00 
    81)       153.7  Rx         02DB  8  00 00 00 00 00 00 00 00 
    82)       154.7  Rx         0310  8  4B 00 00 00 00 00 00 00 
    83)       155.1  Rx         0211  1  00 
    84)       156.1  Rx         0311  8  00 00 00 00 00 00 00 00 
    85)       156.6  Rx         0214  1  00 
    86)       157.6  Rx         0314  8  00 00 00 00 00 00 78 00 
    87)       158.0  Rx         0215  1  00 
    88)       159.0  Rx         0315  8  00 00 00 00 00 00 00 00 
    89)       159.5  Rx         0218  1  00 
    90)       160.5  Rx         0318  8  00 00 00 00 00 00 6E 00 
    91)       161.0  Rx         025B  2  30 00 
    92)       162.0  Rx         035B  8  00 00 00 00 00 00 00 00 
    93)       163.0  Rx         0384  8  00 00 00 00 00 00 00 00 
    94)       164.0  Rx         03DB  8  00 00 00 00 00 00 00 00 
    95)       165.0  Rx         045B  8  00 00 00 00 00 00 00 00 
    96)       166.0  Rx         0484  8  00 00 00 00 00 00 00 00 
    97)       167.0  Rx         04DB  8  00 00 00 00 00 00 00 00 
    98)       167.7  Rx         01C8  5  F4 03 F5 03 00 
    99)       168.4  Rx         055B  4  00 00 00 00 
   100)       169.4  Rx         0120  8  3F 00 00 00 00 02 00 00 
   101)       170.3  Rx         0121  8  00 00 88 C6 00 00 3B 23 
   102)       171.3  Rx         0122  8  00 00 04 00 00 00 00 00 
   103)       184.0  Rx         0120  8  3F 00 00 00 00 02 00 00 
   104)       184.9  Rx         0121  8  00 00 88 C6 00 00 3B 23 
   105)       185.9  Rx         0122  8  00 00 04 00 00 00 00 00 
   106)       192.6  Rx         0748  1  05 
   107)       196.2  Rx         074A  1  05 
   108)       196.9  Rx         01CA  5  E9 03 EB 03 00 
   109)       198.5  Rx         0110  8  02 00 00 00 00 00 00 00 
   110)       199.5  Rx         074C  1  05 
   111)       200.2  Rx         01CC  5  EE 03 E7 03 00 
   112)       201.2  Rx         0120  8  3F 00 00 00 00 02 00 00 
   113)       202.2  Rx         0121  8  00 00 88 C6 00 00 3B 23 
   114)       203.2  Rx         0122  8  00 00 04 00 00 00 00 00 
   115)       210.2  Rx         0704  1  05 
   116)       217.3  Rx         0120  8  3F 00 00 00 00 02 00 00 
   117)       218.2  Rx         0121  8  00 00 88 C6 00 00 3B 23 
   118)       219.2  Rx         0122  8  00 00 04 00 00 00 00 00 
   119)       219.9  Rx         01C8  5  F5 03 F6 03 00 
   120)       225.9  Rx         0703  1  05 
   121)       226.3  Rx         0080  0  
   122)       227.1  Rx         0248  0  
   123)       228.0  Rx         0294  8  69 0F 7C 0F 00 00 00 00 
   124)       229.0  Rx         0184  8  00 08 A8 0F A8 0F 00 00 
   125)       229.9  Rx         0284  8  19 79 19 79 05 00 07 00 
   126)       230.9  Rx         0290  8  7C 0F 00 00 01 00 00 00 
   127)       231.9  Rx         0291  8  00 00 69 0F 00 00 00 00 
   128)       232.9  Rx         0295  8  01 00 00 00 00 00 00 00 
   129)       233.9  Rx         0298  8  00 00 00 00 7C 0F 00 00 
   130)       234.9  Rx         0120  8  3F 00 00 00 00 02 00 00 
   131)       235.8  Rx         0121  8  00 00 88 C6 00 00 3B 23 
   132)       236.8  Rx         0122  8  00 00 04 00 00 00 00 00 
   133)       237.8  Rx         02DB  8  00 00 00 00 00 00 00 00 
   134)       238.3  Rx         0210  1  00 
   135)       239.3  Rx         0310  8  4B 00 00 00 00 00 00 00 
   136)       239.7  Rx         0211  1  00 
   137)       240.7  Rx         0311  8  00 00 00 00 00 00 00 00 
   138)       241.2  Rx         0214  1  00 
   139)       242.2  Rx         0314  8  00 00 00 00 00 00 78 00 
   140)       242.6  Rx         0215  1  00 
   141)       243.6  Rx         0315  8  00 00 00 00 00 00 00 00 
   142)       244.1  Rx         0218  1  00 
   143)       245.1  Rx         0318  8  00 00 00 00 00 00 6E 00 
   144)       245.6  Rx         025B  2  30 00 
   145)       246.6  Rx         035B  8  00 00 00 00 00 00 00 00 
   146)       247.6  Rx         0384  8  00 00 00 00 00 00 00 00 
   147)       248.4  Rx         01CA  5  E9 03 EA 03 00 
   148)       249.4  Rx         03DB  8  00 00 00 00 00 00 00 00 
   149)       250.3  Rx         0110  8  02 00 00 00 00 00 00 00 
   150)       251.1  Rx         01CC  5  EE 03 E5 03 00 
   151)       252.1  Rx         045B  8  00 00 00 00 00 00 00 00 
   152)       253.1  Rx         0120  8  3F 00 00 00 00 02 00 00 
   153)       254.1  Rx         0484  8  00 00 00 00 00 00 00 00 
   154)       255.1  Rx         04DB  8  00 00 00 00 00 00 00 00 
   155)       255.8  Rx         055B  4  00 00 00 00 
   156)       256.7  Rx         0121  8  00 00 88 C6 00 00 3B 23 
   157)       257.7  Rx         0122  8  00 00 04 00 00 00 00 00 
   158)       258.2  Rx         0714  1  05 
   159)       259.9  Rx         0718  1  05 
   160)       262.8  Rx         0250  0  
   161)       270.0  Rx         0120  8  3F 00 00 00 00 02 00 00 
   162)       270.9  Rx         0121  8  00 00 88 C6 00 00 3B 23 
   163)       271.9  Rx         0122  8  00 00 04 00 00 00 00 00 
   164)       272.6  Rx         01C8  5  F4 03 F5 03 00 
   165)       279.1  Rx         0711  1  05 
   166)       286.8  Rx         0120  8  3F 00 00 00 00 02 00 00 
   167)       287.7  Rx         0121  8  00 00 88 C6 00 00 3B 23 
   168)       288.7  Rx         0122  8  00 00 04 00 00 00 00 00 
   169)       297.8  Rx         0715  1  05 
   170)       298.8  Rx         01CA  5  E6 03 EA 03 00 
   171)       300.5  Rx         0110  8  02 00 00 00 00 00 00 00 
   172)       302.1  Rx         01CC  5  EE 03 E7 03 00 
   173)       304.1  Rx         0120  8  3F 00 00 00 00 02 00 00 
   174)       305.1  Rx         0121  8  00 00 88 C6 00 00 3B 23 
   175)       306.1  Rx         0122  8  00 00 04 00 00 00 00 00 
   176)       309.9  Rx         0704  1  05 
   177)       312.7  Rx         0080  0  
   178)       314.3  Rx         0294  8  69 0F 7C 0F 00 00 00 00 
   179)       315.3  Rx         0184  8  00 08 A8 0F AE 0F 00 00 
   180)       316.2  Rx         0284  8  19 79 19 79 06 00 08 00 
   181)       317.2  Rx         0290  8  A3 0F 00 00 01 00 00 00 
   182)       318.2  Rx         0291  8  00 00 69 0F 00 00 00 00 
   183)       319.2  Rx         0295  8  01 00 00 00 00 00 00 00 
   184)       320.2  Rx         0298  8  00 00 00 00 7C 0F 00 00 
   185)       321.2  Rx         0120  8  3F 00 00 00 00 02 00 00 
   186)       322.0  Rx         0121  8  00 00 88 C6 00 00 3B 23 
   187)       323.0  Rx         0122  8  00 00 04 00 00 00 00 00 
   188)       323.7  Rx         01C8  5  F4 03 F7 03 00 
   189)       324.7  Rx         0384  8  00 00 00 00 00 00 00 00 
   190)       325.2  Rx         0210  1  00 
   191)       326.2  Rx         0310  8  4B 00 00 00 00 00 00 00 
   192)       326.6  Rx         0211  1  00 
   193)       327.7  Rx         0311  8  00 00 00 00 00 00 00 00 
   194)       328.1  Rx         0214  1  00 
   195)       329.1  Rx         0314  8  00 00 00 00 00 00 78 00 
   196)       329.6  Rx         0215  1  00 
   197)       330.6  Rx         0315  8  00 00 00 00 00 00 00 00 
   198)       331.0  Rx         0218  1  00 
   199)       332.0  Rx         0318  8  00 00 00 00 00 00 6E 00 
   200)       332.5  Rx         025B  2  30 00 
   201)       333.5  Rx         035B  8  00 00 00 00 00 00 00 00 
   202)       334.5  Rx         045B  8  00 00 00 00 00 00 00 00 
   203)       335.5  Rx         0484  8  00 00 00 00 00 00 00 00 
   204)       336.2  Rx         055B  4  00 00 00 00 
   205)       336.7  Rx         0710  1  05 
   206)       337.2  Rx         075B  1  05 
   207)       338.2  Rx         02DB  8  00 00 00 00 00 00 00 00 
   208)       339.2  Rx         0120  8  3F 00 00 00 00 02 00 00 
   209)       340.2  Rx         0121  8  00 00 88 C6 00 00 3B 23 
   210)       341.1  Rx         0122  8  00 00 04 00 00 00 00 00 
   211)       342.1  Rx         03DB  8  00 00 00 00 00 00 00 00 
   212)       343.2  Rx         04DB  8  00 00 00 00 00 00 00 00 
   213)       349.9  Rx         01CA  5  EA 03 EB 03 00 
   214)       351.5  Rx         0110  8  02 00 00 00 00 00 00 00 
   215)       353.2  Rx         01CC  5  EF 03 E7 03 00 
   216)       356.1  Rx         0120  8  3F 00 00 00 00 02 00 00 
   217)       357.0  Rx         0121  8  00 00 88 C6 00 00 3B 23 
   218)       358.0  Rx         0122  8  00 00 04 00 00 00 00 00 
   219)       365.2  Rx         024A  0  
   220)       372.1  Rx         01C8  5  F4 03 F5 03 00 
   221)       373.1  Rx         0120  8  3F 00 00 00 00 02 00 00 
   222)       374.0  Rx         0121  8  00 00 88 C6 00 00 3B 23 
   223)       375.0  Rx         0122  8  00 00 04 00 00 00 00 00 
   224)       389.9  Rx         0120  8  3F 00 00 00 00 02 00 00 
   225)       390.9  Rx         0121  8  00 00 88 C6 00 00 3B 23 
   226)       391.8  Rx         0122  8  00 00 04 00 00 00 00 00 
   227)       398.5  Rx         0080  0  
   228)       399.9  Rx         0291  8  00 00 69 0F 00 00 00 00 
   229)       400.3  Rx         024C  0  
   230)       401.2  Rx         0184  8  00 08 AB 0F AB 0F 00 00 
   231)       402.0  Rx         01CA  5  E8 03 EB 03 00 
   232)       403.0  Rx         0110  8  02 00 00 00 00 00 00 00 
   233)       403.9  Rx         0284  8  19 79 19 79 06 00 08 00 
   234)       404.7  Rx         01CC  5  ED 03 E7 03 00 
   235)       405.6  Rx         0290  8  7C 0F 00 00 01 00 00 00 
   236)       406.6  Rx         0120  8  3F 00 00 00 00 02 00 00 
   237)       407.6  Rx         0121  8  00 00 88 C6 00 00 3B 23 
   238)       408.6  Rx         0122  8  00 00 04 00 00 00 00 00 
   239)       409.5  Rx         0294  8  69 0F 69 0F 00 00 00 00 
   240)       410.5  Rx         0295  8  01 00 00 00 00 00 00 00 
   241)       411.0  Rx         0210  1  00 
   242)       412.0  Rx         0298  8  00 00 00 00 7C 0F 00 00 
   243)       413.0  Rx         02DB  8  00 00 00 00 00 00 00 00 
   244)       414.0  Rx         0310  8  4B 00 00 00 00 00 00 00 
   245)       414.4  Rx         0211  1  00 
   246)       415.4  Rx         0311  8  00 00 00 00 00 00 00 00 
   247)       415.9  Rx         0214  1  00 
   248)       416.9  Rx         0314  8  00 00 00 00 00 00 78 00 
   249)       417.3  Rx         0215  1  00 
   250)       418.3  Rx         0315  8  00 00 00 00 00 00 00 00 
   251)       418.8  Rx         0218  1  00 
   252)       419.8  Rx         0318  8  00 00 00 00 00 00 6E 00 
   253)       420.3  Rx         025B  2  30 00 
   254)       421.3  Rx         035B  8  00 00 00 00 00 00 00 00 
   255)       422.3  Rx         0384  8  00 00 00 00 00 00 00 00 
   256)       423.3  Rx         03DB  8  00 00 00 00 00 00 00 00 
   257)       424.0  Rx         01C8  5  F4 03 F7 03 00 
   258)       425.0  Rx         045B  8  00 00 00 00 00 00 00 00 
   259)       426.0  Rx         0120  8  3F 00 00 00 00 02 00 00 
   260)       427.0  Rx         0484  8  00 00 00 00 00 00 00 00 
   261)       428.0  Rx         04DB  8  00 00 00 00 00 00 00 00 
   262)       428.7  Rx         055B  4  00 00 00 00 
   263)       429.6  Rx         0121  8  00 00 88 C6 00 00 3B 23 
   264)       430.6  Rx         0122  8  00 00 04 00 00 00 00 00 
   265)       431.1  Rx         0704  1  05 
   266)       442.0  Rx         0120  8  3F 00 00 00 00 02 00 00 
   267)       442.9  Rx         0121  8  00 00 88 C6 00 00 3B 23 
   268)       443.9  Rx         0122  8  00 00 04 00 00 00 00 00 
   269)       448.5  Rx         0748  1  05 
   270)       452.1  Rx         074A  1  05 
   271)       452.8  Rx         01CA  5  E7 03 E9 03 00 
   272)       453.8  Rx         0110  8  02 00 00 00 00 00 00 00 
   273)       455.4  Rx         074C  1  05 
   274)       456.2  Rx         01CC  5  EF 03 E8 03 00 
   275)       459.3  Rx         0120  8  3F 00 00 00 00 02 00 00 
   276)       460.2  Rx         0121  8  00 00 88 C6 00 00 3B 23 
   277)       461.2  Rx         0122  8  00 00 04 00 00 00 00 00 
   278)       474.5  Rx         01C8  5  F4 03 F6 03 00 
   279)       476.5  Rx         0120  8  3F 00 00 00 00 02 00 00 
   280)       477.4  Rx         0121  8  00 00 88 C6 00 00 3B 23 
   281)       478.4  Rx         0122  8  00 00 04 00 00 00 00 00 
   282)       484.6  Rx         0080  0  
   283)       486.1  Rx         0295  8  01 00 00 00 00 00 00 00 
   284)       487.1  Rx         0290  8  7C 0F 00 00 01 00 00 00 
   285)       488.1  Rx         0184  8  00 08 AB 0F AB 0F 00 00 
   286)       489.0  Rx         0284  8  19 79 19 79 05 00 08 00 
   287)       490.0  Rx         0291  8  00 00 69 0F 00 00 00 00 
   288)       491.0  Rx         0294  8  55 0F 7C 0F 00 00 00 00 
   289)       492.0  Rx         0298  8  00 00 00 00 7C 0F 00 00 
   290)       492.9  Rx         0120  8  3F 00 00 00 00 02 00 00 
   291)       493.9  Rx         0121  8  00 00 88 C6 00 00 3B 23 
   292)       494.9  Rx         0122  8  00 00 04 00 00 00 00 00 
   293)       495.9  Rx         02DB  8  00 00 00 00 00 00 00 00 
   294)       496.9  Rx         0384  8  00 00 00 00 00 00 00 00 
   295)       497.3  Rx         0210  1  00 
   296)       498.3  Rx         0310  8  4B 00 00 00 00 00 00 00 
   297)       498.8  Rx         0211  1  00 
   298)       499.8  Rx         0311  8  00 00 00 00 00 00 00 00 
   299)       500.2  Rx         0214  1  00 
   300)       501.2  Rx         0314  8  00 00 00 00 00 00 78 00 
   301)       501.7  Rx         0215  1  00 
   302)       502.7  Rx         0315  8  00 00 00 00 00 00 00 00 
   303)       503.1  Rx         0218  1  00 
   304)       503.9  Rx         01CA  5  E8 03 EB 03 00 
   305)       504.9  Rx         0110  8  02 00 00 00 00 00 00 00 
   306)       505.9  Rx         0318  8  00 00 00 00 00 00 6E 00 
   307)       506.4  Rx         025B  2  30 00 
   308)       507.1  Rx         01CC  5  EE 03 E7 03 00 
   309)       508.2  Rx         035B  8  00 00 00 00 00 00 00 00 
   310)       509.1  Rx         03DB  8  00 00 00 00 00 00 00 00 
   311)       510.1  Rx         045B  8  00 00 00 00 00 00 00 00 
   312)       511.1  Rx         0120  8  3F 00 00 00 00 02 00 00 
   313)       512.1  Rx         0484  8  00 00 00 00 00 00 00 00 
   314)       513.1  Rx         04DB  8  00 00 00 00 00 00 00 00 
   315)       513.8  Rx         055B  4  00 00 00 00 
   316)       514.7  Rx         0121  8  00 00 88 C6 00 00 3B 23 
   317)       515.7  Rx         0122  8  00 00 04 00 00 00 00 00 
   318)       516.2  Rx         0704  1  05 
   319)       525.7  Rx         01C8  5  F4 03 F5 03 00 
   320)       528.0  Rx         0120  8  3F 00 00 00 00 02 00 00 
   321)       528.9  Rx         0121  8  00 00 88 C6 00 00 3B 23 
   322)       529.9  Rx         0122  8  00 00 04 00 00 00 00 00 
   323)       537.1  Rx         0703  1  05 
   324)       545.7  Rx         0120  8  3F 00 00 00 00 02 00 00 
   325)       546.6  Rx         0121  8  00 00 88 C6 00 00 3B 23 
   326)       547.6  Rx         0122  8  00 00 04 00 00 00 00 00 
   327)       548.1  Rx         0714  1  05 
   328)       554.7  Rx         01CA  5  E8 03 EB 03 00 
   329)       556.0  Rx         0110  8  02 00 00 00 00 00 00 00 
   330)       558.0  Rx         01CC  5  EE 03 E8 03 00 
   331)       560.2  Rx         0718  1  05 
   332)       562.5  Rx         0120  8  3F 00 00 00 00 02 00 00 
   333)       563.4  Rx         0121  8  00 00 88 C6 00 00 3B 23 
   334)       564.4  Rx         0122  8  00 00 04 00 00 00 00 00 
   335)       570.6  Rx         0080  0  
   336)       572.0  Rx         0291  8  00 00 7C 0F 00 00 00 00 
   337)       573.0  Rx         0184  8  00 08 AB 0F A8 0F 00 00 
   338)       573.9  Rx         0284  8  19 79 19 79 05 00 07 00 
   339)       574.9  Rx         0290  8  7C 0F 00 00 01 00 00 00 
   340)       575.8  Rx         0294  8  69 0F 7C 0F 00 00 00 00 
   341)       576.8  Rx         0295  8  01 00 00 00 00 00 00 00 
   342)       577.6  Rx         01C8  5  F5 03 F7 03 00 
   343)       578.6  Rx         0120  8  3F 00 00 00 00 02 00 00 
   344)       579.5  Rx         0121  8  00 00 88 C6 00 00 3B 23 
   345)       580.5  Rx         0122  8  00 00 04 00 00 00 00 00 
   346)       581.5  Rx         0298  8  00 00 00 00 7C 0F 00 00 
   347)       582.5  Rx         02DB  8  00 00 00 00 00 00 00 00 
   348)       583.0  Rx         0210  1  00 
   349)       584.0  Rx         0310  8  4B 00 00 00 00 00 00 00 
   350)       584.4  Rx         0211  1  00 
   351)       585.4  Rx         0311  8  00 00 00 00 00 00 00 00 
   352)       585.9  Rx         0214  1  00 
   353)       586.9  Rx         0314  8  00 00 00 00 00 00 78 00 
   354)       587.3  Rx         0215  1  00 
   355)       588.3  Rx         0315  8  00 00 00 00 00 00 00 00 
   356)       588.8  Rx         0218  1  00 
   357)       589.8  Rx         0318  8  00 00 00 00 00 00 6E 00 
   358)       590.3  Rx         025B  2  30 00 
   359)       591.3  Rx         035B  8  00 00 00 00 00 00 00 00 
   360)       592.3  Rx         0384  8  00 00 00 00 00 00 00 00 
   361)       593.3  Rx         03DB  8  00 00 00 00 00 00 00 00 
   362)       594.3  Rx         045B  8  00 00 00 00 00 00 00 00 
   363)       595.3  Rx         0484  8  00 00 00 00 00 00 00 00 
   364)       596.3  Rx         04DB  8  00 00 00 00 00 00 00 00 
   365)       597.0  Rx         055B  4  00 00 00 00 
   366)       598.0  Rx         0120  8  3F 00 00 00 00 02 00 00 
   367)       598.9  Rx         0121  8  00 00 88 C6 00 00 3B 23 
   368)       599.9  Rx         0122  8  00 00 04 00 00 00 00 00 
   369)       600.4  Rx         0711  1  05 
   370)       600.8  Rx         0715  1  05 
   371)       605.9  Rx         01CA  5  E6 03 EA 03 00 
   372)       606.9  Rx         0110  8  02 00 00 00 00 00 00 00 
   373)       609.2  Rx         01CC  5  EF 03 E5 03 00 
   374)       609.9  Rx         0704  1  05 
   375)       614.6  Rx         0120  8  3F 00 00 00 00 02 00 00 
   376)       615.6  Rx         0121  8  00 00 88 C6 00 00 3B 23 
   377)       616.6  Rx         0122  8  00 00 04 00 00 00 00 00 
   378)       617.0  Rx         075B  1  05 
   379)       622.5  Rx         0710  1  05 
   380)       624.4  Rx         0248  0  
   381)       628.1  Rx         01C8  5  F2 03 F7 03 00 
   382)       631.7  Rx         0120  8  3F 00 00 00 00 02 00 00 
   383)       632.7  Rx         0121  8  00 00 88 C6 00 00 3B 23 
   384)       633.7  Rx         0122  8  00 00 04 00 00 00 00 00 
   385)       648.5  Rx         0120  8  3F 00 00 00 00 02 00 00 
   386)       649.5  Rx         0121  8  00 00 88 C6 00 00 3B 23 
   387)       650.5  Rx         0122  8  00 00 04 00 00 00 00 00 
   388)       656.7  Rx         0080  0  
   389)       657.7  Rx         0110  8  02 00 00 00 00 00 00 00 
   390)       658.4  Rx         01CA  5  E9 03 EA 03 00 
   391)       658.8  Rx         0250  0  
   392)       659.8  Rx         0184  8  00 08 AB 0F A6 0F 00 00 
   393)       660.5  Rx         01CC  5  EF 03 E4 03 00 
   394)       661.5  Rx         0284  8  19 79 19 79 05 00 07 00 
   395)       662.4  Rx         0290  8  69 0F 00 00 01 00 00 00 
   396)       663.4  Rx         0291  8  00 00 69 0F 00 00 00 00 
   397)       664.3  Rx         0294  8  69 0F 69 0F 00 00 00 00 
   398)       665.3  Rx         0120  8  3F 00 00 00 00 02 00 00 
   399)       666.3  Rx         0121  8  00 00 88 C6 00 00 3B 23 
   400)       667.3  Rx         0122  8  00 00 04 00 00 00 00 00 
   401)       668.3  Rx         0295  8  01 00 00 00 00 00 00 00 
   402)       669.3  Rx         0298  8  00 00 00 00 7C 0F 00 00 
   403)       669.7  Rx         0210  1  00 
   404)       670.7  Rx         02DB  8  00 00 00 00 00 00 00 00 
   405)       671.7  Rx         0310  8  4B 00 00 00 00 00 00 00 
   406)       672.2  Rx         0211  1  00 
   407)       673.2  Rx         0311  8  00 00 00 00 00 00 00 00 
   408)       673.6  Rx         0214  1  00 
   409)       674.6  Rx         0314  8  00 00 00 00 00 00 78 00 
   410)       675.1  Rx         0215  1  00 
   411)       676.1  Rx         0315  8  00 00 00 00 00 00 00 00 
   412)       676.5  Rx         0218  1  00 
   413)       677.5  Rx         0318  8  00 00 00 00 00 00 6E 00 
   414)       678.0  Rx         025B  2  30 00 
   415)       679.1  Rx         035B  8  00 00 00 00 00 00 00 00 
   416)       679.8  Rx         01C8  5  F4 03 F6 03 00 
   417)       680.8  Rx         0384  8  00 00 00 00 00 00 00 00 
   418)       681.8  Rx         03DB  8  00 00 00 00 00 00 00 00 
   419)       682.8  Rx         045B  8  00 00 00 00 00 00 00 00 
   420)       683.8  Rx         0120  8  3F 00 00 00 00 02 00 00 
   421)       684.8  Rx         0484  8  00 00 00 00 00 00 00 00 
   422)       685.8  Rx         04DB  8  00 00 00 00 00 00 00 00 
   423)       686.5  Rx         055B  4  00 00 00 00 
   424)       687.4  Rx         0121  8  00 00 88 C6 00 00 3B 23 
   425)       688.4  Rx         0122  8  00 00 04 00 00 00 00 00 
   426)       701.1  Rx         0120  8  3F 00 00 00 00 02 00 00 
   427)       702.0  Rx         0121  8  00 00 88 C6 00 00 3B 23 
   428)       703.0  Rx         0122  8  00 00 04 00 00 00 00 00 
   429)       704.5  Rx         0748  1  05 
   430)       708.5  Rx         0110  8  02 00 00 00 00 00 00 00 
   431)       708.9  Rx         074A  1  05 
   432)       709.7  Rx         01CA  5  E6 03 ED 03 00 
   433)       710.8  Rx         0704  1  05 
   434)       711.4  Rx         074C  1  05 
   435)       712.2  Rx         01CC  5  EF 03 E7 03 00 
   436)       717.9  Rx         0120  8  3F 00 00 00 00 02 00 00 
   437)       718.8  Rx         0121  8  00 00 88 C6 00 00 3B 23 
   438)       719.8  Rx         0122  8  00 00 04 00 00 00 00 00 
   439)       730.5  Rx         01C8  5  F4 03 F6 03 00 
   440)       734.6  Rx         0120  8  3F 00 00 00 00 02 00 00 
   441)       735.5  Rx         0121  8  00 00 88 C6 00 00 3B 23 
   442)       736.5  Rx         0122  8  00 00 04 00 00 00 00 00 
   443)       742.7  Rx         0080  0  
   444)       744.1  Rx         0291  8  00 00 69 0F 00 00 00 00 
   445)       745.1  Rx         0184  8  00 08 AB 0F A6 0F 00 00 
   446)       746.0  Rx         0290  8  A3 0F 00 00 01 00 00 00 
   447)       747.0  Rx         0284  8  19 79 19 79 06 00 08 00 
   448)       747.9  Rx         0294  8  69 0F 7C 0F 00 00 00 00 
   449)       748.9  Rx         0295  8  01 00 00 00 00 00 00 00 
   450)       749.9  Rx         0298  8  00 00 00 00 7C 0F 00 00 
   451)       750.9  Rx         0120  8  3F 00 00 00 00 02 00 00 
   452)       751.8  Rx         0121  8  00 00 88 C6 00 00 3B 23 
   453)       752.8  Rx         0122  8  00 00 04 00 00 00 00 00 
   454)       753.8  Rx         02DB  8  00 00 00 00 00 00 00 00 
   455)       754.8  Rx         0384  8  00 00 00 00 00 00 00 00 
   456)       755.3  Rx         0210  1  00 
   457)       756.3  Rx         0310  8  4B 00 00 00 00 00 00 00 
   458)       756.7  Rx         0211  1  00 
   459)       757.8  Rx         0311  8  00 00 00 00 00 00 00 00 
   460)       758.2  Rx         0214  1  00 
   461)       759.2  Rx         0314  8  00 00 00 00 00 00 78 00 
   462)       760.2  Rx         0110  8  02 00 00 00 00 00 00 00 
   463)       760.9  Rx         01CA  5  E7 03 E9 03 00 
   464)       761.4  Rx         0215  1  00 
   465)       762.4  Rx         0315  8  00 00 00 00 00 00 00 00 
   466)       763.1  Rx         01CC  5  EF 03 E4 03 00 
   467)       763.6  Rx         0218  1  00 
   468)       764.0  Rx         024A  0  
   469)       765.0  Rx         0318  8  00 00 00 00 00 00 6E 00 
   470)       765.5  Rx         025B  2  30 00 
   471)       766.5  Rx         035B  8  00 00 00 00 00 00 00 00 
   472)       767.5  Rx         03DB  8  00 00 00 00 00 00 00 00 
   473)       768.5  Rx         045B  8  00 00 00 00 00 00 00 00 
   474)       769.5  Rx         0484  8  00 00 00 00 00 00 00 00 
   475)       770.5  Rx         04DB  8  00 00 00 00 00 00 00 00 
   476)       771.2  Rx         055B  4  00 00 00 00 
   477)       772.2  Rx         0120  8  3F 00 00 00 00 02 00 00 
   478)       773.1  Rx         0121  8  00 00 88 C6 00 00 3B 23 
   479)       774.1  Rx         0122  8  00 00 04 00 00 00 00 00 
   480)       781.7  Rx         01C8  5  F3 03 F5 03 00 
   481)       787.0  Rx         0120  8  3F 00 00 00 00 02 00 00 
   482)       787.9  Rx         0121  8  00 00 88 C6 00 00 3B 23 
   483)       788.9  Rx         0122  8  00 00 04 00 00 00 00 00 
   484)       796.2  Rx         024C  0  
   485)       803.8  Rx         0120  8  3F 00 00 00 00 02 00 00 
   486)       804.7  Rx         0121  8  00 00 88 C6 00 00 3B 23 
   487)       805.7  Rx         0122  8  00 00 04 00 00 00 00 00 
   488)       810.9  Rx         0110  8  02 00 00 00 00 00 00 00 
   489)       811.7  Rx         01CA  5  E8 03 ED 03 00 
   490)       812.9  Rx         0704  1  05 
   491)       814.0  Rx         01CC  5  EE 03 E5 03 00 
   492)       820.6  Rx         0120  8  3F 00 00 00 00 02 00 00 
   493)       821.5  Rx         0121  8  00 00 88 C6 00 00 3B 23 
   494)       822.5  Rx         0122  8  00 00 04 00 00 00 00 00 
   495)       829.1  Rx         0080  0  
   496)       830.7  Rx         0290  8  A3 0F 00 00 01 00 00 00 
   497)       831.7  Rx         0291  8  00 00 69 0F 00 00 00 00 
   498)       832.6  Rx         0184  8  00 08 A8 0F AB 0F 00 00 
   499)       833.4  Rx         01C8  5  F3 03 F6 03 00 
   500)       834.3  Rx         0284  8  19 79 19 79 05 00 08 00 
   501)       835.3  Rx         0294  8  69 0F 69 0F 00 00 00 00 
   502)       836.3  Rx         0295  8  01 00 00 00 00 00 00 00 
   503)       837.3  Rx         0120  8  3F 00 00 00 00 02 00 00 
   504)       838.2  Rx         0121  8  00 00 88 C6 00 00 3B 23 
   505)       839.2  Rx         0122  8  00 00 04 00 00 00 00 00 
   506)       840.2  Rx         0298  8  00 00 00 00 7C 0F 00 00 
   507)       841.2  Rx         02DB  8  00 00 00 00 00 00 00 00 
   508)       841.7  Rx         0210  1  00 
   509)       842.6  Rx         0310  8  4B 00 00 00 00 00 00 00 
   510)       843.1  Rx         0211  1  00 
   511)       844.1  Rx         0311  8  00 00 00 00 00 00 00 00 
   512)       844.6  Rx         0214  1  00 
   513)       845.6  Rx         0314  8  00 00 00 00 00 00 78 00 
   514)       846.0  Rx         0215  1  00 
   515)       847.0  Rx         0315  8  00 00 00 00 00 00 00 00 
   516)       847.5  Rx         0218  1  00 
   517)       848.5  Rx         0318  8  00 00 00 00 00 00 6E 00 
   518)       849.0  Rx         025B  2  30 00 
   519)       850.0  Rx         035B  8  00 00 00 00 00 00 00 00 
   520)       851.0  Rx         0384  8  00 00 00 00 00 00 00 00 
   521)       852.0  Rx         03DB  8  00 00 00 00 00 00 00 00 
   522)       853.0  Rx         045B  8  00 00 00 00 00 00 00 00 
   523)       854.0  Rx         0484  8  00 00 00 00 00 00 00 00 
   524)       855.0  Rx         04DB  8  00 00 00 00 00 00 00 00 
   525)       855.7  Rx         055B  4  00 00 00 00 
   526)       856.7  Rx         0120  8  3F 00 00 00 00 02 00 00 
   527)       857.1  Rx         0703  1  05 
   528)       858.1  Rx         0121  8  00 00 88 C6 00 00 3B 23 
   529)       859.0  Rx         0122  8  00 00 04 00 00 00 00 00 
   530)       859.5  Rx         0714  1  05 
   531)       860.6  Rx         0718  1  05 
   532)       861.6  Rx         0110  8  02 00 00 00 00 00 00 00 
   533)       862.3  Rx         01CA  5  E8 03 EB 03 00 
   534)       865.2  Rx         01CC  5  EF 03 E7 03 00 
   535)       873.2  Rx         0120  8  3F 00 00 00 00 02 00 00 
   536)       874.2  Rx         0121  8  00 00 88 C6 00 00 3B 23 
   537)       875.2  Rx         0122  8  00 00 04 00 00 00 00 00 
   538)       879.9  Rx         0711  1  05 
   539)       884.1  Rx         01C8  5  F5 03 F6 03 00 
   540)       889.8  Rx         0120  8  3F 00 00 00 00 02 00 00 
   541)       890.7  Rx         0121  8  00 00 88 C6 00 00 3B 23 
   542)       891.7  Rx         0122  8  00 00 04 00 00 00 00 00 
   543)       898.6  Rx         0715  1  05 
   544)       907.0  Rx         0120  8  3F 00 00 00 00 02 00 00 
   545)       908.0  Rx         0121  8  00 00 88 C6 00 00 3B 23 
   546)       909.0  Rx         0122  8  00 00 04 00 00 00 00 00 
   547)       913.1  Rx         01CA  5  E8 03 E9 03 00 
   548)       914.1  Rx         0110  8  02 00 00 00 00 00 00 00 
   549)       914.5  Rx         0704  1  05 
   550)       915.6  Rx         0080  0  
   551)       916.4  Rx         01CC  5  EF 03 E7 03 00 
   552)       917.4  Rx         0290  8  A3 0F 00 00 01 00 00 00 
   553)       918.3  Rx         0184  8  00 08 A5 0F AB 0F 00 00 
   554)       919.3  Rx         0284  8  19 79 19 79 06 00 08 00 
   555)       920.3  Rx         0291  8  00 00 69 0F 00 00 00 00 
   556)       921.2  Rx         0294  8  69 0F 7C 0F 00 00 00 00 
   557)       922.2  Rx         0295  8  01 00 00 00 00 00 00 00 
   558)       923.2  Rx         0298  8  00 00 00 00 7C 0F 00 00 
   559)       924.2  Rx         0120  8  3F 00 00 00 00 02 00 00 
   560)       925.1  Rx         0121  8  00 00 88 C6 00 00 3B 23 
   561)       926.1  Rx         0122  8  00 00 04 00 00 00 00 00 
   562)       927.1  Rx         0384  8  00 00 00 00 00 00 00 00 
   563)       928.1  Rx         0484  8  00 00 00 00 00 00 00 00 
   564)       928.6  Rx         0210  1  00 
   565)       929.6  Rx         0310  8  4B 00 00 00 00 00 00 00 
   566)       930.1  Rx         0211  1  00 
   567)       931.1  Rx         0311  8  00 00 00 00 00 00 00 00 
   568)       931.5  Rx         0214  1  00 
   569)       932.5  Rx         0314  8  00 00 00 00 00 00 78 00 
   570)       933.0  Rx         0215  1  00 
   571)       934.0  Rx         0315  8  00 00 00 00 00 00 00 00 
   572)       934.4  Rx         0218  1  00 
   573)       935.4  Rx         0318  8  00 00 00 00 00 00 6E 00 
   574)       936.2  Rx         01C8  5  F4 03 F7 03 00 
   575)       936.7  Rx         025B  2  30 00 
   576)       937.7  Rx         035B  8  00 00 00 00 00 00 00 00 
   577)       938.7  Rx         045B  8  00 00 00 00 00 00 00 00 
   578)       939.4  Rx         055B  4  00 00 00 00 
   579)       939.8  Rx         0710  1  05 
   580)       940.3  Rx         075B  1  05 
   581)       941.4  Rx         02DB  8  00 00 00 00 00 00 00 00 
   582)       942.3  Rx         0120  8  3F 00 00 00 00 02 00 00 
   583)       943.3  Rx         0121  8  00 00 88 C6 00 00 3B 23 
   584)       944.3  Rx         0122  8  00 00 04 00 00 00 00 00 
   585)       945.3  Rx         03DB  8  00 00 00 00 00 00 00 00 
   586)       946.3  Rx         04DB  8  00 00 00 00 00 00 00 00 
   587)       959.1  Rx         0120  8  3F 00 00 00 00 02 00 00 
   588)       960.0  Rx         0121  8  00 00 88 C6 00 00 3B 23 
   589)       961.0  Rx         0122  8  00 00 04 00 00 00 00 00 
   590)       961.5  Rx         0748  1  05 
   591)       964.5  Rx         0110  8  02 00 00 00 00 00 00 00 
   592)       964.9  Rx         074A  1  05 
   593)       965.7  Rx         01CA  5  E6 03 EB 03 00 
   594)       967.4  Rx         074C  1  05 
   595)       968.2  Rx         01CC  5  EE 03 E8 03 00 
   596)       975.9  Rx         0120  8  3F 00 00 00 00 02 00 00 
   597)       976.9  Rx         0121  8  00 00 88 C6 00 00 3B 23 
   598)       977.9  Rx         0122  8  00 00 04 00 00 00 00 00 
   599)       986.5  Rx         01C8  5  F5 03 F8 03 00 
   600)       993.5  Rx         0120  8  3F 00 00 00 00 02 00 00 
   601)       994.5  Rx         0121  8  00 00 88 C6 00 00 3B 23 
   602)       995.5  Rx         0122  8  00 00 04 00 00 00 00 00 
   603)      1001.7  Rx         0080  0  
   604)      1003.2  Rx         0294  8  69 0F 7C 0F 00 00 00 00 
   605)      1004.1  Rx         0290  8  A3 0F 00 00 01 00 00 00 
   606)      1005.1  Rx         0184  8  00 08 AB 0F AB 0F 00 00 
   607)      1006.0  Rx         0284  8  19 79 19 79 05 00 08 00 
   608)      1007.0  Rx         0291  8  00 00 69 0F 00 00 00 00 
   609)      1008.0  Rx         0295  8  01 00 00 00 00 00 00 00 
   610)      1009.0  Rx         0298  8  00 00 00 00 7C 0F 00 00 
   611)      1010.0  Rx         0120  8  3F 00 00 00 00 02 00 00 
   612)      1010.9  Rx         0121  8  00 00 88 C6 00 00 3B 23 
   613)      1011.9  Rx         0122  8  00 00 04 00 00 00 00 00 
   614)      1012.9  Rx         02DB  8  00 00 00 00 00 00 00 00 
   615)      1013.9  Rx         0384  8  00 00 00 00 00 00 00 00 
   616)      1014.4  Rx         0210  1  00 
   617)      1015.4  Rx         0310  8  4B 00 00 00 00 00 00 00 
   618)      1016.4  Rx         0110  8  02 00 00 00 00 00 00 00 
   619)      1017.1  Rx         01CA  5  E8 03 EB 03 00 
   620)      1017.6  Rx         0211  1  00 
   621)      1018.6  Rx         0311  8  00 00 00 00 00 00 00 00 
   622)      1019.3  Rx         01CC  5  ED 03 E8 03 00 
   623)      1019.8  Rx         0214  1  00 
   624)      1020.8  Rx         0314  8  00 00 00 00 00 00 78 00 
   625)      1021.1  Rx         0248  0  
   626)      1021.6  Rx         0215  1  00 
   627)      1022.6  Rx         0315  8  00 00 00 00 00 00 00 00 
   628)      1023.1  Rx         0218  1  00 
   629)      1024.0  Rx         0318  8  00 00 00 00 00 00 6E 00 
   630)      1024.6  Rx         025B  2  30 00 
   631)      1025.6  Rx         035B  8  00 00 00 00 00 00 00 00 
   632)      1026.6  Rx         03DB  8  00 00 00 00 00 00 00 00 
   633)      1027.6  Rx         045B  8  00 00 00 00 00 00 00 00 
   634)      1028.6  Rx         0120  8  3F 00 00 00 00 02 00 00 
   635)      1029.6  Rx         0484  8  00 00 00 00 00 00 00 00 
   636)      1030.6  Rx         04DB  8  00 00 00 00 00 00 00 00 
   637)      1031.2  Rx         055B  4  00 00 00 00 
   638)      1032.2  Rx         0121  8  00 00 88 C6 00 00 3B 23 
   639)      1033.2  Rx         0122  8  00 00 04 00 00 00 00 00 
   640)      1033.6  Rx         0704  1  05 
   641)      1037.7  Rx         01C8  5  F3 03 F6 03 00 
   642)      1045.1  Rx         0120  8  3F 00 00 00 00 02 00 00 
   643)      1046.1  Rx         0121  8  00 00 88 C6 00 00 3B 23 
   644)      1047.1  Rx         0122  8  00 00 04 00 00 00 00 00 
   645)      1054.9  Rx         0250  0  
   646)      1062.4  Rx         0120  8  3F 00 00 00 00 02 00 00 
   647)      1063.3  Rx         0121  8  00 00 88 C6 00 00 3B 23 
   648)      1064.3  Rx         0122  8  00 00 04 00 00 00 00 00 
   649)      1066.5  Rx         0110  8  02 00 00 00 00 00 00 00 
   650)      1067.2  Rx         01CA  5  E8 03 EA 03 00 
   651)      1070.0  Rx         01CC  5  F1 03 E7 03 00 
   652)      1079.7  Rx         0120  8  3F 00 00 00 00 02 00 00 
   653)      1080.6  Rx         0121  8  00 00 88 C6 00 00 3B 23 
   654)      1081.6  Rx         0122  8  00 00 04 00 00 00 00 00 
   655)      1087.8  Rx         0080  0  
   656)      1088.9  Rx         01C8  5  F4 03 F6 03 00 
   657)      1089.9  Rx         0290  8  A3 0F 00 00 01 00 00 00 
   658)      1090.9  Rx         0184  8  00 08 A8 0F A8 0F 00 00 
   659)      1091.8  Rx         0284  8  19 79 19 79 05 00 08 00 
   660)      1092.8  Rx         0291  8  00 00 69 0F 00 00 00 00 
   661)      1093.7  Rx         0294  8  69 0F 7C 0F 00 00 00 00 
   662)      1094.7  Rx         0295  8  01 00 00 00 00 00 00 00 
   663)      1095.7  Rx         0120  8  3F 00 00 00 00 02 00 00 
   664)      1096.7  Rx         0121  8  00 00 88 C6 00 00 3B 23 
   665)      1097.6  Rx         0122  8  00 00 04 00 00 00 00 00 
   666)      1098.6  Rx         0298  8  00 00 00 00 7C 0F 00 00 
   667)      1099.6  Rx         02DB  8  00 00 00 00 00 00 00 00 
   668)      1100.1  Rx         0210  1  00 
   669)      1101.1  Rx         0310  8  4B 00 00 00 00 00 00 00 
   670)      1101.6  Rx         0211  1  00 
   671)      1102.6  Rx         0311  8  00 00 00 00 00 00 00 00 
   672)      1103.0  Rx         0214  1  00 
   673)      1104.0  Rx         0314  8  00 00 00 00 00 00 78 00 
   674)      1104.5  Rx         0215  1  00 
   675)      1105.5  Rx         0315  8  00 00 00 00 00 00 00 00 
   676)      1105.9  Rx         0218  1  00 
   677)      1106.9  Rx         0318  8  00 00 00 00 00 00 6E 00 
   678)      1107.4  Rx         025B  2  30 00 
   679)      1108.4  Rx         035B  8  00 00 00 00 00 00 00 00 
   680)      1109.4  Rx         0384  8  00 00 00 00 00 00 00 00 
   681)      1110.4  Rx         03DB  8  00 00 00 00 00 00 00 00 
   682)      1111.4  Rx         045B  8  00 00 00 00 00 00 00 00 
   683)      1112.4  Rx         0484  8  00 00 00 00 00 00 00 00 
   684)      1113.4  Rx         04DB  8  00 00 00 00 00 00 00 00 
   685)      1114.1  Rx         055B  4  00 00 00 00 
   686)      1115.1  Rx         0120  8  3F 00 00 00 00 02 00 00 
   687)      1116.0  Rx         0121  8  00 00 88 C6 00 00 3B 23 
   688)      1117.0  Rx         0122  8  00 00 04 00 00 00 00 00 
   689)      1118.0  Rx         0110  8  02 00 00 00 00 00 00 00 
   690)      1118.8  Rx         01CA  5  E6 03 E9 03 00 
   691)      1119.2  Rx         0704  1  05 
   692)      1121.2  Rx         01CC  5  EF 03 E7 03 00 
   693)      1131.8  Rx         0120  8  3F 00 00 00 00 02 00 00 
   694)      1132.7  Rx         0121  8  00 00 88 C6 00 00 3B 23 
   695)      1133.7  Rx         0122  8  00 00 04 00 00 00 00 00 
   696)      1140.1  Rx         01C8  5  F3 03 F6 03 00 
   697)      1146.8  Rx         0714  1  05 
   698)      1148.9  Rx         0120  8  3F 00 00 00 00 02 00 00 
   699)      1149.8  Rx         0121  8  00 00 88 C6 00 00 3B 23 
   700)      1150.8  Rx         0122  8  00 00 04 00 00 00 00 00 
   701)      1157.1  Rx         0703  1  05 
   702)      1158.2  Rx         024A  0  
   703)      1161.6  Rx         0718  1  05 
   704)      1165.9  Rx         0120  8  3F 00 00 00 00 02 00 00 
   705)      1166.8  Rx         0121  8  00 00 88 C6 00 00 3B 23 
   706)      1167.8  Rx         0122  8  00 00 04 00 00 00 00 00 
   707)      1168.8  Rx         0110  8  02 00 00 00 00 00 00 00 
   708)      1169.5  Rx         01CA  5  E8 03 E9 03 00 
   709)      1172.4  Rx         01CC  5  ED 03 E8 03 00 
   710)      1174.0  Rx         0080  0  
   711)      1175.5  Rx         0295  8  01 00 00 00 00 00 00 00 
   712)      1176.4  Rx         0184  8  00 08 A8 0F A8 0F 00 00 
   713)      1177.4  Rx         0284  8  19 79 19 79 05 00 07 00 
   714)      1178.3  Rx         0290  8  A3 0F 00 00 01 00 00 00 
   715)      1179.3  Rx         0291  8  00 00 69 0F 00 00 00 00 
   716)      1180.3  Rx         0294  8  69 0F 7C 0F 00 00 00 00 
   717)      1181.3  Rx         0298  8  00 00 00 00 7C 0F 00 00 
   718)      1182.3  Rx         0120  8  3F 00 00 00 00 02 00 00 
   719)      1183.2  Rx         0121  8  00 00 88 C6 00 00 3B 23 
   720)      1184.2  Rx         0122  8  00 00 04 00 00 00 00 00 
   721)      1185.2  Rx         02DB  8  00 00 00 00 00 00 00 00 
   722)      1186.2  Rx         0384  8  00 00 00 00 00 00 00 00 
   723)      1186.7  Rx         0210  1  00 
   724)      1187.6  Rx         0310  8  4B 00 00 00 00 00 00 00 
   725)      1188.1  Rx         0211  1  00 
   726)      1189.1  Rx         0311  8  00 00 00 00 00 00 00 00 
   727)      1189.6  Rx         0214  1  00 
   728)      1190.6  Rx         0314  8  00 00 00 00 00 00 78 00 
   729)      1191.0  Rx         0215  1  00 
   730)      1191.8  Rx         01C8  5  F5 03 F6 03 00 
   731)      1192.8  Rx         0315  8  00 00 00 00 00 00 00 00 
   732)      1193.1  Rx         024C  0  
   733)      1193.6  Rx         0218  1  00 
   734)      1194.6  Rx         0318  8  00 00 00 00 00 00 6E 00 
   735)      1195.1  Rx         025B  2  30 00 
   736)      1196.1  Rx         035B  8  00 00 00 00 00 00 00 00 
   737)      1197.1  Rx         03DB  8  00 00 00 00 00 00 00 00 
   738)      1198.1  Rx         045B  8  00 00 00 00 00 00 00 00 
   739)      1199.1  Rx         0484  8  00 00 00 00 00 00 00 00 
   740)      1200.1  Rx         04DB  8  00 00 00 00 00 00 00 00 
   741)      1200.8  Rx         055B  4  00 00 00 00 
   742)      1201.8  Rx         0120  8  3F 00 00 00 00 02 00 00 
   743)      1202.7  Rx         0121  8  00 00 88 C6 00 00 3B 23 
   744)      1203.7  Rx         0122  8  00 00 04 00 00 00 00 00 
   745)      1204.2  Rx         0711  1  05 
   746)      1204.6  Rx         0715  1  05 
   747)      1213.1  Rx         0704  1  05 
   748)      1216.5  Rx         0748  1  05 
   749)      1218.2  Rx         0120  8  3F 00 00 00 00 02 00 00 
   750)      1219.1  Rx         0121  8  00 00 88 C6 00 00 3B 23 
   751)      1220.1  Rx         0110  8  02 00 00 00 00 00 00 00 
   752)      1221.1  Rx         0122  8  00 00 04 00 00 00 00 00 
   753)      1221.6  Rx         074A  1  05 
   754)      1222.3  Rx         01CA  5  E9 03 EB 03 00 
   755)      1222.8  Rx         075B  1  05 
   756)      1223.5  Rx         074C  1  05 
   757)      1224.2  Rx         01CC  5  EF 03 E7 03 00 
   758)      1224.7  Rx         0710  1  05 
   759)      1235.3  Rx         0120  8  3F 00 00 00 00 02 00 00 
   760)      1236.3  Rx         0121  8  00 00 88 C6 00 00 3B 23 
   761)      1237.2  Rx         0122  8  00 00 04 00 00 00 00 00 
   762)      1242.5  Rx         01C8  5  F5 03 F7 03 00 
   763)      1252.2  Rx         0120  8  3F 00 00 00 00 02 00 00 
   764)      1253.1  Rx         0121  8  00 00 88 C6 00 00 3B 23 
   765)      1254.1  Rx         0122  8  00 00 04 00 00 00 00 00 
   766)      1260.4  Rx         0080  0  
   767)      1261.8  Rx         0294  8  55 0F 7C 0F 00 00 00 00 
   768)      1262.8  Rx         0290  8  A3 0F 00 00 01 00 00 00 
   769)      1263.7  Rx         0184  8  00 08 AB 0F A8 0F 00 00 
   770)      1264.7  Rx         0284  8  19 79 19 79 05 00 08 00 
   771)      1265.7  Rx         0291  8  00 00 7C 0F 00 00 00 00 
   772)      1266.6  Rx         0295  8  01 00 00 00 00 00 00 00 
   773)      1267.6  Rx         0298  8  00 00 00 00 69 0F 00 00 
   774)      1268.6  Rx         0120  8  3F 00 00 00 00 02 00 00 
   775)      1269.6  Rx         0121  8  00 00 88 C6 00 00 3B 23 
   776)      1270.6  Rx         0110  8  02 00 00 00 00 00 00 00 
   777)      1271.5  Rx         0122  8  00 00 04 00 00 00 00 00 
   778)      1272.3  Rx         01CA  5  E7 03 EA 03 00 
   779)      1272.8  Rx         0210  1  00 
   780)      1273.7  Rx         02DB  8  00 00 00 00 00 00 00 00 
   781)      1274.7  Rx         0310  8  4B 00 00 00 00 00 00 00 
   782)      1275.5  Rx         01CC  5  EE 03 E7 03 00 
   783)      1275.9  Rx         0211  1  00 
   784)      1276.9  Rx         0311  8  00 00 00 00 00 00 00 00 
   785)      1277.4  Rx         0214  1  00 
   786)      1278.4  Rx         0314  8  00 00 00 00 00 00 78 00 
   787)      1278.9  Rx         0215  1  00 
   788)      1279.8  Rx         0315  8  00 00 00 00 00 00 00 00 
   789)      1280.3  Rx         0218  1  00 
   790)      1281.3  Rx         0318  8  00 00 00 00 00 00 6E 00 
   791)      1281.8  Rx         025B  2  30 00 
   792)      1282.8  Rx         035B  8  00 00 00 00 00 00 00 00 
   793)      1283.8  Rx         0384  8  00 00 00 00 00 00 00 00 
   794)      1284.8  Rx         03DB  8  00 00 00 00 00 00 00 00 
   795)      1285.8  Rx         045B  8  00 00 00 00 00 00 00 00 
   796)      1286.8  Rx         0484  8  00 00 00 00 00 00 00 00 
   797)      1287.8  Rx         04DB  8  00 00 00 00 00 00 00 00 
   798)      1288.5  Rx         055B  4  00 00 00 00 
   799)      1289.5  Rx         0120  8  3F 00 00 00 00 02 00 00 
   800)      1290.4  Rx         0121  8  00 00 88 C6 00 00 3B 23 
   801)      1291.4  Rx         0122  8  00 00 04 00 00 00 00 00 
   802)      1293.7  Rx         01C8  5  F4 03 F5 03 00 
   803)      1304.9  Rx         0120  8  3F 00 00 00 00 02 00 00 
   804)      1305.9  Rx         0121  8  00 00 88 C6 00 00 3B 23 
   805)      1306.9  Rx         0122  8  00 00 04 00 00 00 00 00 
   806)      1313.3  Rx         0704  1  05 
   807)      1321.5  Rx         0110  8  02 00 00 00 00 00 00 00 
   808)      1322.6  Rx         0120  8  3F 00 00 00 00 02 00 00 
   809)      1323.5  Rx         0121  8  00 00 88 C6 00 00 3B 23 
   810)      1324.5  Rx         0122  8  00 00 04 00 00 00 00 00 
   811)      1325.2  Rx         01CA  5  E7 03 E8 03 00 
   812)      1326.1  Rx         01CC  5  EF 03 E8 03 00 
   813)      1338.4  Rx         0120  8  3F 00 00 00 00 02 00 00 
   814)      1339.4  Rx         0121  8  00 00 88 C6 00 00 3B 23 
   815)      1340.4  Rx         0122  8  00 00 04 00 00 00 00 00 
   816)      1345.0  Rx         01C8  5  F4 03 F7 03 00 
   817)      1347.0  Rx         0080  0  
   818)      1348.5  Rx         0295  8  01 00 00 00 00 00 00 00 
   819)      1349.5  Rx         0184  8  00 08 A8 0F A8 0F 00 00 
   820)      1350.4  Rx         0284  8  19 79 19 79 04 00 08 00 
   821)      1351.4  Rx         0290  8  A3 0F 00 00 01 00 00 00 
   822)      1352.4  Rx         0291  8  00 00 69 0F 00 00 00 00 
   823)      1353.3  Rx         0294  8  69 0F 7C 0F 00 00 00 00 
   824)      1354.3  Rx         0298  8  00 00 00 00 7C 0F 00 00 
   825)      1355.3  Rx         0120  8  3F 00 00 00 00 02 00 00 
   826)      1356.3  Rx         0121  8  00 00 88 C6 00 00 3B 23 
   827)      1357.2  Rx         0122  8  00 00 04 00 00 00 00 00 
   828)      1358.2  Rx         02DB  8  00 00 00 00 00 00 00 00 
   829)      1359.2  Rx         0384  8  00 00 00 00 00 00 00 00 
   830)      1359.7  Rx         0210  1  00 
   831)      1360.7  Rx         0310  8  4B 00 00 00 00 00 00 00 
   832)      1361.2  Rx         0211  1  00 
   833)      1362.2  Rx         0311  8  00 00 00 00 00 00 00 00 
   834)      1362.6  Rx         0214  1  00 
   835)      1363.6  Rx         0314  8  00 00 00 00 00 00 78 00 
   836)      1364.1  Rx         0215  1  00 
   837)      1365.1  Rx         0315  8  00 00 00 00 00 00 00 00 
   838)      1365.5  Rx         0218  1  00 
   839)      1366.5  Rx         0318  8  00 00 00 00 00 00 6E 00 
   840)      1367.0  Rx         025B  2  30 00 
   841)      1368.0  Rx         035B  8  00 00 00 00 00 00 00 00 
   842)      1369.0  Rx         03DB  8  00 00 00 00 00 00 00 00 
   843)      1370.0  Rx         045B  8  00 00 00 00 00 00 00 00 
   844)      1371.0  Rx         0484  8  00 00 00 00 00 00 00 00 
   845)      1372.0  Rx         04DB  8  00 00 00 00 00 00 00 00 
   846)      1372.7  Rx         055B  4  00 00 00 00 
   847)      1373.9  Rx         0120  8  3F 00 00 00 00 02 00 00 
   848)      1374.9  Rx         0121  8  00 00 88 C6 00 00 3B 23 
   849)      1375.9  Rx         0122  8  00 00 04 00 00 00 00 00 
   850)      1376.9  Rx         0110  8  02 00 00 00 00 00 00 00 
   851)      1377.6  Rx         01CA  5  E7 03 EB 03 00 
   852)      1378.4  Rx         01CC  5  EF 03 E5 03 00 
   853)      1390.9  Rx         0120  8  3F 00 00 00 00 02 00 00 
   854)      1391.8  Rx         0121  8  00 00 88 C6 00 00 3B 23 
   855)      1392.8  Rx         0122  8  00 00 04 00 00 00 00 00 
   856)      1396.2  Rx         01C8  5  F4 03 F6 03 00 
   857)      1407.7  Rx         0120  8  3F 00 00 00 00 02 00 00 
   858)      1408.7  Rx         0121  8  00 00 88 C6 00 00 3B 23 
   859)      1409.6  Rx         0122  8  00 00 04 00 00 00 00 00 
   860)      1413.4  Rx         0704  1  05 
   861)      1417.0  Rx         0248  0  
   862)      1424.5  Rx         0120  8  3F 00 00 00 00 02 00 00 
   863)      1425.4  Rx         0121  8  00 00 88 C6 00 00 3B 23 
   864)      1426.4  Rx         0122  8  00 00 04 00 00 00 00 00 
   865)      1427.4  Rx         0110  8  02 00 00 00 00 00 00 00 
   866)      1428.1  Rx         01CA  5  E8 03 E9 03 00 
   867)      1428.9  Rx         01CC  5  EF 03 E5 03 00 
   868)      1433.0  Rx         0080  0  
   869)      1434.5  Rx         0294  8  69 0F 7C 0F 00 00 00 00 
   870)      1435.5  Rx         0290  8  A3 0F 00 00 01 00 00 00 
   871)      1436.5  Rx         0184  8  00 08 A8 0F A8 0F 00 00 
   872)      1437.4  Rx         0284  8  19 79 19 79 04 00 08 00 
   873)      1438.4  Rx         0291  8  00 00 69 0F 00 00 00 00 
   874)      1439.4  Rx         0295  8  01 00 00 00 00 00 00 00 
   875)      1440.4  Rx         0298  8  00 00 00 00 7C 0F 00 00 
   876)      1441.4  Rx         0120  8  3F 00 00 00 00 02 00 00 
   877)      1442.3  Rx         0121  8  00 00 88 C6 00 00 3B 23 
   878)      1443.3  Rx         0122  8  00 00 04 00 00 00 00 00 
   879)      1444.3  Rx         02DB  8  00 00 00 00 00 00 00 00 
   880)      1445.3  Rx         0384  8  00 00 00 00 00 00 00 00 
   881)      1445.8  Rx         0210  1  00 
   882)      1446.8  Rx         0310  8  4B 00 00 00 00 00 00 00 
   883)      1447.5  Rx         01C8  5  F4 03 F6 03 00 
   884)      1448.0  Rx         0211  1  00 
   885)      1449.0  Rx         0311  8  00 00 00 00 00 00 00 00 
   886)      1449.5  Rx         0214  1  00 
   887)      1450.4  Rx         0314  8  00 00 00 00 00 00 78 00 
   888)      1450.9  Rx         0215  1  00 
   889)      1451.9  Rx         0315  8  00 00 00 00 00 00 00 00 
   890)      1452.4  Rx         0218  1  00 
   891)      1452.8  Rx         0250  0  
   892)      1453.7  Rx         0318  8  00 00 00 00 00 00 6E 00 
   893)      1454.3  Rx         025B  2  30 00 
   894)      1455.3  Rx         035B  8  00 00 00 00 00 00 00 00 
   895)      1456.3  Rx         03DB  8  00 00 00 00 00 00 00 00 
   896)      1457.3  Rx         045B  8  00 00 00 00 00 00 00 00 
   897)      1458.3  Rx         0484  8  00 00 00 00 00 00 00 00 
   898)      1459.3  Rx         04DB  8  00 00 00 00 00 00 00 00 
   899)      1459.9  Rx         055B  4  00 00 00 00 
   900)      1460.9  Rx         0120  8  3F 00 00 00 00 02 00 00 
   901)      1461.9  Rx         0121  8  00 00 88 C6 00 00 3B 23 
   902)      1462.9  Rx         0122  8  00 00 04 00 00 00 00 00 
   903)      1463.3  Rx         0714  1  05 
   904)      1463.8  Rx         0718  1  05 
   905)      1468.6  Rx         0703  1  05 
   906)      1472.6  Rx         0748  1  05 
   907)      1476.2  Rx         074A  1  05 
   908)      1477.2  Rx         0120  8  3F 00 00 00 00 02 00 00 
   909)      1478.2  Rx         0110  8  02 00 00 00 00 00 00 00 
   910)      1479.1  Rx         0121  8  00 00 88 C6 00 00 3B 23 
   911)      1480.1  Rx         0122  8  00 00 04 00 00 00 00 00 
   912)      1480.9  Rx         01CA  5  E8 03 E9 03 00 
   913)      1481.3  Rx         0711  1  05 
   914)      1481.8  Rx         074C  1  05 
   915)      1482.5  Rx         01CC  5  EF 03 E8 03 00 
   916)      1493.7  Rx         0120  8  3F 00 00 00 00 02 00 00 
   917)      1494.6  Rx         0121  8  00 00 88 C6 00 00 3B 23 
   918)      1495.6  Rx         0122  8  00 00 04 00 00 00 00 00 
   919)      1498.6  Rx         01C8  5  F3 03 F5 03 00 
   920)      1500.1  Rx         0715  1  05 
   921)      1511.0  Rx         0120  8  3F 00 00 00 00 02 00 00 
   922)      1511.9  Rx         0121  8  00 00 88 C6 00 00 3B 23 
   923)      1512.9  Rx         0122  8  00 00 04 00 00 00 00 00 
   924)      1513.3  Rx         0704  1  05 
   925)      1519.4  Rx         075B  1  05 
   926)      1519.8  Rx         0080  0  
   927)      1521.3  Rx         0298  8  00 00 00 00 7C 0F 00 00 
   928)      1522.3  Rx         0290  8  7C 0F 00 00 01 00 00 00 
   929)      1523.3  Rx         0184  8  00 08 A8 0F A8 0F 00 00 
   930)      1524.2  Rx         0284  8  19 79 19 79 05 00 07 00 
   931)      1525.2  Rx         0291  8  00 00 69 0F 00 00 00 00 
   932)      1526.1  Rx         0294  8  69 0F 7C 0F 00 00 00 00 
   933)      1527.1  Rx         0295  8  01 00 00 00 00 00 00 00 
   934)      1528.1  Rx         0120  8  3F 00 00 00 00 02 00 00 
   935)      1529.1  Rx         0110  8  02 00 00 00 00 00 00 00 
   936)      1530.0  Rx         0121  8  00 00 88 C6 00 00 3B 23 
   937)      1531.0  Rx         0122  8  00 00 04 00 00 00 00 00 
   938)      1531.8  Rx         01CA  5  E9 03 EB 03 00 
   939)      1532.5  Rx         01CC  5  EF 03 E4 03 00 
   940)      1533.0  Rx         0210  1  00 
   941)      1534.0  Rx         02DB  8  00 00 00 00 00 00 00 00 
   942)      1535.0  Rx         0310  8  4B 00 00 00 00 00 00 00 
   943)      1535.4  Rx         0211  1  00 
   944)      1536.4  Rx         0311  8  00 00 00 00 00 00 00 00 
   945)      1536.9  Rx         0214  1  00 
   946)      1537.9  Rx         0314  8  00 00 00 00 00 00 78 00 
   947)      1538.3  Rx         0215  1  00 
   948)      1539.3  Rx         0315  8  00 00 00 00 00 00 00 00 
   949)      1539.8  Rx         0218  1  00 
   950)      1540.8  Rx         0318  8  00 00 00 00 00 00 6E 00 
   951)      1541.3  Rx         025B  2  30 00 
   952)      1542.3  Rx         035B  8  00 00 00 00 00 00 00 00 
   953)      1543.3  Rx         0384  8  00 00 00 00 00 00 00 00 
   954)      1544.3  Rx         03DB  8  00 00 00 00 00 00 00 00 
   955)      1545.3  Rx         045B  8  00 00 00 00 00 00 00 00 
   956)      1546.3  Rx         0120  8  3F 00 00 00 00 02 00 00 
   957)      1547.3  Rx         0484  8  00 00 00 00 00 00 00 00 
   958)      1548.3  Rx         04DB  8  00 00 00 00 00 00 00 00 
   959)      1549.0  Rx         055B  4  00 00 00 00 
   960)      1549.9  Rx         0121  8  00 00 88 C6 00 00 3B 23 
   961)      1550.9  Rx         0122  8  00 00 04 00 00 00 00 00 
   962)      1551.6  Rx         01C8  5  F3 03 F5 03 00 
   963)      1552.1  Rx         0710  1  05 
   964)      1555.7  Rx         024A  0  
   965)      1563.1  Rx         0120  8  3F 00 00 00 00 02 00 00 
   966)      1564.0  Rx         0121  8  00 00 88 C6 00 00 3B 23 
   967)      1565.0  Rx         0122  8  00 00 04 00 00 00 00 00 
   968)      1578.8  Rx         01CA  5  E8 03 E9 03 00 
   969)      1580.4  Rx         0120  8  3F 00 00 00 00 02 00 00 
   970)      1581.4  Rx         0110  8  02 00 00 00 00 00 00 00 
   971)      1582.4  Rx         0121  8  00 00 88 C6 00 00 3B 23 
   972)      1583.3  Rx         0122  8  00 00 04 00 00 00 00 00 
   973)      1584.1  Rx         01CC  5  EE 03 E4 03 00 
   974)      1590.0  Rx         024C  0  
   975)      1597.5  Rx         0120  8  3F 00 00 00 00 02 00 00 
   976)      1598.4  Rx         0121  8  00 00 88 C6 00 00 3B 23 
   977)      1599.4  Rx         0122  8  00 00 04 00 00 00 00 00 
   978)      1601.0  Rx         01C8  5  F4 03 F7 03 00 
   979)      1605.6  Rx         0080  0  
   980)      1607.1  Rx         0298  8  00 00 00 00 7C 0F 00 00 
   981)      1608.1  Rx         0290  8  7C 0F 00 00 01 00 00 00 
   982)      1609.0  Rx         0184  8  00 08 AB 0F A8 0F 00 00 
   983)      1610.0  Rx         0291  8  00 00 69 0F 00 00 00 00 
   984)      1611.0  Rx         0284  8  19 79 19 79 05 00 08 00 
   985)      1611.9  Rx         0294  8  69 0F 7C 0F 00 00 00 00 
   986)      1612.9  Rx         0295  8  01 00 00 00 00 00 00 00 
   987)      1613.9  Rx         0120  8  3F 00 00 00 00 02 00 00 
   988)      1614.8  Rx         0121  8  00 00 88 C6 00 00 3B 23 
   989)      1615.8  Rx         0122  8  00 00 04 00 00 00 00 00 
   990)      1616.8  Rx         02DB  8  00 00 00 00 00 00 00 00 
   991)      1617.8  Rx         0384  8  00 00 00 00 00 00 00 00 
   992)      1618.3  Rx         0210  1  00 
   993)      1619.3  Rx         0310  8  4B 00 00 00 00 00 00 00 
   994)      1619.7  Rx         0211  1  00 
   995)      1620.7  Rx         0311  8  00 00 00 00 00 00 00 00 
   996)      1621.2  Rx         0214  1  00 
   997)      1622.2  Rx         0314  8  00 00 00 00 00 00 78 00 
   998)      1622.7  Rx         0215  1  00 
   999)      1623.7  Rx         0315  8  00 00 00 00 00 00 00 00 
  1000)      1624.1  Rx         0218  1  00 
  1001)      1625.1  Rx         0318  8  00 00 00 00 00 00 6E 00 
  1002)      1625.6  Rx         025B  2  30 00 
  1003)      1626.6  Rx         035B  8  00 00 00 00 00 00 00 00 
  1004)      1627.6  Rx         03DB  8  00 00 00 00 00 00 00 00 
  1005)      1628.6  Rx         045B  8  00 00 00 00 00 00 00 00 
  1006)      1629.6  Rx         0484  8  00 00 00 00 00 00 00 00 
  1007)      1630.4  Rx         01CA  5  E8 03 E9 03 00 
  1008)      1631.3  Rx         04DB  8  00 00 00 00 00 00 00 00 
  1009)      1632.0  Rx         055B  4  00 00 00 00 
  1010)      1633.0  Rx         0120  8  3F 00 00 00 00 02 00 00 
  1011)      1634.0  Rx         0110  8  02 00 00 00 00 00 00 00 
  1012)      1635.0  Rx         0121  8  00 00 88 C6 00 00 3B 23 
  1013)      1635.9  Rx         0122  8  00 00 04 00 00 00 00 00 
  1014)      1636.7  Rx         01CC  5  EE 03 E8 03 00 
  1015)      1637.2  Rx         0704  1  05 
  1016)      1649.0  Rx         0120  8  3F 00 00 00 00 02 00 00 
  1017)      1649.9  Rx         0121  8  00 00 88 C6 00 00 3B 23 
  1018)      1650.9  Rx         0122  8  00 00 04 00 00 00 00 00 
  1019)      1652.2  Rx         01C8  5  F5 03 F4 03 00 
  1020)      1666.2  Rx         0120  8  3F 00 00 00 00 02 00 00 
  1021)      1667.2  Rx         0121  8  00 00 88 C6 00 00 3B 23 
  1022)      1668.1  Rx         0122  8  00 00 04 00 00 00 00 00 
  1023)      1681.2  Rx         01CA  5  E9 03 EA 03 00 
  1024)      1683.4  Rx         0120  8  3F 00 00 00 00 02 00 00 
  1025)      1684.4  Rx         0110  8  02 00 00 00 00 00 00 00 
  1026)      1685.4  Rx         0121  8  00 00 88 C6 00 00 3B 23 
  1027)      1686.4  Rx         0122  8  00 00 04 00 00 00 00 00 
  1028)      1687.1  Rx         01CC  5  EF 03 E4 03 00 
  1029)      1691.6  Rx         0080  0  
  1030)      1693.2  Rx         0294  8  55 0F 69 0F 00 00 00 00 
  1031)      1694.2  Rx         0290  8  7C 0F 00 00 01 00 00 00 
  1032)      1695.1  Rx         0184  8  00 08 AB 0F AB 0F 00 00 
  1033)      1696.0  Rx         0284  8  19 79 19 79 05 00 07 00 
  1034)      1697.0  Rx         0291  8  00 00 69 0F 00 00 00 00 
  1035)      1698.0  Rx         0295  8  01 00 00 00 00 00 00 00 
  1036)      1699.0  Rx         0298  8  00 00 00 00 7C 0F 00 00 
  1037)      1700.0  Rx         0120  8  3F 00 00 00 00 02 00 00 
  1038)      1700.9  Rx         0121  8  00 00 88 C6 00 00 3B 23 
  1039)      1701.9  Rx         0122  8  00 00 04 00 00 00 00 00 
  1040)      1702.9  Rx         02DB  8  00 00 00 00 00 00 00 00 
  1041)      1703.7  Rx         01C8  5  F6 03 F5 03 00 
  1042)      1704.2  Rx         0210  1  00 
  1043)      1705.1  Rx         0310  8  4B 00 00 00 00 00 00 00 
  1044)      1705.6  Rx         0211  1  00 
  1045)      1706.6  Rx         0311  8  00 00 00 00 00 00 00 00 
  1046)      1707.1  Rx         0214  1  00 
  1047)      1708.1  Rx         0314  8  00 00 00 00 00 00 78 00 
  1048)      1708.5  Rx         0215  1  00 
  1049)      1709.5  Rx         0315  8  00 00 00 00 00 00 00 00 
  1050)      1710.0  Rx         0218  1  00 
  1051)      1710.9  Rx         0318  8  00 00 00 00 00 00 6E 00 
  1052)      1711.5  Rx         025B  2  30 00 
  1053)      1712.5  Rx         035B  8  00 00 00 00 00 00 00 00 
  1054)      1713.5  Rx         0384  8  00 00 00 00 00 00 00 00 
  1055)      1714.5  Rx         03DB  8  00 00 00 00 00 00 00 00 
  1056)      1715.5  Rx         045B  8  00 00 00 00 00 00 00 00 
  1057)      1716.5  Rx         0484  8  00 00 00 00 00 00 00 00 
  1058)      1717.5  Rx         04DB  8  00 00 00 00 00 00 00 00 
  1059)      1718.2  Rx         055B  4  00 00 00 00 
  1060)      1719.1  Rx         0120  8  3F 00 00 00 00 02 00 00 
  1061)      1720.1  Rx         0121  8  00 00 88 C6 00 00 3B 23 
  1062)      1721.1  Rx         0122  8  00 00 04 00 00 00 00 00 
  1063)      1721.5  Rx         0704  1  05 
  1064)      1728.6  Rx         0748  1  05 
  1065)      1732.2  Rx         074A  1  05 
  1066)      1733.0  Rx         01CA  5  E7 03 EA 03 00 
  1067)      1734.6  Rx         0110  8  02 00 00 00 00 00 00 00 
  1068)      1735.6  Rx         0120  8  3F 00 00 00 00 02 00 00 
  1069)      1736.5  Rx         0121  8  00 00 88 C6 00 00 3B 23 
  1070)      1737.5  Rx         0122  8  00 00 04 00 00 00 00 00 
  1071)      1738.0  Rx         074C  1  05 
  1072)      1738.7  Rx         01CC  5  EF 03 E5 03 00 
  1073)      1748.0  Rx         0714  1  05 
  1074)      1752.6  Rx         0120  8  3F 00 00 00 00 02 00 00 
  1075)      1753.5  Rx         0121  8  00 00 88 C6 00 00 3B 23 
  1076)      1754.5  Rx         0122  8  00 00 04 00 00 00 00 00 
  1077)      1755.3  Rx         01C8  5  F3 03 F7 03 00 
  1078)      1763.0  Rx         0718  1  05 
  1079)      1769.4  Rx         0120  8  3F 00 00 00 00 02 00 00 
  1080)      1770.4  Rx         0121  8  00 00 88 C6 00 00 3B 23 
  1081)      1771.4  Rx         0122  8  00 00 04 00 00 00 00 00 
  1082)      1777.7  Rx         0703  1  05 
  1083)      1778.1  Rx         0080  0  
  1084)      1779.7  Rx         0294  8  69 0F 7C 0F 00 00 00 00 
  1085)      1780.7  Rx         0291  8  00 00 69 0F 00 00 00 00 
  1086)      1781.6  Rx         0184  8  00 08 A8 0F A8 0F 00 00 
  1087)      1782.6  Rx         0284  8  19 79 19 79 05 00 08 00 
  1088)      1783.6  Rx         0290  8  7C 0F 00 00 01 00 00 00 
  1089)      1784.3  Rx         01CA  5  E7 03 EB 03 00 
  1090)      1785.3  Rx         0295  8  01 00 00 00 00 00 00 00 
  1091)      1786.3  Rx         0110  8  02 00 00 00 00 00 00 00 
  1092)      1787.3  Rx         0120  8  3F 00 00 00 00 02 00 00 
  1093)      1788.2  Rx         0121  8  00 00 88 C6 00 00 3B 23 
  1094)      1789.2  Rx         0122  8  00 00 04 00 00 00 00 00 
  1095)      1789.9  Rx         01CC  5  EF 03 E8 03 00 
  1096)      1790.4  Rx         0210  1  00 
  1097)      1791.4  Rx         0298  8  00 00 00 00 7C 0F 00 00 
  1098)      1792.4  Rx         02DB  8  00 00 00 00 00 00 00 00 
  1099)      1793.4  Rx         0310  8  4B 00 00 00 00 00 00 00 
  1100)      1793.9  Rx         0211  1  00 
  1101)      1794.9  Rx         0311  8  00 00 00 00 00 00 00 00 
  1102)      1795.3  Rx         0214  1  00 
  1103)      1796.3  Rx         0314  8  00 00 00 00 00 00 78 00 
  1104)      1796.8  Rx         0215  1  00 
  1105)      1797.8  Rx         0315  8  00 00 00 00 00 00 00 00 
  1106)      1798.2  Rx         0218  1  00 
  1107)      1799.2  Rx         0318  8  00 00 00 00 00 00 6E 00 
  1108)      1799.7  Rx         025B  2  30 00 
  1109)      1800.7  Rx         035B  8  00 00 00 00 00 00 00 00 
  1110)      1801.7  Rx         0384  8  00 00 00 00 00 00 00 00 
  1111)      1802.7  Rx         03DB  8  00 00 00 00 00 00 00 00 
  1112)      1803.7  Rx         045B  8  00 00 00 00 00 00 00 00 
  1113)      1804.7  Rx         0120  8  3F 00 00 00 00 02 00 00 
  1114)      1805.7  Rx         0484  8  00 00 00 00 00 00 00 00 
  1115)      1806.5  Rx         01C8  5  F5 03 F6 03 00 
  1116)      1807.5  Rx         04DB  8  00 00 00 00 00 00 00 00 
  1117)      1808.1  Rx         055B  4  00 00 00 00 
  1118)      1809.1  Rx         0121  8  00 00 88 C6 00 00 3B 23 
  1119)      1810.1  Rx         0122  8  00 00 04 00 00 00 00 00 
  1120)      1810.5  Rx         0711  1  05 
  1121)      1811.0  Rx         0715  1  05 
  1122)      1814.1  Rx         0704  1  05 
  1123)      1814.7  Rx         0248  0  
  1124)      1820.6  Rx         075B  1  05 
  1125)      1822.1  Rx         0120  8  3F 00 00 00 00 02 00 00 
  1126)      1823.0  Rx         0121  8  00 00 88 C6 00 00 3B 23 
  1127)      1824.0  Rx         0122  8  00 00 04 00 00 00 00 00 
  1128)      1824.7  Rx         0710  1  05 
  1129)      1834.8  Rx         01CA  5  E6 03 ED 03 00 
  1130)      1836.6  Rx         0110  8  02 00 00 00 00 00 00 00 
  1131)      1838.1  Rx         01CC  5  EE 03 E7 03 00 
  1132)      1839.1  Rx         0120  8  3F 00 00 00 00 02 00 00 
  1133)      1840.1  Rx         0121  8  00 00 88 C6 00 00 3B 23 
  1134)      1841.1  Rx         0122  8  00 00 04 00 00 00 00 00 
  1135)      1848.1  Rx         0250  0  
  1136)      1855.5  Rx         0120  8  3F 00 00 00 00 02 00 00 
  1137)      1856.4  Rx         0121  8  00 00 88 C6 00 00 3B 23 
  1138)      1857.4  Rx         0122  8  00 00 04 00 00 00 00 00 
  1139)      1858.2  Rx         01C8  5  F2 03 F7 03 00 
  1140)      1863.7  Rx         0080  0  
  1141)      1865.0  Rx         0294  8  55 0F 7C 0F 00 00 00 00 
  1142)      1866.0  Rx         0290  8  A3 0F 00 00 01 00 00 00 
  1143)      1866.9  Rx         0184  8  00 08 AB 0F A8 0F 00 00 
  1144)      1867.9  Rx         0284  8  19 79 19 79 06 00 08 00 
  1145)      1868.9  Rx         0291  8  00 00 7C 0F 00 00 00 00 
  1146)      1869.9  Rx         0295  8  01 00 00 00 00 00 00 00 
  1147)      1870.9  Rx         0298  8  00 00 00 00 7C 0F 00 00 
  1148)      1871.9  Rx         0120  8  3F 00 00 00 00 02 00 00 
  1149)      1872.8  Rx         0121  8  00 00 88 C6 00 00 3B 23 
  1150)      1873.8  Rx         0122  8  00 00 04 00 00 00 00 00 
  1151)      1874.8  Rx         02DB  8  00 00 00 00 00 00 00 00 
  1152)      1875.8  Rx         0384  8  00 00 00 00 00 00 00 00 
  1153)      1876.3  Rx         0210  1  00 
  1154)      1877.2  Rx         0310  8  4B 00 00 00 00 00 00 00 
  1155)      1877.7  Rx         0211  1  00 
  1156)      1878.7  Rx         0311  8  00 00 00 00 00 00 00 00 
  1157)      1879.2  Rx         0214  1  00 
  1158)      1880.2  Rx         0314  8  00 00 00 00 00 00 78 00 
  1159)      1880.6  Rx         0215  1  00 
  1160)      1881.6  Rx         0315  8  00 00 00 00 00 00 00 00 
  1161)      1882.1  Rx         0218  1  00 
  1162)      1883.0  Rx         0318  8  00 00 00 00 00 00 6E 00 
  1163)      1883.6  Rx         025B  2  30 00 
  1164)      1884.6  Rx         035B  8  00 00 00 00 00 00 00 00 
  1165)      1885.6  Rx         03DB  8  00 00 00 00 00 00 00 00 
  1166)      1886.3  Rx         01CA  5  E8 03 EB 03 00 
  1167)      1887.3  Rx         045B  8  00 00 00 00 00 00 00 00 
  1168)      1888.3  Rx         0110  8  02 00 00 00 00 00 00 00 
  1169)      1889.3  Rx         0484  8  00 00 00 00 00 00 00 00 
  1170)      1890.1  Rx         01CC  5  EF 03 E7 03 00 
  1171)      1891.1  Rx         04DB  8  00 00 00 00 00 00 00 00 
  1172)      1891.7  Rx         055B  4  00 00 00 00 
  1173)      1892.7  Rx         0120  8  3F 00 00 00 00 02 00 00 
  1174)      1893.7  Rx         0121  8  00 00 88 C6 00 00 3B 23 
  1175)      1894.7  Rx         0122  8  00 00 04 00 00 00 00 00 
  1176)      1908.0  Rx         0120  8  3F 00 00 00 00 02 00 00 
  1177)      1909.0  Rx         0121  8  00 00 88 C6 00 00 3B 23 
  1178)      1910.0  Rx         0122  8  00 00 04 00 00 00 00 00 
  1179)      1910.7  Rx         01C8  5  F4 03 F6 03 00 
  1180)      1914.3  Rx         0704  1  05 
  1181)      1924.9  Rx         0120  8  3F 00 00 00 00 02 00 00 
  1182)      1925.8  Rx         0121  8  00 00 88 C6 00 00 3B 23 
  1183)      1926.8  Rx         0122  8  00 00 04 00 00 00 00 00 
  1184)      1937.2  Rx         01CA  5  E8 03 EA 03 00 
  1185)      1940.0  Rx         0110  8  02 00 00 00 00 00 00 00 
  1186)      1940.8  Rx         01CC  5  ED 03 E8 03 00 
  1187)      1941.8  Rx         0120  8  3F 00 00 00 00 02 00 00 
  1188)      1942.7  Rx         0121  8  00 00 88 C6 00 00 3B 23 
  1189)      1943.7  Rx         0122  8  00 00 04 00 00 00 00 00 
  1190)      1950.3  Rx         0080  0  
  1191)      1951.6  Rx         0291  8  00 00 69 0F 00 00 00 00 
  1192)      1952.0  Rx         024A  0  
  1193)      1953.0  Rx         0184  8  00 08 A8 0F AB 0F 00 00 
  1194)      1953.9  Rx         0284  8  19 79 19 79 05 00 07 00 
  1195)      1954.9  Rx         0290  8  A3 0F 00 00 01 00 00 00 
  1196)      1955.9  Rx         0294  8  69 0F 7C 0F 00 00 00 00 
  1197)      1956.9  Rx         0295  8  01 00 00 00 00 00 00 00 
  1198)      1957.8  Rx         0298  8  00 00 00 00 A3 0F 00 00 
  1199)      1958.8  Rx         0120  8  3F 00 00 00 00 02 00 00 
  1200)      1959.8  Rx         0121  8  00 00 88 C6 00 00 3B 23 
  1201)      1960.7  Rx         0122  8  00 00 04 00 00 00 00 00 
  1202)      1961.5  Rx         01C8  5  F4 03 F6 03 00 
  1203)      1962.5  Rx         02DB  8  00 00 00 00 00 00 00 00 
  1204)      1963.0  Rx         0210  1  00 
  1205)      1964.0  Rx         0310  8  4B 00 00 00 00 00 00 00 
  1206)      1964.4  Rx         0211  1  00 
  1207)      1965.4  Rx         0311  8  00 00 00 00 00 00 00 00 
  1208)      1965.9  Rx         0214  1  00 
  1209)      1966.9  Rx         0314  8  00 00 00 00 00 00 78 00 
  1210)      1967.3  Rx         0215  1  00 
  1211)      1968.3  Rx         0315  8  00 00 00 00 00 00 00 00 
  1212)      1968.8  Rx         0218  1  00 
  1213)      1969.8  Rx         0318  8  00 00 00 00 00 00 6E 00 
  1214)      1970.3  Rx         025B  2  30 00 
  1215)      1971.3  Rx         035B  8  00 00 00 00 00 00 00 00 
  1216)      1972.3  Rx         0384  8  00 00 00 00 00 00 00 00 
  1217)      1973.3  Rx         03DB  8  00 00 00 00 00 00 00 00 
  1218)      1974.3  Rx         045B  8  00 00 00 00 00 00 00 00 
  1219)      1975.3  Rx         0484  8  00 00 00 00 00 00 00 00 
  1220)      1976.3  Rx         04DB  8  00 00 00 00 00 00 00 00 
  1221)      1977.0  Rx         055B  4  00 00 00 00 
  1222)      1978.0  Rx         0120  8  3F 00 00 00 00 02 00 00 
  1223)      1978.9  Rx         0121  8  00 00 88 C6 00 00 3B 23 
  1224)      1979.9  Rx         0122  8  00 00 04 00 00 00 00 00 
  1225)      1984.7  Rx         0748  1  05 
  1226)      1986.9  Rx         024C  0  
  1227)      1988.2  Rx         074A  1  05 
  1228)      1989.0  Rx         01CA  5  E6 03 ED 03 00 
  1229)      1990.7  Rx         0110  8  02 00 00 00 00 00 00 00 
  1230)      1991.6  Rx         074C  1  05 
  1231)      1992.3  Rx         01CC  5  EE 03 E7 03 00 
  1232)      1994.3  Rx         0120  8  3F 00 00 00 00 02 00 00 
  1233)      1995.2  Rx         0121  8  00 00 88 C6 00 00 3B 23 
  1234)      1996.2  Rx         0122  8  00 00 04 00 00 00 00 00 
  1235)      2010.6  Rx         01C8  5  F4 03 F5 03 00 
  1236)      2011.6  Rx         0120  8  3F 00 00 00 00 02 00 00 
  1237)      2012.6  Rx         0121  8  00 00 88 C6 00 00 3B 23 
  1238)      2013.6  Rx         0122  8  00 00 04 00 00 00 00 00 
  1239)      2014.6  Rx         0704  1  05 
  1240)      2027.6  Rx         0120  8  3F 00 00 00 00 02 00 00 
  1241)      2028.6  Rx         0121  8  00 00 88 C6 00 00 3B 23 
  1242)      2029.6  Rx         0122  8  00 00 04 00 00 00 00 00 
  1243)      2036.7  Rx         0080  0  
  1244)      2038.1  Rx         0298  8  00 00 00 00 69 0F 00 00 
  1245)      2039.1  Rx         0290  8  7C 0F 00 00 01 00 00 00 
  1246)      2039.8  Rx         01CA  5  E7 03 EB 03 00 
  1247)      2040.8  Rx         0184  8  00 08 A8 0F AE 0F 00 00 
  1248)      2041.8  Rx         0110  8  02 00 00 00 00 00 00 00 
  1249)      2042.7  Rx         0284  8  19 79 19 79 06 00 08 00 
  1250)      2043.5  Rx         01CC  5  ED 03 E8 03 00 
  1251)      2044.4  Rx         0291  8  00 00 69 0F 00 00 00 00 
  1252)      2045.4  Rx         0120  8  3F 00 00 00 00 02 00 00 
  1253)      2046.4  Rx         0121  8  00 00 88 C6 00 00 3B 23 
  1254)      2047.4  Rx         0122  8  00 00 04 00 00 00 00 00 
  1255)      2048.3  Rx         0294  8  55 0F 7C 0F 00 00 00 00 
  1256)      2049.3  Rx         0295  8  01 00 00 00 00 00 00 00 
  1257)      2049.8  Rx         0210  1  00 
  1258)      2050.8  Rx         02DB  8  00 00 00 00 00 00 00 00 
  1259)      2051.8  Rx         0310  8  4B 00 00 00 00 00 00 00 
  1260)      2052.2  Rx         0211  1  00 
  1261)      2053.2  Rx         0311  8  00 00 00 00 00 00 00 00 
  1262)      2053.7  Rx         0214  1  00 
  1263)      2054.7  Rx         0314  8  00 00 00 00 00 00 78 00 
  1264)      2055.1  Rx         0215  1  00 
  1265)      2056.1  Rx         0315  8  00 00 00 00 00 00 00 00 
  1266)      2056.6  Rx         0218  1  00 
  1267)      2057.6  Rx         0318  8  00 00 00 00 00 00 6E 00 
  1268)      2058.1  Rx         025B  2  30 00 
  1269)      2059.1  Rx         035B  8  00 00 00 00 00 00 00 00 
  1270)      2060.1  Rx         0384  8  00 00 00 00 00 00 00 00 
  1271)      2061.1  Rx         03DB  8  00 00 00 00 00 00 00 00 
  1272)      2061.8  Rx         01C8  5  F5 03 F5 03 00 
  1273)      2062.8  Rx         045B  8  00 00 00 00 00 00 00 00 
  1274)      2063.8  Rx         0120  8  3F 00 00 00 00 02 00 00 
  1275)      2064.8  Rx         0484  8  00 00 00 00 00 00 00 00 
  1276)      2065.8  Rx         04DB  8  00 00 00 00 00 00 00 00 
  1277)      2066.5  Rx         055B  4  00 00 00 00 
  1278)      2067.5  Rx         0121  8  00 00 88 C6 00 00 3B 23 
  1279)      2068.4  Rx         0122  8  00 00 04 00 00 00 00 00 
  1280)      2068.9  Rx         0714  1  05 
  1281)      2069.4  Rx         0718  1  05 
  1282)      2080.3  Rx         0120  8  3F 00 00 00 00 02 00 00 
  1283)      2081.3  Rx         0121  8  00 00 88 C6 00 00 3B 23 
  1284)      2082.2  Rx         0122  8  00 00 04 00 00 00 00 00 
  1285)      2082.7  Rx         0711  1  05 
  1286)      2088.5  Rx         0703  1  05 
  1287)      2090.8  Rx         01CA  5  E8 03 E9 03 00 
  1288)      2092.6  Rx         0110  8  02 00 00 00 00 00 00 00 
  1289)      2094.2  Rx         01CC  5  EF 03 E4 03 00 
  1290)      2097.2  Rx         0120  8  3F 00 00 00 00 02 00 00 
  1291)      2098.1  Rx         0121  8  00 00 88 C6 00 00 3B 23 
  1292)      2099.1  Rx         0122  8  00 00 04 00 00 00 00 00 
  1293)      2101.0  Rx         0715  1  05 
  1294)      2113.0  Rx         01C8  5  F4 03 F5 03 00 
  1295)      2114.3  Rx         0120  8  3F 00 00 00 00 02 00 00 
  1296)      2115.3  Rx         0121  8  00 00 88 C6 00 00 3B 23 
  1297)      2116.3  Rx         0122  8  00 00 04 00 00 00 00 00 
  1298)      2116.7  Rx         0704  1  05 
  1299)      2121.4  Rx         075B  1  05 
  1300)      2122.9  Rx         0080  0  
  1301)      2124.5  Rx         0291  8  00 00 69 0F 00 00 00 00 
  1302)      2125.5  Rx         0290  8  A3 0F 00 00 01 00 00 00 
  1303)      2126.4  Rx         0184  8  00 08 A8 0F A8 0F 00 00 
  1304)      2127.4  Rx         0284  8  19 79 19 79 05 00 07 00 
  1305)      2128.3  Rx         0294  8  55 0F 69 0F 00 00 00 00 
  1306)      2129.3  Rx         0295  8  01 00 00 00 00 00 00 00 
  1307)      2130.3  Rx         0298  8  00 00 00 00 7C 0F 00 00 
  1308)      2131.3  Rx         0120  8  3F 00 00 00 00 02 00 00 
  1309)      2132.2  Rx         0121  8  00 00 88 C6 00 00 3B 23 
  1310)      2133.2  Rx         0122  8  00 00 04 00 00 00 00 00 
  1311)      2134.2  Rx         02DB  8  00 00 00 00 00 00 00 00 
  1312)      2135.2  Rx         0384  8  00 00 00 00 00 00 00 00 
  1313)      2135.7  Rx         0210  1  00 
  1314)      2136.7  Rx         0310  8  4B 00 00 00 00 00 00 00 
  1315)      2137.1  Rx         0211  1  00 
  1316)      2138.2  Rx         0311  8  00 00 00 00 00 00 00 00 
  1317)      2138.6  Rx         0214  1  00 
  1318)      2139.6  Rx         0314  8  00 00 00 00 00 00 78 00 
  1319)      2140.1  Rx         0215  1  00 
  1320)      2141.1  Rx         0315  8  00 00 00 00 00 00 00 00 
  1321)      2141.5  Rx         0218  1  00 
  1322)      2142.3  Rx         01CA  5  E6 03 EB 03 00 
  1323)      2143.2  Rx         0318  8  00 00 00 00 00 00 6E 00 
  1324)      2144.2  Rx         0110  8  02 00 00 00 00 00 00 00 
  1325)      2144.8  Rx         025B  2  30 00 
  1326)      2145.5  Rx         01CC  5  ED 03 E8 03 00 
  1327)      2146.5  Rx         035B  8  00 00 00 00 00 00 00 00 
  1328)      2147.5  Rx         03DB  8  00 00 00 00 00 00 00 00 
  1329)      2148.5  Rx         045B  8  00 00 00 00 00 00 00 00 
  1330)      2149.5  Rx         0120  8  3F 00 00 00 00 02 00 00 
  1331)      2150.5  Rx         0484  8  00 00 00 00 00 00 00 00 
  1332)      2151.5  Rx         04DB  8  00 00 00 00 00 00 00 00 
  1333)      2152.2  Rx         055B  4  00 00 00 00 
  1334)      2153.1  Rx         0121  8  00 00 88 C6 00 00 3B 23 
  1335)      2154.1  Rx         0122  8  00 00 04 00 00 00 00 00 
  1336)      2154.6  Rx         0710  1  05 
  1337)      2164.2  Rx         01C8  5  F4 03 F7 03 00 
  1338)      2166.4  Rx         0120  8  3F 00 00 00 00 02 00 00 
  1339)      2167.3  Rx         0121  8  00 00 88 C6 00 00 3B 23 
  1340)      2168.3  Rx         0122  8  00 00 04 00 00 00 00 00 
  1341)      2183.5  Rx         0120  8  3F 00 00 00 00 02 00 00 
  1342)      2184.4  Rx         0121  8  00 00 88 C6 00 00 3B 23 
  1343)      2185.4  Rx         0122  8  00 00 04 00 00 00 00 00 
  1344)      2193.3  Rx         01CA  5  E8 03 EB 03 00 
  1345)      2194.8  Rx         0110  8  02 00 00 00 00 00 00 00 
  1346)      2196.6  Rx         01CC  5  ED 03 E7 03 00 
  1347)      2200.8  Rx         0120  8  3F 00 00 00 00 02 00 00 
  1348)      2201.7  Rx         0121  8  00 00 88 C6 00 00 3B 23 
  1349)      2202.7  Rx         0122  8  00 00 04 00 00 00 00 00 
  1350)      2208.9  Rx         0080  0  
  1351)      2210.3  Rx         0295  8  01 00 00 00 00 00 00 00 
  1352)      2210.7  Rx         0248  0  
  1353)      2211.6  Rx         0290  8  7C 0F 00 00 01 00 00 00 
  1354)      2212.6  Rx         0184  8  00 08 AB 0F AB 0F 00 00 
  1355)      2213.5  Rx         0284  8  19 79 19 79 05 00 07 00 
  1356)      2214.5  Rx         0291  8  00 00 69 0F 00 00 00 00 
  1357)      2215.5  Rx         0294  8  69 0F 69 0F 00 00 00 00 
  1358)      2216.2  Rx         01C8  5  F4 03 F6 03 00 
  1359)      2217.2  Rx         0120  8  3F 00 00 00 00 02 00 00 
  1360)      2218.1  Rx         0121  8  00 00 88 C6 00 00 3B 23 
  1361)      2219.1  Rx         0122  8  00 00 04 00 00 00 00 00 
  1362)      2220.1  Rx         0298  8  00 00 00 00 7C 0F 00 00 
  1363)      2221.1  Rx         02DB  8  00 00 00 00 00 00 00 00 
  1364)      2221.6  Rx         0210  1  00 
  1365)      2222.6  Rx         0310  8  4B 00 00 00 00 00 00 00 
  1366)      2223.0  Rx         0211  1  00 
  1367)      2224.1  Rx         0311  8  00 00 00 00 00 00 00 00 
  1368)      2224.5  Rx         0214  1  00 
  1369)      2225.5  Rx         0314  8  00 00 00 00 00 00 78 00 
  1370)      2226.0  Rx         0215  1  00 
  1371)      2227.0  Rx         0315  8  00 00 00 00 00 00 00 00 
  1372)      2227.4  Rx         0218  1  00 
  1373)      2228.4  Rx         0318  8  00 00 00 00 00 00 6E 00 
  1374)      2228.9  Rx         025B  2  30 00 
  1375)      2229.9  Rx         035B  8  00 00 00 00 00 00 00 00 
  1376)      2230.9  Rx         0384  8  00 00 00 00 00 00 00 00 
  1377)      2231.9  Rx         03DB  8  00 00 00 00 00 00 00 00 
  1378)      2232.9  Rx         045B  8  00 00 00 00 00 00 00 00 
  1379)      2233.9  Rx         0484  8  00 00 00 00 00 00 00 00 
  1380)      2234.9  Rx         04DB  8  00 00 00 00 00 00 00 00 
  1381)      2235.6  Rx         055B  4  00 00 00 00 
  1382)      2236.6  Rx         0120  8  3F 00 00 00 00 02 00 00 
  1383)      2237.5  Rx         0121  8  00 00 88 C6 00 00 3B 23 
  1384)      2238.5  Rx         0122  8  00 00 04 00 00 00 00 00 
  1385)      2239.0  Rx         0704  1  05 
  1386)      2240.7  Rx         0748  1  05 
  1387)      2244.3  Rx         074A  1  05 
  1388)      2245.0  Rx         01CA  5  EA 03 EB 03 00 
  1389)      2246.0  Rx         0110  8  02 00 00 00 00 00 00 00 
  1390)      2246.4  Rx         0250  0  
  1391)      2247.6  Rx         074C  1  05 
  1392)      2248.3  Rx         01CC  5  EE 03 E8 03 00 
  1393)      2252.4  Rx         0120  8  3F 00 00 00 00 02 00 00 
  1394)      2253.3  Rx         0121  8  00 00 88 C6 00 00 3B 23 
  1395)      2254.3  Rx         0122  8  00 00 04 00 00 00 00 00 
  1396)      2266.6  Rx         01C8  5  F5 03 F5 03 00 
  1397)      2270.0  Rx         0120  8  3F 00 00 00 00 02 00 00 
  1398)      2270.9  Rx         0121  8  00 00 88 C6 00 00 3B 23 
  1399)      2271.9  Rx         0122  8  00 00 04 00 00 00 00 00 
  1400)      2286.9  Rx         0120  8  3F 00 00 00 00 02 00 00 
  1401)      2287.8  Rx         0121  8  00 00 88 C6 00 00 3B 23 
  1402)      2288.8  Rx         0122  8  00 00 04 00 00 00 00 00 
  1403)      2295.0  Rx         0080  0  
  1404)      2295.8  Rx         01CA  5  E7 03 ED 03 00 
  1405)      2296.8  Rx         0110  8  02 00 00 00 00 00 00 00 
  1406)      2297.7  Rx         0184  8  00 08 AB 0F A8 0F 00 00 
  1407)      2298.7  Rx         0284  8  19 79 19 79 04 00 07 00 
  1408)      2299.4  Rx         01CC  5  EF 03 E7 03 00 
  1409)      2300.4  Rx         0290  8  7C 0F 00 00 01 00 00 00 
  1410)      2301.4  Rx         0291  8  00 00 69 0F 00 00 00 00 
  1411)      2302.3  Rx         0294  8  69 0F 7C 0F 00 00 00 00 
  1412)      2303.3  Rx         0120  8  3F 00 00 00 00 02 00 00 
  1413)      2304.3  Rx         0121  8  00 00 88 C6 00 00 3B 23 
  1414)      2305.2  Rx         0122  8  00 00 04 00 00 00 00 00 
  1415)      2306.2  Rx         0295  8  01 00 00 00 00 00 00 00 
  1416)      2307.2  Rx         0298  8  00 00 00 00 A3 0F 00 00 
  1417)      2307.7  Rx         0210  1  00 
  1418)      2308.7  Rx         02DB  8  00 00 00 00 00 00 00 00 
  1419)      2309.7  Rx         0310  8  4B 00 00 00 00 00 00 00 
  1420)      2310.1  Rx         0211  1  00 
  1421)      2311.1  Rx         0311  8  00 00 00 00 00 00 00 00 
  1422)      2311.6  Rx         0214  1  00 
  1423)      2312.6  Rx         0314  8  00 00 00 00 00 00 78 00 
  1424)      2313.0  Rx         0215  1  00 
  1425)      2314.0  Rx         0315  8  00 00 00 00 00 00 00 00 
  1426)      2314.5  Rx         0218  1  00 
  1427)      2315.5  Rx         0318  8  00 00 00 00 00 00 6E 00 
  1428)      2316.0  Rx         025B  2  30 00 
  1429)      2317.0  Rx         035B  8  00 00 00 00 00 00 00 00 
  1430)      2318.0  Rx         0384  8  00 00 00 00 00 00 00 00 
  1431)      2318.8  Rx         01C8  5  F4 03 F5 03 00 
  1432)      2319.7  Rx         03DB  8  00 00 00 00 00 00 00 00 
  1433)      2320.7  Rx         045B  8  00 00 00 00 00 00 00 00 
  1434)      2321.7  Rx         0120  8  3F 00 00 00 00 02 00 00 
  1435)      2322.6  Rx         0484  8  00 00 00 00 00 00 00 00 
  1436)      2323.6  Rx         04DB  8  00 00 00 00 00 00 00 00 
  1437)      2324.3  Rx         055B  4  00 00 00 00 
  1438)      2325.2  Rx         0121  8  00 00 88 C6 00 00 3B 23 
  1439)      2326.2  Rx         0122  8  00 00 04 00 00 00 00 00 
  1440)      2326.7  Rx         0704  1  05 
  1441)      2338.9  Rx         0120  8  3F 00 00 00 00 02 00 00 
  1442)      2339.8  Rx         0121  8  00 00 88 C6 00 00 3B 23 
  1443)      2340.8  Rx         0122  8  00 00 04 00 00 00 00 00 
  1444)      2346.8  Rx         01CA  5  E6 03 EE 03 00 
  1445)      2347.7  Rx         0110  8  02 00 00 00 00 00 00 00 
  1446)      2348.5  Rx         024A  0  
  1447)      2349.1  Rx         0714  1  05 
  1448)      2350.1  Rx         01CC  5  EF 03 E5 03 00 
  1449)      2356.1  Rx         0120  8  3F 00 00 00 00 02 00 00 
  1450)      2357.0  Rx         0121  8  00 00 88 C6 00 00 3B 23 
  1451)      2358.0  Rx         0122  8  00 00 04 00 00 00 00 00 
  1452)      2363.7  Rx         0718  1  05 
  1453)      2369.0  Rx         01C8  5  F4 03 F6 03 00 
  1454)      2372.9  Rx         0120  8  3F 00 00 00 00 02 00 00 
  1455)      2373.8  Rx         0121  8  00 00 88 C6 00 00 3B 23 
  1456)      2374.8  Rx         0122  8  00 00 04 00 00 00 00 00 
  1457)      2381.0  Rx         0080  0  
  1458)      2382.4  Rx         0291  8  00 00 7C 0F 00 00 00 00 
  1459)      2382.8  Rx         024C  0  
  1460)      2383.8  Rx         0184  8  00 08 AB 0F A8 0F 00 00 
  1461)      2384.7  Rx         0284  8  19 79 19 79 05 00 08 00 
  1462)      2385.7  Rx         0290  8  7C 0F 00 00 01 00 00 00 
  1463)      2386.6  Rx         0294  8  69 0F 69 0F 00 00 00 00 
  1464)      2387.6  Rx         0295  8  01 00 00 00 00 00 00 00 
  1465)      2388.6  Rx         0298  8  00 00 00 00 7C 0F 00 00 
  1466)      2389.6  Rx         0120  8  3F 00 00 00 00 02 00 00 
  1467)      2390.6  Rx         0121  8  00 00 88 C6 00 00 3B 23 
  1468)      2391.6  Rx         0122  8  00 00 04 00 00 00 00 00 
  1469)      2392.5  Rx         02DB  8  00 00 00 00 00 00 00 00 
  1470)      2393.5  Rx         0384  8  00 00 00 00 00 00 00 00 
  1471)      2394.0  Rx         0210  1  00 
  1472)      2395.0  Rx         0310  8  4B 00 00 00 00 00 00 00 
  1473)      2395.5  Rx         0211  1  00 
  1474)      2396.5  Rx         0311  8  00 00 00 00 00 00 00 00 
  1475)      2396.9  Rx         0214  1  00 
  1476)      2397.9  Rx         0314  8  00 00 00 00 00 00 78 00 
  1477)      2398.7  Rx         01CA  5  E6 03 ED 03 00 
  1478)      2399.7  Rx         0110  8  02 00 00 00 00 00 00 00 
  1479)      2400.1  Rx         0215  1  00 
  1480)      2401.1  Rx         0315  8  00 00 00 00 00 00 00 00 
  1481)      2401.9  Rx         01CC  5  ED 03 E8 03 00 
  1482)      2402.3  Rx         0218  1  00 
  1483)      2403.3  Rx         0318  8  00 00 00 00 00 00 6E 00 
  1484)      2403.8  Rx         025B  2  30 00 
  1485)      2404.8  Rx         035B  8  00 00 00 00 00 00 00 00 
  1486)      2405.8  Rx         03DB  8  00 00 00 00 00 00 00 00 
  1487)      2406.8  Rx         045B  8  00 00 00 00 00 00 00 00 
  1488)      2407.8  Rx         0484  8  00 00 00 00 00 00 00 00 
  1489)      2408.8  Rx         04DB  8  00 00 00 00 00 00 00 00 
  1490)      2409.5  Rx         055B  4  00 00 00 00 
  1491)      2410.5  Rx         0120  8  3F 00 00 00 00 02 00 00 
  1492)      2411.0  Rx         0703  1  05 
  1493)      2411.9  Rx         0121  8  00 00 88 C6 00 00 3B 23 
  1494)      2412.9  Rx         0122  8  00 00 04 00 00 00 00 00 
  1495)      2413.3  Rx         0711  1  05 
  1496)      2413.8  Rx         0715  1  05 
  1497)      2414.3  Rx         0704  1  05 
  1498)      2420.1  Rx         01C8  5  F4 03 F5 03 00 
  1499)      2422.3  Rx         075B  1  05 
  1500)      2425.4  Rx         0120  8  3F 00 00 00 00 02 00 00 
  1501)      2426.3  Rx         0121  8  00 00 88 C6 00 00 3B 23 
  1502)      2427.3  Rx         0122  8  00 00 04 00 00 00 00 00 
  1503)      2427.8  Rx         0710  1  05 
  1504)      2442.0  Rx         0120  8  3F 00 00 00 00 02 00 00 
  1505)      2443.0  Rx         0121  8  00 00 88 C6 00 00 3B 23 
  1506)      2444.0  Rx         0122  8  00 00 04 00 00 00 00 00 
  1507)      2449.2  Rx         01CA  5  E7 03 E9 03 00 
  1508)      2450.1  Rx         0110  8  02 00 00 00 00 00 00 00 
  1509)      2452.5  Rx         01CC  5  EE 03 E8 03 00 
  1510)      2458.9  Rx         0120  8  3F 00 00 00 00 02 00 00 
  1511)      2459.9  Rx         0121  8  00 00 88 C6 00 00 3B 23 
  1512)      2460.9  Rx         0122  8  00 00 04 00 00 00 00 00 
  1513)      2467.1  Rx         0080  0  
  1514)      2468.5  Rx         0290  8  7C 0F 00 00 01 00 00 00 
  1515)      2469.4  Rx         0291  8  00 00 69 0F 00 00 00 00 
  1516)      2470.4  Rx         0184  8  00 08 A8 0F AB 0F 00 00 
  1517)      2471.3  Rx         0284  8  19 79 19 79 05 00 07 00 
  1518)      2472.1  Rx         01C8  5  F5 03 F5 03 00 
  1519)      2473.1  Rx         0294  8  55 0F 7C 0F 00 00 00 00 
  1520)      2474.0  Rx         0295  8  01 00 00 00 00 00 00 00 
  1521)      2475.0  Rx         0120  8  3F 00 00 00 00 02 00 00 
  1522)      2476.0  Rx         0121  8  00 00 88 C6 00 00 3B 23 
  1523)      2477.0  Rx         0122  8  00 00 04 00 00 00 00 00 
  1524)      2478.0  Rx         0298  8  00 00 00 00 7C 0F 00 00 
  1525)      2479.0  Rx         02DB  8  00 00 00 00 00 00 00 00 
  1526)      2479.4  Rx         0210  1  00 
  1527)      2480.4  Rx         0310  8  4B 00 00 00 00 00 00 00 
  1528)      2480.9  Rx         0211  1  00 
  1529)      2481.9  Rx         0311  8  00 00 00 00 00 00 00 00 
  1530)      2482.3  Rx         0214  1  00 
  1531)      2483.3  Rx         0314  8  00 00 00 00 00 00 78 00 
  1532)      2483.8  Rx         0215  1  00 
  1533)      2484.8  Rx         0315  8  00 00 00 00 00 00 00 00 
  1534)      2485.2  Rx         0218  1  00 
  1535)      2486.2  Rx         0318  8  00 00 00 00 00 00 6E 00 
  1536)      2486.8  Rx         025B  2  30 00 
  1537)      2487.8  Rx         035B  8  00 00 00 00 00 00 00 00 
  1538)      2488.8  Rx         0384  8  00 00 00 00 00 00 00 00 
  1539)      2489.7  Rx         03DB  8  00 00 00 00 00 00 00 00 
  1540)      2490.7  Rx         045B  8  00 00 00 00 00 00 00 00 
  1541)      2491.8  Rx         0484  8  00 00 00 00 00 00 00 00 
  1542)      2492.7  Rx         04DB  8  00 00 00 00 00 00 00 00 
  1543)      2493.4  Rx         055B  4  00 00 00 00 
  1544)      2494.4  Rx         0120  8  3F 00 00 00 00 02 00 00 
  1545)      2495.4  Rx         0121  8  00 00 88 C6 00 00 3B 23 
  1546)      2496.4  Rx         0122  8  00 00 04 00 00 00 00 00 
  1547)      2496.8  Rx         0748  1  05 
  1548)      2500.5  Rx         0110  8  02 00 00 00 00 00 00 00 
  1549)      2501.0  Rx         074A  1  05 
  1550)      2501.7  Rx         01CA  5  E6 03 EB 03 00 
  1551)      2503.5  Rx         074C  1  05 
  1552)      2504.2  Rx         01CC  5  ED 03 E8 03 00 
  1553)      2511.5  Rx         0120  8  3F 00 00 00 00 02 00 00 
  1554)      2512.5  Rx         0121  8  00 00 88 C6 00 00 3B 23 
  1555)      2513.5  Rx         0122  8  00 00 04 00 00 00 00 00 
  1556)      2514.3  Rx         0704  1  05 
  1557)      2522.5  Rx         01C8  5  F3 03 F5 03 00 
  1558)      2528.1  Rx         0120  8  3F 00 00 00 00 02 00 00 
  1559)      2529.1  Rx         0121  8  00 00 88 C6 00 00 3B 23 
  1560)      2530.1  Rx         0122  8  00 00 04 00 00 00 00 00 
  1561)      2545.0  Rx         0120  8  3F 00 00 00 00 02 00 00 
  1562)      2545.9  Rx         0121  8  00 00 88 C6 00 00 3B 23 
  1563)      2546.9  Rx         0122  8  00 00 04 00 00 00 00 00 
  1564)      2551.5  Rx         0110  8  02 00 00 00 00 00 00 00 
  1565)      2552.3  Rx         01CA  5  E6 03 EA 03 00 
  1566)      2553.5  Rx         0080  0  
  1567)      2555.0  Rx         0298  8  00 00 00 00 7C 0F 00 00 
  1568)      2555.7  Rx         01CC  5  EF 03 E4 03 00 
  1569)      2556.7  Rx         0184  8  00 08 A8 0F A8 0F 00 00 
  1570)      2557.6  Rx         0284  8  19 79 19 79 05 00 07 00 
  1571)      2558.6  Rx         0290  8  A3 0F 00 00 01 00 00 00 
  1572)      2559.6  Rx         0291  8  00 00 69 0F 00 00 00 00 
  1573)      2560.5  Rx         0294  8  69 0F 7C 0F 00 00 00 00 
  1574)      2561.5  Rx         0295  8  01 00 00 00 00 00 00 00 
  1575)      2562.5  Rx         0120  8  3F 00 00 00 00 02 00 00 
  1576)      2563.5  Rx         0121  8  00 00 88 C6 00 00 3B 23 
  1577)      2564.5  Rx         0122  8  00 00 04 00 00 00 00 00 
  1578)      2565.4  Rx         02DB  8  00 00 00 00 00 00 00 00 
  1579)      2565.9  Rx         0210  1  00 
  1580)      2566.9  Rx         0310  8  4B 00 00 00 00 00 00 00 
  1581)      2567.4  Rx         0211  1  00 
  1582)      2568.4  Rx         0311  8  00 00 00 00 00 00 00 00 
  1583)      2568.8  Rx         0214  1  00 
  1584)      2569.8  Rx         0314  8  00 00 00 00 00 00 78 00 
  1585)      2570.3  Rx         0215  1  00 
  1586)      2571.3  Rx         0315  8  00 00 00 00 00 00 00 00 
  1587)      2571.7  Rx         0218  1  00 
  1588)      2572.7  Rx         0318  8  00 00 00 00 00 00 6E 00 
  1589)      2573.2  Rx         025B  2  30 00 
  1590)      2574.0  Rx         01C8  5  F3 03 F6 03 00 
  1591)      2575.0  Rx         035B  8  00 00 00 00 00 00 00 00 
  1592)      2576.0  Rx         0384  8  00 00 00 00 00 00 00 00 
  1593)      2577.0  Rx         03DB  8  00 00 00 00 00 00 00 00 
  1594)      2578.0  Rx         045B  8  00 00 00 00 00 00 00 00 
  1595)      2579.0  Rx         0484  8  00 00 00 00 00 00 00 00 
  1596)      2580.0  Rx         04DB  8  00 00 00 00 00 00 00 00 
  1597)      2580.7  Rx         055B  4  00 00 00 00 
  1598)      2581.7  Rx         0120  8  3F 00 00 00 00 02 00 00 
  1599)      2582.6  Rx         0121  8  00 00 88 C6 00 00 3B 23 
  1600)      2583.6  Rx         0122  8  00 00 04 00 00 00 00 00 
  1601)      2597.4  Rx         0120  8  3F 00 00 00 00 02 00 00 
  1602)      2598.3  Rx         0121  8  00 00 88 C6 00 00 3B 23 
  1603)      2599.3  Rx         0122  8  00 00 04 00 00 00 00 00 
  1604)      2602.5  Rx         0110  8  02 00 00 00 00 00 00 00 
  1605)      2603.3  Rx         01CA  5  E9 03 EA 03 00 
  1606)      2606.1  Rx         01CC  5  EF 03 E7 03 00 
  1607)      2606.8  Rx         0248  0  
  1608)      2614.2  Rx         0120  8  3F 00 00 00 00 02 00 00 
  1609)      2615.1  Rx         0121  8  00 00 88 C6 00 00 3B 23 
  1610)      2616.1  Rx         0122  8  00 00 04 00 00 00 00 00 
  1611)      2616.6  Rx         0704  1  05 
  1612)      2625.0  Rx         01C8  5  F4 03 F6 03 00 
  1613)      2631.3  Rx         0120  8  3F 00 00 00 00 02 00 00 
  1614)      2632.2  Rx         0121  8  00 00 88 C6 00 00 3B 23 
  1615)      2633.2  Rx         0122  8  00 00 04 00 00 00 00 00 
  1616)      2639.9  Rx         0080  0  
  1617)      2641.2  Rx         0294  8  69 0F 7C 0F 00 00 00 00 
  1618)      2642.2  Rx         0184  8  00 08 AB 0F AB 0F 00 00 
  1619)      2642.6  Rx         0250  0  
  1620)      2643.5  Rx         0284  8  19 79 19 79 05 00 07 00 
  1621)      2644.5  Rx         0290  8  A3 0F 00 00 01 00 00 00 
  1622)      2645.5  Rx         0291  8  00 00 7C 0F 00 00 00 00 
  1623)      2646.5  Rx         0295  8  01 00 00 00 00 00 00 00 
  1624)      2647.5  Rx         0298  8  00 00 00 00 7C 0F 00 00 
  1625)      2648.5  Rx         0120  8  3F 00 00 00 00 02 00 00 
  1626)      2649.4  Rx         0121  8  00 00 88 C6 00 00 3B 23 
  1627)      2650.4  Rx         0122  8  00 00 04 00 00 00 00 00 
  1628)      2651.4  Rx         02DB  8  00 00 00 00 00 00 00 00 
  1629)      2652.4  Rx         0384  8  00 00 00 00 00 00 00 00 
  1630)      2652.9  Rx         0210  1  00 
  1631)      2653.8  Rx         0310  8  4B 00 00 00 00 00 00 00 
  1632)      2654.8  Rx         0110  8  02 00 00 00 00 00 00 00 
  1633)      2655.6  Rx         01CA  5  E6 03 EB 03 00 
  1634)      2656.0  Rx         0211  1  00 
  1635)      2657.0  Rx         0311  8  00 00 00 00 00 00 00 00 
  1636)      2657.8  Rx         01CC  5  ED 03 E7 03 00 
  1637)      2658.2  Rx         0214  1  00 
  1638)      2659.2  Rx         0314  8  00 00 00 00 00 00 78 00 
  1639)      2659.7  Rx         0215  1  00 
  1640)      2660.7  Rx         0315  8  00 00 00 00 00 00 00 00 
  1641)      2661.1  Rx         0218  1  00 
  1642)      2662.1  Rx         0318  8  00 00 00 00 00 00 6E 00 
  1643)      2662.6  Rx         025B  2  30 00 
  1644)      2663.7  Rx         035B  8  00 00 00 00 00 00 00 00 
  1645)      2664.6  Rx         03DB  8  00 00 00 00 00 00 00 00 
  1646)      2665.6  Rx         045B  8  00 00 00 00 00 00 00 00 
  1647)      2666.6  Rx         0120  8  3F 00 00 00 00 02 00 00 
  1648)      2667.6  Rx         0484  8  00 00 00 00 00 00 00 00 
  1649)      2668.6  Rx         04DB  8  00 00 00 00 00 00 00 00 
